Frequency,S11_Magnitude,S11_Magnitude (linear),S11_Phase,S11_Unwrapped Phase,S11_VSWR,S11_Real,S11_Imaginary,S11_Impedance (absolute),S11_Resistance,S11_Reactance,S11_Capacitance,S11_Inductance,S11_Quality Factor,S11_Group delay,S12_Magnitude,S12_Magnitude (linear),S12_Phase,S12_Unwrapped Phase,S12_VSWR,S12_Real,S12_Imaginary,S12_Impedance (absolute),S12_Resistance,S12_Reactance,S12_Capacitance,S12_Inductance,S12_Quality Factor,S12_Group delay,S21_Magnitude,S21_Magnitude (linear),S21_Phase,S21_Unwrapped Phase,S21_VSWR,S21_Real,S21_Imaginary,S21_Impedance (absolute),S21_Resistance,S21_Reactance,S21_Capacitance,S21_Inductance,S21_Quality Factor,S21_Group delay,S22_Magnitude,S22_Magnitude (linear),S22_Phase,S22_Unwrapped Phase,S22_VSWR,S22_Real,S22_Imaginary,S22_Impedance (absolute),S22_Resistance,S22_Reactance,S22_Capacitance,S22_Inductance,S22_Quality Factor,S22_Group delay,
0,-13.15922586,0.2198055768,-132.9938068,-132.9938068,1.563463594,-0.1498896658,-0.1607718249,37.25770051,35.29745082,-11.92586318,inf,-inf,0.3378675486,-2.786403418e-05,-13.37418353,0.214432606,-131.9912131,-131.9912131,1.545930515,-0.1434589792,-0.1593764844,37.73204602,35.78734931,-11.95712867,inf,-inf,0.3341160745,3.204701406e-05,-14.80280162,0.1819114011,-169.5924297,-169.5924297,1.444722983,-0.178918524,-0.03286213071,34.83785159,34.75764676,-2.362603361,inf,-inf,0.06797362827,-2.07231425e-05,-15.01644083,0.177491663,-168.8064606,-168.8064606,1.431586295,-0.1741152481,-0.03445534522,35.18596117,35.09723103,-2.497245885,inf,-inf,0.07115221947,-9.190985228e-06,
8000,-17.34333077,0.1357792675,143.5031408,-216.4968592,1.314223583,-0.1091515229,0.08075861895,40.2172201,39.68355274,6.529964313,-3.046627353e-06,0.0001299095123,0.1645508998,-2.786403418e-05,-21.32053496,0.08589606173,128.7428597,-231.2571403,1.187935,-0.05375601252,0.06699570537,44.92032721,44.51657677,6.009175421,-3.31066519e-06,0.0001195487465,0.1349873655,3.204701406e-05,-23.10520207,0.06994229789,-37.2748529,-37.2748529,1.150404212,0.05565584022,-0.04235979796,55.88238531,55.68095764,-4.740458198,4.196718346e-06,-9.430841934e-05,0.08513607521,-2.07231425e-05,-10.41902269,0.3013345059,-125.4603242,-125.4603242,1.862600224,-0.1748159178,-0.2454422118,35.86595344,31.55983938,-17.03945875,1.167546938e-06,-0.000338989261,0.5399095524,-9.190985228e-06,
16000,7.930765848,2.49194408,-33.3664142,-33.3664142,nan,2.08119794,-1.370547494,96.58905381,-85.47948066,-44.97447835,2.211739704e-07,-0.0004473694089,-0.526143561,-2.786403418e-05,-11.1610635,0.2766602881,39.18106711,-320.8189329,1.764952576,0.2144541339,0.174786554,76.23224115,71.29497633,26.98853351,-3.685707465e-07,0.0002684599072,0.3785474784,3.204701406e-05,-10.73680814,0.290509001,-74.94719437,-74.94719437,1.818922302,0.07544784959,-0.2805407309,57.51717727,49.04149628,-30.05257599,3.309927225e-07,-0.0002989385013,0.6127989206,-2.07231425e-05,5.565926413,1.898000492,94.67054929,94.67054929,nan,-0.154546995,1.891697939,46.74758236,-26.49298527,38.51568756,-2.582631799e-07,0.0003831226288,-1.453807005,-9.190985228e-06,
24000,-7.648014492,0.4145713401,118.3809387,118.3809387,2.416300118,-0.1970588331,0.3647426659,35.23679602,26.44117004,23.29155041,-2.84715094e-07,0.0001544568908,0.880881987,6.43840013e-07,-19.32653875,0.1080620153,-46.75474283,-406.7547428,1.24230836,0.07403573913,-0.07871536369,57.94209304,57.22069389,-9.114731822,7.275536013e-07,-6.044394268e-05,0.15929083,2.824400971e-05,-20.50172025,0.09438739225,134.5999119,134.5999119,1.208449819,-0.06627429233,0.06720638356,43.81083094,43.41339753,5.887768907,-1.126310504e-06,3.904448022e-05,0.135621012,-6.098535184e-06,-6.868727962,0.4534857053,-49.87612135,-49.87612135,2.659556611,0.2922453996,-0.3467591547,84.88135459,63.94106604,-55.82458626,1.187909559e-07,-0.0003701982854,0.8730631145,3.960828624e-06,
32000,-6.771915918,0.4585684844,100.8093864,100.8093864,2.693911312,-0.08600095835,0.4504318928,43.33400185,28.56552081,32.58598989,-1.526297648e-07,0.0001620694177,1.14074552,-2.985367376e-06,-20.57380085,0.09360735144,-145.7194142,-505.7194142,1.206549229,-0.07734674291,-0.05272397562,42.8392143,42.5988527,-4.531669757,1.097518627e-06,-2.253867632e-05,0.1063800894,2.738382654e-05,-20.43835838,0.0950784473,42.88343979,42.88343979,1.210136331,0.06966774507,0.06470174988,57.45477206,56.97108494,7.439510289,-6.685375487e-07,3.700108864e-05,0.1305839672,6.690567734e-06,-6.598788115,0.4678004058,-74.24837472,-74.24837472,2.757988585,0.1269927242,-0.4502333481,61.77531022,40.48097353,-46.66347323,1.065842645e-07,-0.0002320850758,1.152726063,1.734256289e-05,
40000,-5.834821396,0.5108094583,67.14394432,67.14394432,3.088386487,0.1984072364,0.4707025295,69.25375703,42.76493341,54.47240892,-7.304383368e-08,0.0002167388285,1.273763445,7.122075253e-06,-13.55022384,0.2101303617,174.4793605,-545.5206395,1.532063398,-0.2091556946,0.02021544761,32.70844691,32.67922563,1.382284813,-2.87847594e-06,5.49993652e-06,0.0422985792,2.604102191e-05,-13.42383052,0.2132104438,-8.371263332,-8.371263332,1.541975785,0.210938788,-0.03104063502,76.69876177,76.53705992,-4.977802271,7.99323348e-07,-1.980604593e-05,0.0650378036,2.591300162e-05,-5.886616345,0.5077725072,-98.03679433,-98.03679433,3.06316191,-0.0709911689,-0.5027854144,44.6413855,26.50946535,-35.9179836,1.107766411e-07,-0.0001429131159,1.354911656,6.894603053e-06,
48000,-13.83683252,0.2033098286,35.2413732,35.2413732,1.510386185,0.16604892,0.1173142896,69.57896975,67.58425258,16.54091396,-2.004561531e-07,5.484517126e-05,0.2447450897,6.674590529e-06,-9.888221424,0.3203235942,74.23691335,-645.7630867,1.942576766,0.0870191949,0.308277253,58.62706226,48.3212865,33.19918222,-9.987378482e-08,0.0001100794574,0.687050876,2.398132991e-05,-9.892704767,0.3201582974,-99.80578211,-99.80578211,1.941861307,-0.05452582107,-0.315481014,45.27638453,37.03918365,-26.03939075,1.273350829e-07,-8.633953654e-05,0.7030228043,2.401261001e-05,-13.56166939,0.2098536516,-130.9820198,-130.9820198,1.531176666,-0.1376266747,-0.1584217583,38.16823383,36.23009592,-12.00808993,2.761245128e-07,-3.981555977e-05,0.3314396394,6.460424329e-06,
56000,-11.16065887,0.2766731768,48.60706167,48.60706167,1.765001844,0.1829416746,0.2075581616,71.23365302,64.97100225,29.20620122,-9.730990119e-08,8.300555881e-05,0.4495267152,5.865621707e-06,-10.54253164,0.2970800019,8.276377864,-711.7236221,1.845274008,0.2939859793,0.04276413838,91.52253885,91.12248598,8.547962705,-3.324830317e-07,2.429375925e-05,0.09380739137,2.376500319e-05,-10.60279943,0.2950258217,-167.2027004,-167.2027004,1.836983342,-0.2876973198,-0.06534896828,27.73845731,27.45851215,-3.930918995,7.229995222e-07,-1.117187837e-05,0.1431584848,2.332168998e-05,-10.65940585,0.2931093736,-120.7915828,-120.7915828,1.829292008,-0.1500475749,-0.2517912433,37.648534,32.97552132,-18.16664817,1.564434192e-07,-5.163056886e-05,0.5509131454,6.116097724e-06,
64000,-11.10373085,0.2784924705,13.96372416,13.96372416,1.771973844,0.2702626561,0.06720232767,86.79007589,85.88321236,12.51363691,-1.987268772e-07,3.111886204e-05,0.1457052731,4.021854231e-06,-9.704221636,0.3271816349,-47.94907362,-767.9490736,1.972570464,0.2191432731,-0.2429486532,76.00561495,66.76165395,-36.32815802,6.845367674e-08,-9.034071755e-05,0.5441470646,2.003214409e-05,-9.902595642,0.3197939313,136.5175742,-223.4824258,1.94028544,-0.2320378312,0.220060454,31.91554772,28.6569216,14.04930712,-1.770048846e-07,3.493776056e-05,0.4902587695,2.066993982e-05,-10.94837622,0.2835183607,-155.9010908,-155.9010908,1.791418357,-0.2588074536,-0.1157642554,29.67198151,28.77405315,-7.244332392,3.432746941e-07,-1.801517671e-05,0.2517661434,3.496664668e-06,
72000,-16.01727427,0.1581744331,-6.682183745,-6.682183745,1.375789093,0.1570999353,-0.01840547801,68.63034931,68.58148584,-2.589332972,8.536890947e-07,-5.723682525e-06,0.03775556829,3.894733879e-06,-9.556202728,0.3328050162,-106.6436919,-826.6436919,1.997624456,-0.09532170329,-0.3188619634,42.04219763,34.16470934,-24.50140848,9.021870407e-08,-5.416000378e-05,0.7171554787,1.885291407e-05,-9.775903707,0.324492613,77.63472279,-282.3652772,1.960737423,0.06948795077,0.3169651094,56.73710501,46.29444473,32.80127242,-6.739023086e-08,7.250673118e-05,0.7085358212,1.910143986e-05,-16.37101989,0.1518619616,-173.649066,-173.649066,1.358106711,-0.1509299867,-0.0167986459,36.88954765,36.86775234,-1.267896943,1.743426651e-06,-2.802667581e-06,0.03439040523,3.443651375e-06,
80000,-16.56337446,0.148535847,4.971294986,4.971294986,1.348895127,0.1479770905,0.01287161761,67.36428399,67.34095593,1.772684628,-1.122273391e-06,3.526644014e-06,0.02632401937,2.0708265e-06,-9.363650279,0.3402651619,-156.7659267,-876.7659267,2.031520976,-0.3126699645,-0.1342306734,26.53681247,25.3922608,-7.709442744,2.580519572e-07,-1.533744901e-05,0.3036138769,1.807047218e-05,-8.903248327,0.358787731,20.12837293,-339.8716271,2.119091909,0.3368743959,0.1234677177,99.51965067,95.74834746,27.13696427,-7.331095583e-08,5.398727504e-05,0.2834196619,1.801779244e-05,-16.72838289,0.1457407015,-154.9052494,-154.9052494,1.341209517,-0.1319838956,-0.06181102948,38.38038973,38.07786517,-4.809417821,4.136543887e-07,-9.568032745e-06,0.1263048178,1.990855272e-06,
88000,-16.76214437,0.1451753165,-2.980891604,-2.980891604,1.33966103,0.1449788846,-0.00754953833,66.95502145,66.94705842,-1.03260175,1.751477662e-06,-1.867541736e-06,0.01542415417,8.832731626e-07,-10.27453038,0.30638922,151.2028417,-928.7971583,1.883461529,-0.2684982407,0.1475908157,29.21730822,27.78042338,9.049816361,-1.998470275e-07,1.636730691e-05,0.3257623628,1.713044732e-05,-10.61450413,0.2946285265,-24.06883371,-384.0688337,1.835385432,0.2690123896,-0.1201594892,86.03486083,83.20201649,-21.89570115,8.259972524e-08,-3.960010307e-05,0.2631631067,1.67777698e-05,-16.39311042,0.151476227,-170.8780833,-170.8780833,1.357034727,-0.1495605429,-0.02401439871,36.99643628,36.95181838,-1.816429459,9.956780265e-07,-3.28515599e-06,0.04915670023,1.063540846e-06,
96000,-19.27496201,0.1087055955,-17.70682351,-17.70682351,1.243927472,0.1035556969,-0.03306242791,61.53760591,61.40029352,-4.108636934,4.035070553e-07,-6.811561224e-06,0.0669155911,1.080842732e-06,-10.58268935,0.295709674,102.9128602,-977.0871398,1.839737997,-0.06608191494,0.28823149,44.25122464,37.411847,23.63312476,-7.015001221e-08,3.918050653e-05,0.6317016308,1.657056818e-05,-10.98082567,0.2824611458,-72.08685874,-432.0868587,1.787305507,0.08687794899,-0.2687685265,58.81230909,50.78293905,-29.66447037,5.588719333e-08,-4.917965723e-05,0.5841424488,1.595779685e-05,-19.25133886,0.1090016462,174.0451019,-185.9548981,1.244673058,-0.1084134591,0.01130843757,40.22018337,40.20965186,0.9203517043,-1.801337448e-06,1.525817949e-06,0.02288882549,1.424229092e-06,
104000,-21.56922765,0.08347157675,-8.062258041,-8.062258041,1.182147274,0.08264656519,-0.01170680947,59.00788419,58.99148928,-1.39089532,1.100252456e-06,-2.128537168e-06,0.02357789805,1.087995294e-06,-10.98806231,0.2822259115,56.83847319,-1023.161527,1.786392031,0.1543779197,0.2362602866,67.10125743,59.69345941,30.64750645,-4.993345849e-08,4.690098217e-05,0.5134148156,1.589332145e-05,-11.4152982,0.2686798455,-117.8575464,-477.8575464,1.734780366,-0.125547336,-0.237543103,39.38583339,35.05715588,-17.95103599,8.525056669e-08,-2.747111646e-05,0.5120505513,1.585970117e-05,-21.58271558,0.08334205806,-173.4392298,-173.4392298,1.181838948,-0.08279627001,-0.009522411126,42.35412132,42.34633461,-0.8121193141,1.884373348e-06,-1.242815416e-06,0.01917803091,9.378952517e-07,
112000,-20.45497499,0.09489673065,-8.052157136,-8.052157136,1.209692604,0.09396114067,-0.01329261189,60.36850198,60.34679076,-1.618911869,8.777662979e-07,-2.300516306e-06,0.02682680965,1.144133936e-06,-11.30411903,0.2721410452,11.80007574,-1068.199924,1.747785113,0.2663899207,0.05565212143,86.1479698,85.53222915,10.28156004,-1.38211154e-07,1.461036699e-05,0.1202068523,1.553412481e-05,-11.75876946,0.2582626047,-162.7695454,-522.7695454,1.696372076,-0.2466720498,-0.07650145651,30.31193127,29.91263781,-4.903802236,2.897805028e-07,-6.968431838e-06,0.1639374724,1.54855361e-05,-20.1348529,0.09845943852,-174.133575,-174.133575,1.218424867,-0.09794379485,-0.01006350263,41.0801742,41.07169241,-0.8347423801,1.702353099e-06,-1.186190857e-06,0.02032403174,1.082959945e-06,
120000,-21.1986577,0.08710981975,-23.47535702,-23.47535702,1.190844028,0.07989986994,-0.03470059771,58.67240098,58.52945745,-4.093073047,3.240331109e-07,-5.428606732e-06,0.06993184671,3.687205142e-07,-11.72541842,0.2592561568,-32.10459495,-1112.104595,1.699988692,0.2196105244,-0.137785966,77.44045124,74.26728337,-21.94069527,6.044891358e-08,-2.90997509e-05,0.2954288117,1.528743777e-05,-12.01172464,0.2508498053,152.8928128,-567.1071872,1.669691624,-0.2232953724,0.1143013625,31.94916145,31.03889411,7.572051869,-1.751561156e-07,1.00427457e-05,0.2439536615,1.521544572e-05,-21.01834275,0.08893707915,169.7055635,-190.2944365,1.195238061,-0.08750540521,0.0158936499,41.95544897,41.93392962,1.343593958,-9.871220279e-07,1.781996833e-06,0.03204073575,3.868484844e-07,
128000,-24.80222383,0.05752926277,-26.47580269,-26.47580269,1.122081802,0.05149575024,-0.0256476857,55.42538076,55.35212314,-2.848735936,4.364735872e-07,-3.542112545e-06,0.05146570311,-6.480793677e-07,-12.00527034,0.2510362754,-76.30700302,-1156.307003,1.6703563,0.05942515549,-0.2439013376,55.94096134,49.61934183,-25.83238417,4.813330372e-08,-3.211993463e-05,0.5206111814,1.507894517e-05,-12.46555576,0.2380796151,109.5462418,-610.4537582,1.624946175,-0.07965370884,0.2243595102,42.95284972,38.78809134,18.45077965,-6.738999741e-08,2.294166239e-05,0.4756815563,1.497927166e-05,-24.74484807,0.05791053759,166.878082,-193.121918,1.122940633,-0.05639844669,0.01314707477,44.66212856,44.64659329,1.177894423,-1.055610731e-06,1.464591561e-06,0.02638262711,-6.409723708e-07,
136000,-25.31467428,0.05423333178,-4.160010669,-4.160010669,1.114686494,0.05409044596,-0.003934200222,55.71825901,55.71652409,-0.4396931723,2.661530832e-06,-5.145539839e-07,0.00789161168,-4.90994414e-07,-12.31027989,0.2423739862,-119.2470914,-1199.247091,1.639824879,-0.1184183426,-0.211476347,39.8244059,36.32556531,-16.32288609,7.169424133e-08,-1.910197064e-05,0.449349816,1.492107298e-05,-12.76982841,0.2298839121,66.88214159,-653.1178584,1.597011063,0.09025789396,0.2114240423,59.45313322,54.28865745,24.23668133,-4.828453692e-08,2.83631444e-05,0.4464409781,1.479933984e-05,-24.95482628,0.05652735776,-169.5156765,-169.5156765,1.119828292,-0.05558361835,-0.01028608506,44.73485289,44.72532893,-0.9230465249,1.267820097e-06,-1.080201597e-06,0.02063811596,-4.363661621e-07,
144000,-23.09130207,0.07005431589,-8.377487417,-8.377487417,1.150663242,0.0693068122,-0.01020651548,57.44595738,57.43387422,-1.178181504,9.380920143e-07,-1.30217646e-06,0.02051370415,7.660419768e-07,-12.54753896,0.2358430334,-161.7654865,-1241.765486,1.617263321,-0.2239998775,-0.07379695983,31.78465654,31.40344639,-4.907947275,2.251944853e-07,-5.424472703e-06,0.1562868997,1.475309642e-05,-12.99692199,0.2239514612,24.53427838,-695.4657216,1.577158386,0.2037315577,0.09299306089,75.29924388,73.89597286,14.46932358,-7.63852335e-08,1.599211369e-05,0.1958066593,1.46509124e-05,-22.65874981,0.07363130699,-175.2929529,-175.2929529,1.158967607,-0.07338297077,-0.006042265324,43.16362721,43.16044139,-0.524416839,2.107565162e-06,-5.796078623e-07,0.01215040491,9.113151903e-07,
152000,-23.80220684,0.06454902077,-25.45419509,-25.45419509,1.138006207,0.05828319352,-0.02774248431,56.1839649,56.09695875,-3.125560883,3.350029109e-07,-3.272687266e-06,0.05571711823,2.957072663e-07,-12.83450566,0.228178498,155.7611958,-1284.238804,1.591272716,-0.2080628024,0.09367655644,32.90688182,32.28239897,6.380406528,-1.641074106e-07,6.680744986e-06,0.1976435064,1.457218382e-05,-13.30326824,0.2161904911,-17.71169919,-737.7116992,1.551640389,0.205942928,-0.06577110948,75.78884729,75.07741664,-10.36006196,1.010681209e-07,-1.084773073e-05,0.1379917214,1.450342389e-05,-23.4674491,0.06708532762,167.0747537,-192.9252463,1.143818786,-0.06538556847,0.01500561957,43.86403432,43.84411528,1.321764753,-7.921772706e-07,1.383982855e-06,0.03014691354,4.325679201e-07,
160000,-27.4547814,0.04238975728,-26.85971494,-26.85971494,1.088532381,0.03781655609,-0.01915201317,53.92878561,53.88912473,-2.06788622,4.810314923e-07,-2.05696446e-06,0.03837297842,-1.446222409e-06,-12.9695294,0.2246588493,113.7442649,-1326.255735,1.579509675,-0.09046002429,0.2056418794,42.01647067,38.55509348,16.69995731,-5.956412797e-08,1.661175472e-05,0.4331452942,1.445203551e-05,-13.66359417,0.2074055109,-59.1299764,-779.1299764,1.523358448,0.106418161,-0.1780230911,61.49688939,57.63702567,-21.44389601,4.63870182e-08,-2.13306378e-05,0.3720507045,1.441687337e-05,-27.51195574,0.04211164565,165.4599281,-194.5400719,1.087926,-0.04076290613,0.01057242559,46.08378419,46.07344889,0.9759469557,-1.019234077e-06,9.707923887e-07,0.02118241588,-1.351981772e-06,
168000,-28.25134954,0.03867519599,0.8229184579,0.8229184579,1.080462287,0.03867120699,0.0005554586865,54.0226814,54.02264797,0.06010460087,-1.576170273e-05,5.694014482e-08,0.00111258154,-1.393595123e-06,-13.35841223,0.2148223131,73.1585859,-1366.841414,1.547194136,0.06223911191,0.2056086554,56.34967613,51.74579607,22.30826278,-4.246636598e-08,2.113375175e-05,0.4311125633,1.439604571e-05,-13.8284889,0.2035052208,-100.1350351,-820.1350351,1.511002021,-0.03581054816,-0.2003296771,46.6718576,43.06177341,-17.9984989,5.263499233e-08,-1.705089327e-05,0.4179692911,1.439732231e-05,-27.63342081,0.04152684716,-166.1210951,-166.1210951,1.086652082,-0.04031446515,-0.009961070955,46.12515105,46.11596879,-0.9203159402,1.029375685e-06,-8.718620898e-07,0.01995655657,-1.28459271e-06,
176000,-25.16322172,0.05518727041,-0.6904415103,-0.6904415103,1.116821606,0.05518326348,-0.0006650168732,55.84062871,55.84057902,-0.07449674439,1.213864387e-05,-6.736661997e-08,0.001334096919,6.547249859e-07,-13.56238428,0.2098363803,31.42650713,-1408.573493,1.53112134,0.179055412,0.1094096246,71.48734006,69.685096,15.95077379,-5.669251293e-08,1.442411645e-05,0.2288979238,1.436985974e-05,-14.01897182,0.1990908996,-141.8570302,-861.8570302,1.497162286,-0.156579427,-0.1229636912,36.64081925,35.49547696,-9.089595734,9.948621213e-08,-8.219625522e-06,0.256077577,1.438898057e-05,-24.6377807,0.0586287946,-169.226491,-169.226491,1.124560416,-0.0575953907,-0.01095931229,44.55473905,44.54396637,-0.9797100683,9.230174096e-07,-8.859414782e-07,0.02199422611,6.902724704e-07,
184000,-25.12281292,0.05544461266,-18.47106203,-18.47106203,1.11739833,0.05258831652,-0.01756627561,55.54892318,55.51446162,-1.95637878,4.421293697e-07,-1.692213877e-06,0.0352408854,1.047550456e-06,-13.78559067,0.2045127867,-10.38298351,-1450.382984,1.514182462,0.2011638981,-0.03685873064,75.13757273,74.91618379,-5.763700414,1.500724282e-07,-4.985442453e-06,0.07693531787,1.419457717e-05,-14.22337619,0.194460407,176.3303865,-903.6696135,1.482807819,-0.1940617053,0.01244606124,33.74995635,33.73866796,0.8728331084,-9.909941643e-07,7.549766505e-07,0.02587040808,1.408192949e-05,-24.7647445,0.05777803595,172.9160983,-187.0839017,1.122642091,-0.05733699463,0.007125341015,44.57748733,44.57293121,0.6373222436,-1.357198067e-06,5.512662251e-07,0.01429841445,9.128308722e-07,
192000,-28.4791075,0.03767425086,-26.64076449,-26.64076449,1.078298333,0.03367458064,-0.01689295108,53.48377751,53.45319141,-1.808531233,4.583454133e-07,-1.499149403e-06,0.03383392432,-1.361659454e-06,-14.0339292,0.1987483538,-51.41093069,-1491.410931,1.496094716,0.123965408,-0.1553495598,63.76574222,60.67050167,-19.62549639,4.223750466e-08,-1.626820188e-05,0.3234767449,1.415495732e-05,-14.4549393,0.1893446486,135.4359926,-944.5640074,1.467139699,-0.1349018119,0.1328642055,38.29867154,36.92202724,10.1760575,-8.145905186e-08,8.435259644e-06,0.2756093924,1.40682884e-05,-28.21478038,0.03883836878,166.0014079,-193.9985921,1.080815479,-0.03768493411,0.009394925788,46.36867385,46.36046585,0.8724222505,-9.501499931e-07,7.231787168e-07,0.01881823736,-1.422803628e-06,
