Frequency,S11_Magnitude,S11_Magnitude (linear),S11_Phase,S11_Unwrapped Phase,S11_VSWR,S11_Real,S11_Imaginary,S11_Impedance (absolute),S11_Resistance,S11_Reactance,S11_Capacitance,S11_Inductance,S11_Quality Factor,S11_Group delay,S12_Magnitude,S12_Magnitude (linear),S12_Phase,S12_Unwrapped Phase,S12_VSWR,S12_Real,S12_Imaginary,S12_Impedance (absolute),S12_Resistance,S12_Reactance,S12_Capacitance,S12_Inductance,S12_Quality Factor,S12_Group delay,S21_Magnitude,S21_Magnitude (linear),S21_Phase,S21_Unwrapped Phase,S21_VSWR,S21_Real,S21_Imaginary,S21_Impedance (absolute),S21_Resistance,S21_Reactance,S21_Capacitance,S21_Inductance,S21_Quality Factor,S21_Group delay,S22_Magnitude,S22_Magnitude (linear),S22_Phase,S22_Unwrapped Phase,S22_VSWR,S22_Real,S22_Imaginary,S22_Impedance (absolute),S22_Resistance,S22_Reactance,S22_Capacitance,S22_Inductance,S22_Quality Factor,S22_Group delay,
0,-13.31369411,0.2159311485,-133.668197,-133.668197,1.550796395,-0.1490963573,-0.1561939088,37.3005051,35.44617367,-11.61449322,inf,-inf,0.3276656412,1.808726361e-05,-13.57364317,0.2095645609,-132.8125748,-132.8125748,1.530250924,-0.142420562,-0.1537325232,37.7911119,35.97654298,-11.56963672,inf,-inf,0.3215883396,3.099763534e-05,-15.88715266,0.1605618514,-163.3225932,-163.3225932,1.382545996,-0.1538079349,-0.04607849035,36.69461383,36.53152957,-3.455724415,inf,-inf,0.09459566724,-2.033699199e-05,-16.13178497,0.1561028211,-162.7916801,-162.7916801,1.369956969,-0.1491149427,-0.04618251424,37.04808132,36.88316204,-3.491802882,inf,-inf,0.09467200448,-1.027654559e-05,
8000,-15.52463689,0.167404896,19.22483065,19.22483065,1.402127986,0.1580693541,0.05512239551,68.70539775,68.26767367,7.743152616,-2.56928526e-06,0.0001540451267,0.113423414,1.808726361e-05,-21.90623188,0.08029498216,109.5358436,-250.4641564,1.174610295,-0.02685036102,0.07567259922,47.39968429,46.85915127,7.137927796,-2.78713493e-06,0.0001420045615,0.1523272958,3.099763534e-05,-27.05313735,0.04439592739,-47.50519853,-47.50519853,1.092916991,0.02999048385,-0.03273483233,53.08835735,52.97449915,-3.475072056,5.724879244e-06,-6.913436192e-05,0.0655989601,-2.033699199e-05,-15.24685524,0.172845166,-167.8182357,-167.8182357,1.417926992,-0.1689532293,-0.03647269818,35.56353258,35.46342226,-2.666558017,7.460691933e-06,-5.304948618e-05,0.07519178487,-1.027654559e-05,
16000,-5.344094053,0.540499501,-171.4917656,-171.4917656,3.352552401,-0.5345510933,-0.07996773849,15.36698727,14.98915232,-3.38668133,2.937147896e-06,-3.368794215e-05,0.2259421518,1.808726361e-05,-30.14856459,0.03108649589,-12.4264108,-372.4264108,1.064167742,0.03035823849,-0.006689363371,53.13072698,53.12596348,-0.7114452679,1.398165733e-05,-7.076876945e-06,0.01339166805,3.099763534e-05,-22.920991,0.07144148119,174.6456257,174.6456257,1.153876099,-0.07112975266,0.006666597434,43.35964795,43.35575472,0.5810362688,-1.711972983e-05,5.779674643e-06,0.01340159507,-2.033699199e-05,-8.884590122,0.3595592732,-2.795195133,-2.795195133,2.122849495,0.3591314805,-0.01753427075,106.0074005,105.9215269,-4.266039267,2.331714108e-06,-4.24350773e-05,0.04027546988,-1.027654559e-05,
24000,-7.429982701,0.4251095535,117.6408625,-242.3591375,2.478923701,-0.1972202013,0.3765930491,35.32611322,26.00633045,23.90826325,-2.773708777e-07,0.0001585465949,0.9193247502,2.565994876e-05,-20.69566594,0.09230318838,-39.9362107,-399.9362107,1.203378897,0.07077435627,-0.05925258711,57.58767551,57.18068606,-6.834435726,9.703004356e-07,-4.532225955e-05,0.1195234999,2.585496518e-05,-20.51922345,0.09419738091,136.7504993,136.7504993,1.20798655,-0.06861120011,0.06454184525,43.60445322,43.23927687,5.631454152,-1.17757435e-06,3.734474021e-05,0.1302393231,3.118478887e-06,-7.321364128,0.4304590012,-52.40474617,-52.40474617,2.511599699,0.2626142257,-0.3410699637,80.48976671,61.71386126,-51.67206086,1.283373617e-07,-0.000342660996,0.8372845225,-1.914663353e-06,
32000,-6.829872742,0.45551886,96.66719117,-263.3328088,2.673221812,-0.05288665365,0.4524383203,45.79618489,30.17285563,34.45126026,-1.443660387e-07,0.0001713465115,1.141796477,1.276247482e-05,-19.68345893,0.1037115329,-144.4424966,-504.4424966,1.23142445,-0.08437268196,-0.06031030253,42.24541448,41.93483278,-5.113202933,9.726959867e-07,-2.543098506e-05,0.1219321169,2.446291501e-05,-20.5827918,0.09351050668,37.40224259,37.40224259,1.206313493,0.07428389059,0.05679893008,57.99645679,57.61932938,6.603172077,-7.532125338e-07,3.284148363e-05,0.1145999467,2.4858747e-05,-5.802301829,0.5127254897,-72.51616839,-72.51616839,3.104462593,0.1540415319,-0.4890384793,64.1352542,38.60018869,-51.21871011,9.710498295e-08,-0.0002547409654,1.326903102,1.06205204e-05,
40000,-6.070157741,0.497155345,55.64209012,-304.3579099,2.9773715,0.2805749452,0.4104158101,81.17840238,54.87038606,59.82619616,-6.650721311e-08,0.0002380408711,1.090318484,6.971444698e-06,-13.32923503,0.2155451466,163.2323879,-556.7676121,1.549541241,-0.2063807549,0.06218274884,32.94963993,32.67291747,4.261365446,-9.337086031e-07,1.695543437e-05,0.1304250057,2.670938988e-05,-13.8771983,0.2023671825,-23.78960294,-23.78960294,1.507419399,0.1851726261,-0.08163072401,72.53459856,71.50590454,-12.17265801,3.268697415e-07,-4.843346732e-05,0.1702329072,2.610205558e-05,-5.636884875,0.5225835758,-105.3865968,-105.3865968,3.189214905,-0.1386574028,-0.5038528737,40.07083418,23.44241706,-32.49807431,1.224341338e-07,-0.0001293057292,1.386293667,6.869461937e-06,
48000,-13.82448143,0.2035991349,35.72798327,-324.2720167,1.511298126,0.1652814577,0.1188892235,69.46217987,67.41885574,16.72400441,-1.982616065e-07,5.545224937e-05,0.2480612319,6.067014564e-06,-9.810978786,0.3231848996,73.72331377,-646.2766862,1.955016811,0.0905810158,0.3102314602,59.00060719,48.49803238,33.60078131,-9.868008574e-08,0.0001114110508,0.6928277224,2.3910241e-05,-9.887356035,0.3203555101,-103.05028,-103.05028,1.942714948,-0.07233820513,-0.3120814588,43.81830141,35.97247751,-25.02047961,1.325205605e-07,-8.296110435e-05,0.6955450762,2.328035512e-05,-13.50027272,0.2113422682,-129.2397635,-129.2397635,1.535954343,-0.1336881372,-0.1636857852,38.48464661,36.40640202,-12.47565296,2.657759071e-07,-4.136587159e-05,0.3426774486,6.562367251e-06,
56000,-11.02619197,0.2809897006,47.72166279,-312.2783372,1.781601323,0.1890309938,0.2079002049,72.09023028,65.70507149,29.66217931,-9.58140171e-08,8.430147249e-05,0.4514442893,5.088258601e-06,-10.49374437,0.2987533484,6.365669928,-713.6343301,1.852063529,0.2969113936,0.03312382147,92.15744431,91.91460048,6.685862703,-4.250838944e-07,1.900157318e-05,0.07273994195,2.322488984e-05,-10.62384621,0.29431181,-168.8928398,-168.8928398,1.834112896,-0.2887989369,-0.05669757978,27.65241578,27.44174544,-3.406861548,8.342142807e-07,-9.682479566e-06,0.1241488649,2.237825542e-05,-10.54687648,0.2969314343,-122.9632005,-122.9632005,1.844672764,-0.1615604729,-0.2491314719,36.81341816,32.30492052,-17.65275805,1.609976496e-07,-5.017006613e-05,0.5464417732,5.805124978e-06,
64000,-11.11072382,0.2782683477,13.26239511,-346.7376049,1.771113049,0.2708468338,0.06383780935,86.92277388,86.10215831,11.91582789,-2.086968701e-07,2.963223297e-05,0.1383917445,3.495074088e-06,-9.667024468,0.3285857889,-50.31660791,-770.3166079,1.978787114,0.2098167372,-0.2528745884,74.48608605,64.79629757,-36.73713158,6.769162095e-08,-9.135775135e-05,0.5669634371,2.039868263e-05,-9.881536013,0.3205702378,134.7167472,-225.2832528,1.943644967,-0.225554,0.2277952379,32.37962615,28.87091038,14.65983367,-1.696333015e-07,3.645601553e-05,0.5077717841,2.014908368e-05,-11.00669627,0.2816210974,-158.2259549,-158.2259549,1.784046125,-0.2615285476,-0.1044665559,29.45949203,28.729038,-6.519512746,3.81438933e-07,-1.621269813e-05,0.2269311192,3.604368526e-06,
72000,-16.09357526,0.1567910386,-6.396039644,-366.3960396,1.3718913,0.1558151119,-0.01746655956,68.45062907,68.40677354,-2.449888634,9.022799201e-07,-5.415442862e-06,0.03581353873,3.627838538e-06,-9.537658841,0.3335162953,-109.186065,-829.186065,2.000823555,-0.1096057791,-0.3149915751,40.94107766,33.40112129,-23.67566126,9.33653044e-08,-5.233470168e-05,0.7088283371,1.901207655e-05,-9.782163847,0.3242588273,75.08000536,-284.9199946,1.959713098,0.08348692542,0.3133268586,58.22277294,47.69158435,33.39766566,-6.618682105e-08,7.382504969e-05,0.700284256,1.89526175e-05,-16.46286479,0.150264628,-174.4873007,-174.4873007,1.353673939,-0.1495696436,-0.01443537789,36.99148702,36.97536048,-1.092167145,2.023944166e-06,-2.414219441e-06,0.02953770107,3.403285311e-06,
80000,-18.04811642,0.1251970739,12.45776763,-347.5422324,1.286229207,0.1222493437,0.02700750444,63.91583147,63.81981401,3.502121144,-5.680662396e-07,6.967248642e-06,0.05487513867,2.087312328e-06,-10.72713271,0.2908327865,-162.2418487,-882.2418487,1.820209341,-0.2769753075,-0.08870393895,28.45374263,27.93399798,-5.413614937,3.674876791e-07,-1.077004472e-05,0.1938002194,1.809820445e-05,-11.32617213,0.2714509672,24.81649241,-335.1835076,1.745182424,0.2463842899,0.1139315992,82.105414,79.728627,19.61236972,-1.014378587e-07,3.901756983e-05,0.2459890563,1.810692822e-05,-17.59580151,0.1318894097,-155.3806202,-155.3806202,1.303853935,-0.1199000363,-0.05494358629,39.32288372,39.07927053,-4.370331662,4.552141445e-07,-8.694498587e-06,0.111832478,2.014585682e-06,
88000,-16.63142267,0.1473767132,-4.11689842,-364.1168984,1.345701825,0.1469964301,-0.01058041292,67.23049242,67.21476988,-1.453898564,1.243951225e-06,-2.629490263e-06,0.0216306411,1.119619634e-06,-10.27130969,0.3065028489,148.5543881,-931.4456119,1.883933981,-0.2614885416,0.1598991526,29.71194373,28.01794148,9.889112992,-1.828858564e-07,1.788524108e-05,0.352956444,1.705500508e-05,-10.63084377,0.2940748009,-26.86040441,-386.8604044,1.833161364,0.2623470654,-0.1328683777,84.67512409,81.30500251,-23.651072,7.646921453e-08,-4.277482976e-05,0.2908931957,1.708520942e-05,-16.41329498,0.1511246301,-173.3931764,-173.3931764,1.356058464,-0.150121022,-0.01738771312,36.95088099,36.92750366,-1.31418387,1.376199282e-06,-2.376805216e-06,0.03558821311,1.09858143e-06,
96000,-19.32940551,0.1080263555,-17.93447302,-377.934473,1.242218716,0.1027772798,-0.03326445904,61.44078637,61.3020563,-4.126514642,4.017589017e-07,-6.841200032e-06,0.06731445715,1.589286801e-06,-10.59915653,0.2951495827,100.1990215,-979.8009785,1.837481472,-0.05226152603,0.2904858156,45.40297979,38.30391463,24.37705269,-6.800920569e-08,4.041383785e-05,0.636411524,1.642047521e-05,-11.01891313,0.2812252705,-75.05281429,-435.0528143,1.78251296,0.07253602938,-0.2717097297,57.24162865,49.2985531,-29.09049179,5.698989217e-08,-4.822807881e-05,0.5900881459,1.653674309e-05,-19.45532131,0.1064716378,172.2169491,-187.7830509,1.23831731,-0.1054908151,0.01441865395,40.45937282,40.44217298,1.179615766,-1.405427121e-06,1.955642502e-06,0.02916796204,1.489234361e-06,
104000,-21.39907886,0.08512283067,-7.322442046,-367.322442,1.186085812,0.08442861967,-0.01084916964,59.2202193,59.20607915,-1.294050146,1.182594041e-06,-1.980331512e-06,0.02185671073,1.09086389e-06,-10.99909884,0.2818675355,54.00142674,-1025.998573,1.785001513,0.165671902,0.2280397519,68.66260003,61.52545918,30.48229839,-5.020408802e-08,4.664815832e-05,0.4954420299,1.603883265e-05,-11.4350465,0.2680696671,-121.012357,-481.012357,1.732500499,-0.1381156388,-0.2297507709,38.41189491,34.42414257,-17.0426547,8.979446092e-08,-2.608098787e-05,0.4950785533,1.59239297e-05,-21.59025399,0.08326975759,-174.1056579,-174.1056579,1.181666872,-0.0828295073,-0.008551330267,42.35116194,42.34488267,-0.7292667819,2.098458382e-06,-1.116023204e-06,0.01722207587,1.033311581e-06,
112000,-20.21895849,0.09751065539,-8.825190496,-368.8251905,1.216092646,0.09635622914,-0.0149601143,60.66041179,60.6327547,-1.831560964,7.75855298e-07,-2.602696259e-06,0.03020745096,1.117395394e-06,-11.3204834,0.2716288095,8.579788911,-1071.420211,1.7458527,0.26858903,0.04052336504,86.6334093,86.30363644,7.551817299,-1.881701081e-07,1.073133083e-05,0.08750288644,1.564067422e-05,-11.76925689,0.257950964,-166.2366318,-526.2366318,1.695239672,-0.2505443114,-0.0613697635,30.02933577,29.7730617,-3.91481844,3.629865087e-07,-5.563059875e-06,0.131488608,1.554691776e-05,-20.10002549,0.09885501937,-176.4693542,-176.4693542,1.219398702,-0.0986673928,-0.006087729698,41.01966322,41.01656285,-0.5043239076,2.81768573e-06,-7.166575252e-07,0.01229561603,1.124542782e-06,
120000,-21.25975783,0.08649920352,-24.37997969,-384.3799797,1.189379591,0.07878589242,-0.03570567694,58.54050433,58.3895651,-4.201111081,3.15700101e-07,-5.571896625e-06,0.07194968954,3.119592373e-07,-11.59034515,0.2633193306,-36.59518587,-1116.595186,1.714880522,0.2114105507,-0.1569797723,75.96049865,71.97524698,-24.2808809,5.462286142e-08,-3.220351848e-05,0.3373504353,1.534213466e-05,-12.20719627,0.2452676028,149.4269167,-570.5730833,1.649945872,-0.2111707635,0.1247521768,32.79595174,31.69798468,8.414999552,-1.576103699e-07,1.116073979e-05,0.2654742766,1.52721079e-05,-21.12951568,0.08780600456,166.0702885,-193.9297115,1.192516077,-0.08522378604,0.02113766139,42.15014843,42.11194742,1.794128713,-7.392397115e-07,2.379537111e-06,0.04260379354,3.248663677e-07,
128000,-24.86643183,0.05710556184,-25.49619787,-385.4961979,1.121128219,0.05154427108,-0.02458115765,55.43107767,55.3637748,-2.730716342,4.553376613e-07,-3.395367219e-06,0.04932316035,-6.634169339e-07,-12.05423925,0.2496249768,-79.72838094,-1159.728381,1.665333917,0.04451183648,-0.2456243584,54.38137769,48.17106806,-25.2365299,4.926976877e-08,-3.137905063e-05,0.5238939247,1.508646259e-05,-12.52729187,0.2363934323,105.8519331,-614.1480669,1.619149814,-0.06457140821,0.2274035797,44.21656868,39.8353793,19.18977598,-6.479481544e-08,2.386052894e-05,0.4817269552,1.503461939e-05,-25.14404741,0.05530923221,165.9355598,-194.0644402,1.117094893,-0.05365122871,0.01344086401,44.90894108,44.89262404,1.210494346,-1.027181991e-06,1.50512624e-06,0.02696421455,-7.260434927e-07,
136000,-24.93970326,0.05662586343,-3.479151378,-363.4791514,1.120049641,0.05652149893,-0.003436359611,55.99068121,55.98935039,-0.3860369076,3.031463861e-06,-4.517623681e-07,0.006894827407,-3.812860212e-07,-12.35823568,0.2410394989,-122.7712274,-1202.771227,1.63518325,-0.1304713132,-0.2026752981,38.86982875,35.70392315,-15.365333,7.616215897e-08,-1.798138749e-05,0.430354192,1.489532939e-05,-12.82291318,0.228483236,63.02500675,-656.9749932,1.592296232,0.1036403561,0.2036253072,61.04607761,56.08762142,24.09984056,-4.855870028e-08,2.820300553e-05,0.4296819859,1.486690321e-05,-24.91434904,0.05679139651,-169.9861906,-169.9861906,1.12042171,-0.0559262291,-0.009875202092,44.70407621,44.69530323,-0.885606618,1.321418461e-06,-1.036387286e-06,0.01981431054,-4.022454783e-07,
144000,-22.85655861,0.07197340834,-9.722400805,-369.7224008,1.15511066,0.07093969169,-0.01215449098,57.63441895,57.61721999,-1.407909172,7.850241209e-07,-1.556081279e-06,0.02443556237,9.095961788e-07,-12.57969268,0.2349715955,-165.5772517,-1245.577252,1.614282017,-0.2275663122,-0.05852541553,31.51637442,31.27725132,-3.874971852,2.852259842e-07,-4.282784199e-06,0.123891061,1.467428004e-05,-13.05825761,0.2223755931,20.46580398,-699.534196,1.571935734,0.2083394765,0.07775324409,76.10840373,75.10992652,12.28771976,-8.994692932e-08,1.358091207e-05,0.1635964822,1.462242107e-05,-22.67976177,0.07345340144,-177.9860883,-177.9860883,1.158553065,-0.07340803102,-0.002581310609,43.16126107,43.16067965,-0.2240309778,4.933436757e-06,-2.476085939e-07,0.005190626737,9.673841668e-07,
152000,-23.84848115,0.06420604849,-26.77635952,-386.7763595,1.137222619,0.05732134797,-0.02892541667,56.07527812,55.98090435,-3.251947852,3.219830212e-07,-3.405023522e-06,0.05809030579,1.796825269e-07,-12.88404873,0.2268807051,151.8365063,-1288.163494,1.586922889,-0.2000190191,0.1070852294,33.49621266,32.67367277,7.377490748,-1.419279305e-07,7.724763949e-06,0.2257931271,1.456564488e-05,-13.36616802,0.2146305799,-21.96342499,-741.963425,1.546572287,0.1990532928,-0.08027498022,74.64583796,73.61057438,-12.38888471,8.451705046e-08,-1.297205422e-05,0.1683030572,1.45243212e-05,-23.79252869,0.06462098383,163.8234474,-196.1765526,1.138170694,-0.0620624955,0.01800328312,44.15820743,44.12937017,1.595610153,-6.562204382e-07,1.670718705e-06,0.03615755556,2.514071655e-07,
160000,-28.01135949,0.03975868623,-26.94577877,-386.9457788,1.082809781,0.03544231444,-0.01801653346,53.67322524,53.63830475,-1.935812666,5.138505454e-07,-1.925588467e-06,0.03609011648,-1.539901162e-06,-13.49364567,0.211503577,111.6581196,-1328.34188,1.536473143,-0.07805909808,0.1965719723,43.01126615,39.77452131,16.36937599,-6.076703199e-08,1.62829194e-05,0.4115543179,1.451915917e-05,-13.59981516,0.2089340593,-62.21671442,-782.2167144,1.528234243,0.0973901341,-0.1848475126,60.39277455,56.3303559,-21.77563369,4.568034201e-08,-2.166062338e-05,0.3865701421,1.449199689e-05,-27.90477317,0.04024957895,165.1004087,-194.8995913,1.083875095,-0.03889630413,0.01034920917,46.25638399,46.24644632,0.9587815464,-1.037481789e-06,9.537176403e-07,0.02073200478,-1.532441835e-06,
168000,-27.75310732,0.04095855569,2.545109217,-357.4548908,1.085415611,0.04091815295,0.001818802707,54.26637327,54.26601304,0.1977300554,-4.791132283e-06,1.873197364e-07,0.003643718127,-1.324670671e-06,-13.41163884,0.21350992,68.86580077,-1371.134199,1.542943708,0.07698177325,0.1991489205,57.99473537,53.52113948,22.3355537,-4.241447803e-08,2.115960582e-05,0.4173220885,1.454491341e-05,-13.89585075,0.2019330767,-104.7839593,-824.7839593,1.506055497,-0.05152828773,-0.1952480551,45.27154025,41.93018462,-17.06962139,5.549923048e-08,-1.617092036e-05,0.4070962612,1.451993637e-05,-27.68126964,0.04129871304,-165.1497023,-165.1497023,1.086155539,-0.03991928525,-0.01058462866,46.16172344,46.15134816,-0.9786589497,9.680091844e-07,-9.271333896e-07,0.02120542495,-1.240115245e-06,
176000,-24.83226619,0.05733062687,-2.20855844,-362.2085584,1.121634644,0.05728804002,-0.002209354467,56.07690841,56.07635736,-0.2486022072,3.637495659e-06,-2.248083531e-07,0.004433280244,6.801002858e-07,-13.61895177,0.2084742458,26.832209,-1413.167791,1.52676554,0.1860282856,0.0941009465,72.59980412,71.23409673,14.01552787,-6.452054162e-08,1.267409398e-05,0.1967530791,1.458277588e-05,-14.08675241,0.1975433342,-146.808684,-866.808684,1.492346422,-0.1653136048,-0.1081424104,35.95863609,35.08108733,-7.895620395,1.145305124e-07,-7.13992622e-06,0.2250677216,1.454766177e-05,-24.72405848,0.05804931191,-171.432351,-171.432351,1.123253399,-0.05740151966,-0.008648014449,44.57183997,44.56512944,-0.77340593,1.169230044e-06,-6.993828226e-07,0.01735450878,8.13920239e-07,
184000,-25.14882839,0.05527879664,-20.06971202,-380.069712,1.117026688,0.05192203527,-0.01896964974,55.47447406,55.4343478,-2.109586683,4.100198982e-07,-1.824734502e-06,0.03805558766,7.273473697e-07,-13.85629561,0.2028547677,-15.19729155,-1455.197292,1.508953098,0.1957607108,-0.05317707109,74.25244039,73.79985204,-8.185764636,1.056678948e-07,-7.080461439e-06,0.1109184424,1.435203459e-05,-14.303924,0.1926654317,171.2454761,-908.7545239,1.477287705,-0.1904207823,0.02932395316,34.01588983,33.9529673,2.068035872,-4.182579851e-07,1.788794193e-06,0.06090884056,1.426968054e-05,-25.22058754,0.0548239879,169.9474868,-190.0525132,1.116007997,-0.05398234024,0.009569565899,44.8786963,44.87042927,0.8613700534,-1.004182248e-06,7.45061423e-07,0.01919683113,5.965711026e-07,
192000,-28.8020478,0.0362992465,-25.43181227,-385.4318123,1.075333025,0.03278174049,-0.01558822591,53.38842838,53.36243286,-1.665846295,4.976041294e-07,-1.380873293e-06,0.03121758521,-1.603147097e-06,-14.10536754,0.1971204234,-56.30230695,-1496.302307,1.491033597,0.1093645653,-0.1639995523,61.91532235,58.59721428,-19.99684027,4.14531488e-08,-1.65760207e-05,0.3412592308,1.425991026e-05,-14.52927879,0.187731029,130.2822383,-949.7177617,1.462238583,-0.1213781204,0.1432141444,39.37319951,37.74482315,11.20612177,-7.397135353e-08,9.289112879e-06,0.2968916221,1.418499735e-05,-29.18224061,0.03474465227,165.8313627,-194.1686373,1.071990593,-0.03368770194,0.008504681036,46.74124572,46.73446929,0.7958842936,-1.041523249e-06,6.597339555e-07,0.01702992044,-1.775570915e-06,
