Frequency,S11_Magnitude,S11_Magnitude (linear),S11_Phase,S11_Unwrapped Phase,S11_VSWR,S11_Real,S11_Imaginary,S11_Impedance (absolute),S11_Resistance,S11_Reactance,S11_Capacitance,S11_Inductance,S11_Quality Factor,S11_Group delay,S12_Magnitude,S12_Magnitude (linear),S12_Phase,S12_Unwrapped Phase,S12_VSWR,S12_Real,S12_Imaginary,S12_Impedance (absolute),S12_Resistance,S12_Reactance,S12_Capacitance,S12_Inductance,S12_Quality Factor,S12_Group delay,S21_Magnitude,S21_Magnitude (linear),S21_Phase,S21_Unwrapped Phase,S21_VSWR,S21_Real,S21_Imaginary,S21_Impedance (absolute),S21_Resistance,S21_Reactance,S21_Capacitance,S21_Inductance,S21_Quality Factor,S21_Group delay,S22_Magnitude,S22_Magnitude (linear),S22_Phase,S22_Unwrapped Phase,S22_VSWR,S22_Real,S22_Imaginary,S22_Impedance (absolute),S22_Resistance,S22_Reactance,S22_Capacitance,S22_Inductance,S22_Quality Factor,S22_Group delay,
0,-13.03699207,0.2229206993,-133.4657091,-133.4657091,1.573739898,-0.1533516797,-0.1617927702,37.0056605,35.03053912,-11.92812801,inf,-inf,0.3405065498,1.887660068e-05,-13.31208182,0.2159712335,-132.5554676,-132.5554676,1.55092681,-0.1460621322,-0.1590893688,37.53639394,35.60574131,-11.8832679,inf,-inf,0.333745836,1.592348348e-07,-14.91417299,0.1795938044,-170.9235811,-170.9235811,1.437816792,-0.1773450774,-0.02833122187,34.94746015,34.88771007,-2.042708289,inf,-inf,0.058550942,-1.67145344e-05,-15.13171507,0.1751516555,-170.242761,-170.242761,1.424688142,-0.1726180263,-0.02968365553,35.29065401,35.22465024,-2.157377001,inf,-inf,0.06124622915,-1.033525692e-05,
8000,-14.98177749,0.1782014056,49.45168747,49.45168747,1.433686324,0.1158467738,0.1354077766,62.83289031,60.510562,16.92465632,-1.17546658e-06,0.0003367053392,0.2796975563,1.887660068e-05,-30.50841983,0.02982490084,-91.42434363,-91.42434363,1.061483542,-0.0007413553391,-0.02981568551,49.92598513,49.83729796,-2.974512307,6.688278894e-06,-5.917604213e-05,0.05968446182,1.592348348e-07,-23.15733041,0.06952379647,56.43798036,56.43798036,1.149437022,0.03843548689,0.05793333775,53.98325856,53.62104348,6.243068279,-3.186633078e-06,0.0001242018971,0.116429444,-1.67145344e-05,-15.01303364,0.1775613008,-157.108631,-157.108631,1.431792183,-0.1635772853,-0.06906871426,36.0008278,35.64011176,-5.083506255,3.913513014e-06,-0.0001011331436,0.1426344084,-1.033525692e-05,
16000,-6.507333602,0.4727519402,-177.819095,-177.819095,2.79328091,-0.4724095045,-0.01799047224,17.92496367,17.9057511,-0.829698889,1.198890836e-05,-8.253167466e-06,0.0463370056,1.887660068e-05,-36.98374814,0.01415182967,-156.0038654,-156.0038654,1.028709958,-0.01292872801,-0.005755195482,48.72367079,48.72044214,-0.5609036716,1.773421079e-05,-5.579411996e-06,0.01151269666,1.592348348e-07,-25.94506352,0.05043671863,-31.43115022,-31.43115022,1.106231401,0.04303600836,-0.02630141764,54.49388524,54.41826402,-2.869855497,3.466092267e-06,-2.854698051e-05,0.05273699094,-1.67145344e-05,-9.581079993,0.3318531928,-5.970950903,-5.970950903,1.993354123,0.3300528108,-0.03452077115,99.16736333,98.87023236,-7.670925866,1.296738375e-06,-7.630411061e-05,0.0775857979,-1.033525692e-05,
24000,-8.164362254,0.3906446558,120.9824569,-239.0175431,2.28215715,-0.2010943369,0.3349094127,34.73637515,27.25113057,21.54046521,-3.078603874e-07,0.0001428446464,0.7904429928,2.797931226e-05,-19.55537161,0.1052522574,-64.70448831,-64.70448831,1.235266886,0.04497292554,-0.09516025254,54.66475379,53.67969856,-10.33079225,6.419116562e-07,-6.850819385e-05,0.1924525011,7.526355792e-06,-22.45040237,0.07541884573,118.0964299,118.0964299,1.163141646,-0.03551902692,0.06653120334,46.58454801,46.17293285,6.179027893,-1.073219943e-06,4.097595136e-05,0.1338235956,3.448080126e-06,-6.298984442,0.4842289806,-48.9076339,-48.9076339,2.877689759,0.3182715246,-0.3649396419,88.44686498,64.0138756,-61.0333651,1.08652963e-07,-0.0004047400729,0.9534396179,-6.378465417e-07,
32000,-6.410811844,0.4780346836,98.94585631,-261.0541437,2.831672215,-0.07433489235,0.4722197396,44.27460999,28.00937247,34.28871744,-1.450503939e-07,0.0001705380898,1.224187278,1.186912743e-05,-20.71828809,0.09206310016,-148.2083769,-148.2083769,1.202796252,-0.07825084814,-0.04850174406,42.7586929,42.55552346,-4.163320917,1.19462133e-06,-2.070665949e-05,0.09783268018,1.481305829e-05,-20.66162111,0.09266568581,38.93648945,38.93648945,1.20425919,0.07207936112,0.05823654375,57.73940254,57.34502082,6.737001786,-7.382500598e-07,3.3507098e-05,0.1174818962,1.081492552e-05,-6.205579684,0.4894642939,-75.51555995,-75.51555995,2.917453718,0.1224233764,-0.4739069655,61.07963212,38.22272473,-47.64183849,1.043954669e-07,-0.0002369510654,1.246427062,1.020628458e-05,
40000,-6.679548715,0.4634709992,48.16711526,-311.8328847,2.727664296,0.3091167215,0.3453291468,87.64445183,65.80888248,57.88558476,-6.873686417e-08,0.0002303194237,0.8796013939,7.297640684e-06,-13.24089378,0.2177485696,156.2983887,-203.7016113,1.556722714,-0.1993817585,0.08752916052,33.48610661,32.93458997,6.052447427,-6.573991142e-07,2.408192314e-05,0.1837717559,2.607445918e-05,-13.98283292,0.1999209716,-28.39819328,-28.39819328,1.499753061,0.1758631957,-0.09508170852,71.10029741,69.74520591,-13.8151563,2.880078582e-07,-5.496876037e-05,0.1980803716,2.598651617e-05,-5.789492338,0.513482188,-113.1513363,-113.1513363,3.110846408,-0.2018812259,-0.4721312614,35.90633026,22.0800162,-28.31496843,1.405219146e-07,-0.0001126616797,1.282379876,7.140151272e-06,
48000,-13.571176,0.2096240947,47.67314085,-312.3268592,1.530441511,0.1411523052,0.1549783462,65.97934323,62.76329289,20.34804163,-1.629507174e-07,6.746857099e-05,0.324202901,6.758552729e-06,-10.24232736,0.3075272695,60.18665665,-299.8133434,1.888200375,0.1528951893,0.2668259406,66.62108592,57.39394665,33.82756239,-9.801853126e-08,0.0001121629951,0.589392512,2.479312345e-05,-10.23234366,0.3078809493,-113.9187662,-113.9187662,1.889676274,-0.1248275637,-0.2814405057,39.64254607,33.66477536,-20.93357013,1.58392857e-07,-6.941002423e-05,0.6218241443,2.465900589e-05,-13.15415769,0.2199338696,-120.8195977,-120.8195977,1.563885191,-0.112680179,-0.1888758435,40.19146166,37.35596036,-14.82854733,2.236043698e-07,-4.91674293e-05,0.3969526465,6.845259528e-06,
56000,-10.22970612,0.3079744539,41.53278882,-318.4672112,1.89006672,0.2305424076,0.2042020141,78.34330108,71.4108503,32.22054134,-8.820623234e-08,9.157247184e-05,0.4511995194,4.905615765e-06,-10.5620638,0.2964127019,-4.374217295,-364.3742173,1.842575478,0.2955493034,-0.02260750156,91.92125178,91.80852449,-4.550973481,6.244933236e-07,-1.293410581e-05,0.04957027146,2.395321713e-05,-10.64825511,0.2934859022,-179.6817752,-179.6817752,1.830799847,-0.2934813755,-0.001630033059,27.31078921,27.31061543,-0.09742611015,2.917136434e-05,-2.768901253e-07,0.003567334848,2.339406487e-05,-9.930977864,0.3187506704,-129.0737934,-129.0737934,1.935782705,-0.2009151725,-0.2474572353,34.11192526,29.87823227,-16.45948605,1.726695808e-07,-4.677872437e-05,0.5508855375,5.36016976e-06,
64000,-11.57048248,0.2639221717,4.939860236,-355.0601398,1.717103984,0.2629418674,0.02272635199,85.64767464,85.54564173,4.179396209,-5.950132176e-07,1.039330572e-05,0.04885574676,4.966985416e-06,-9.535644556,0.3335936477,-64.89305164,-424.8930516,2.001171872,0.141546867,-0.3020748355,64.87764637,53.65400561,-36.47405489,6.817986081e-08,-9.070353329e-05,0.6798011532,2.113064621e-05,-9.703232837,0.3272188833,119.4885956,-240.5114044,1.97273504,-0.1610735971,0.2848288853,37.05396065,31.23830419,19.9289827,-1.247828865e-07,4.955931417e-05,0.6379662152,2.190333722e-05,-11.68305972,0.260523566,-166.1260686,-166.1260686,1.704616277,-0.2529229684,-0.06246999703,29.88029743,29.61544559,-3.969578956,6.264634141e-07,-9.871533014e-06,0.134037455,4.245212932e-06,
72000,-16.96253612,0.1418643243,-1.107111452,-361.1071115,1.330633788,0.1418378413,-0.002741036882,66.52794552,66.52690437,-0.372196023,5.939035304e-06,-8.227338453e-07,0.005594669203,4.130055675e-06,-9.691111631,0.3276758378,-126.0880838,-486.0880838,1.974755501,-0.1930103421,-0.2647989095,34.75012122,29.8859396,-17.7313716,1.246652189e-07,-3.919493663e-05,0.5933014598,1.994660524e-05,-9.939470147,0.3184391769,58.02359176,-301.9764082,1.934440966,0.1686358452,0.2701211971,68.60681225,58.79852587,35.35007839,-6.253127069e-08,7.814082937e-05,0.6012068818,2.027522492e-05,-17.48646403,0.1335601194,-167.6845454,-167.6845454,1.308296334,-0.1304866442,-0.02848756154,38.46590352,38.40134462,-2.227658998,9.922907065e-07,-4.924207514e-06,0.05800992178,3.572807499e-06,
80000,-15.06996143,0.1764013599,-2.531499011,-362.531499,1.428367293,0.1762292081,-0.007791404446,71.39136368,71.38213201,-1.148058771,1.732870162e-06,-2.283990355e-06,0.01608327937,2.156805115e-06,-9.138261028,0.3492102227,176.7622845,-543.2377155,2.073189023,-0.3486528143,0.0197229484,24.15655262,24.13221315,1.084123207,-1.835065217e-06,2.156794592e-06,0.04492431758,1.878580838e-05,-9.00943334,0.3544282521,-8.179505558,-368.1795056,2.098029005,0.3508227192,-0.0504262392,103.8009112,103.1172575,-11.89371175,1.672679506e-07,-2.36617877e-05,0.1153416221,1.876188881e-05,-15.36753232,0.1704603532,-162.6452879,-162.6452879,1.410975784,-0.1627003841,-0.05084601291,36.03856582,35.8425151,-3.753976253,5.299545481e-07,-7.468298462e-06,0.1047352911,1.864221462e-06,
88000,-16.80073531,0.1445317411,-14.20433328,-374.2043333,1.337900885,0.1401129425,-0.03546530043,66.27006777,66.09685261,-4.788314606,3.777067816e-07,-8.660044756e-06,0.07244391247,1.16451204e-06,-10.36964905,0.3030522743,127.5669992,-592.4330008,1.869655681,-0.1847675549,0.2402116392,35.15195895,31.07206664,16.43736271,-1.100285326e-07,2.972826734e-05,0.5290077065,1.762143612e-05,-10.72932225,0.2907594827,-47.81096351,-407.8109635,1.819917857,0.1952679116,-0.2154333295,72.89470056,65.95475456,-31.04203152,5.82622596e-08,-5.614196318e-05,0.4706564633,1.723740366e-05,-16.96406391,0.1418393735,177.7373883,-182.2626117,1.330566025,-0.1417287913,0.005599784612,37.58682271,37.58436789,0.4295710148,-4.2101977e-06,7.769130729e-07,0.01142951282,1.247080947e-06,
96000,-20.25882952,0.09706407583,-19.56952251,-379.5695225,1.214996598,0.09145724298,-0.03251165211,60.05457027,59.92560417,-3.933621146,4.214600057e-07,-6.52140885e-06,0.06564174364,1.184110819e-06,-10.78302335,0.288967388,77.76376621,-642.2362338,1.812810504,0.06124457782,0.2824026434,56.01153345,47.68394667,29.38593387,-5.641692375e-08,4.871788159e-05,0.6162647164,1.691052647e-05,-11.16504864,0.2765333838,-97.76532568,-457.7653257,1.764467572,-0.03736407524,-0.273997515,46.64154109,40.11163134,-23.80105852,6.965505291e-08,-3.945891786e-05,0.5933704945,1.619528339e-05,-20.77469793,0.09146714078,174.3181755,-185.6818245,1.20135131,-0.09101776513,0.009055621122,41.65816816,41.65122183,0.7607197305,-2.179336126e-06,1.261169848e-06,0.01826404358,1.524461688e-06,
104000,-20.41950973,0.09528499455,-9.357073086,-369.3570731,1.210640907,0.09401715634,-0.01549207862,60.37459324,60.34510102,-1.886873457,8.110432554e-07,-2.887550363e-06,0.03126804704,1.559639111e-06,-11.15180708,0.2769552778,29.66249519,-690.3375048,1.766080629,0.2406618526,0.1370623895,80.88357026,77.53829206,23.0209731,-6.647572995e-08,3.522982369e-05,0.2968981195,1.65984633e-05,-11.60019025,0.2630210382,-145.4021109,-505.4021109,1.713781673,-0.2165076846,-0.149346875,32.53805343,30.98198515,-9.941907119,1.539278101e-07,-1.521445829e-05,0.3208931601,1.659616259e-05,-20.53683319,0.0940065989,-174.1242427,-174.1242427,1.207521597,-0.09351270902,-0.009623611012,41.44914192,41.44132908,-0.8047421618,1.901647588e-06,-1.231525894e-06,0.0194188309,1.43731056e-06,
112000,-19.95625179,0.1005049404,-22.0063249,-382.0063249,1.223469689,0.09318240134,-0.03766010003,60.25957359,60.08589085,-4.571862818,3.10819973e-07,-6.496737201e-06,0.07608879144,7.685756168e-07,-11.47250399,0.2669161183,-17.79704464,-737.7970446,1.728200756,0.25414289,-0.08158189543,83.75211401,82.48884193,-14.49163748,9.805836502e-08,-2.059299766e-05,0.1756799725,1.623975402e-05,-11.93271226,0.2531421049,167.4039873,-552.5960127,1.677885597,-0.2470494657,0.05520404676,30.24069581,30.03244686,3.542854602,-4.010964144e-07,5.034489487e-06,0.1179675642,1.618453443e-05,-20.07473079,0.09914332054,171.3332793,-188.6667207,1.220108976,-0.09801126021,0.0149395743,41.0755789,41.05689044,1.238922796,-1.146985335e-06,1.760541849e-06,0.03017575814,5.75523423e-07,
120000,-22.74637929,0.07289219623,-35.44473529,-395.4447353,1.15724643,0.05938346871,-0.04227145507,56.30123687,56.09897016,-4.768104431,2.781590067e-07,-6.323894911e-06,0.08499450912,8.452271222e-08,-11.90330863,0.2540004982,-63.67046692,-783.6704669,1.680966938,0.1126576602,-0.2276499608,61.98741522,55.73657694,-27.12699092,4.889193926e-08,-3.597828914e-05,0.4866999808,1.596050403e-05,-12.27355293,0.2434009973,120.6196386,-599.3803614,1.64340819,-0.1239729908,0.2094629873,39.39044265,35.98390192,16.02391259,-8.276949748e-08,2.125237413e-05,0.4453078108,1.588109099e-05,-23.19357945,0.06923425565,158.5325643,-201.4674357,1.148768379,-0.06443117903,0.02533782399,43.95055493,43.89368759,2.235054531,-5.934043998e-07,2.964333139e-06,0.05091972567,-5.655574876e-08,
128000,-25.34535895,0.05404207955,-17.59318029,-377.5931803,1.11425895,0.0515143505,-0.01633456624,55.42968938,55.39996049,-1.815169936,6.850036286e-07,-2.256978656e-06,0.03276482366,-1.780249674e-07,-12.26251065,0.2437106274,-109.4222107,-829.4222107,1.644490419,-0.08104030202,-0.2298419878,42.85484365,38.50282507,-18.81675012,6.607931682e-08,-2.339670934e-05,0.4887108956,1.574942624e-05,-12.73133411,0.2309049773,76.1665038,-643.8334962,1.600458904,0.05520964799,0.2242075006,55.54756175,50.20071522,23.77855772,-5.229072376e-08,2.956621094e-05,0.4736696999,1.563153535e-05,-25.7344647,0.05167455736,179.7022347,-180.2977653,1.108980641,-0.05167385954,0.0002685506781,45.08651323,45.08650669,0.02428086009,-5.120897646e-05,3.01907727e-08,0.0005385393963,-2.68558747e-07,
136000,-22.96386974,0.07108967239,-12.78077245,-372.7807724,1.153060355,0.06932832961,-0.01572654552,57.44729037,57.41860625,-1.815166029,6.447106852e-07,-2.124210633e-06,0.03161285423,8.845848298e-07,-12.51232686,0.2368010681,-154.3561798,-874.3561798,1.620548741,-0.2134765893,-0.102481665,32.56586565,31.82425761,-6.910299082,1.693496795e-07,-8.08682542e-06,0.2171393648,1.558245474e-05,-12.9818307,0.2243409037,31.52892067,-688.4710793,1.578452325,0.1912228737,0.117314337,73.23331853,71.09561298,17.56510055,-6.662398152e-08,2.055568072e-05,0.247063072,1.54280797e-05,-23.03345404,0.07052243484,-177.4943176,-177.4943176,1.151746395,-0.07045500768,-0.003083132877,43.41827742,43.41744373,-0.2690616513,4.349400699e-06,-3.148712633e-07,0.006197086429,8.100861648e-07,
144000,-22.80459912,0.0724052478,-30.77474679,-390.7747468,1.156113966,0.06220953884,-0.03704717516,56.62389693,56.46747307,-4.205970616,2.627794536e-07,-4.648618153e-06,0.07448483857,9.065876758e-07,-12.82369117,0.2284627718,160.7540739,-919.2459261,1.592227474,-0.2156945495,0.07530670225,32.34386279,31.94306984,5.075997391,-2.177390127e-07,5.610208861e-06,0.1589076259,1.527536008e-05,-13.30551339,0.2161346168,-13.14476267,-733.1447627,1.551458507,0.2104715867,-0.04915164066,76.57281701,76.16890433,-7.854573114,1.407132691e-07,-8.681209285e-06,0.1031204687,1.530991908e-05,-23.14379375,0.06963223142,163.2139662,-196.7860338,1.14968754,-0.06666519664,0.02010967949,43.75250835,43.71681944,1.766829187,-6.255515069e-07,1.952774991e-06,0.04041531863,5.016404067e-07,
152000,-26.22799051,0.04882030343,-41.59197359,-401.5919736,1.102652114,0.03651226999,-0.03240796457,53.78546172,53.67230019,-3.487131311,3.002674406e-07,-3.651277536e-06,0.06497078193,-5.728914056e-07,-13.14546709,0.2201540328,116.8540425,-963.1459575,1.564609018,-0.09944781335,0.1964126538,41.26422004,38.14173892,15.74622519,-6.649669881e-08,1.648743141e-05,0.4128344862,1.519333865e-05,-13.63920536,0.2079886961,-56.88907584,-776.8890758,1.525216484,0.113616253,-0.1742143643,62.38838296,58.62189282,-21.3490986,4.904525543e-08,-2.235404324e-05,0.3641830308,1.520355416e-05,-27.0848308,0.0442342288,155.1114578,-204.8885422,1.092562906,-0.04012611605,0.01861617062,46.14347447,46.11139928,1.720201214,-6.086915796e-07,1.801174515e-06,0.03730533536,-9.505130234e-07,
160000,-28.582265,0.03722946113,-16.24244225,-376.2424423,1.077338181,0.03574351262,-0.01041316865,53.70642966,53.6947539,-1.119817159,8.882864368e-07,-1.113902727e-06,0.02085524335,-1.018875747e-06,-13.51762064,0.2109205854,75.007493,-1004.992507,1.534599133,0.05456362025,0.2037407781,55.52786121,51.07724557,21.78206499,-4.566685459e-08,2.166702071e-05,0.426453399,1.517882303e-05,-13.54774732,0.2101902824,-100.0873327,-820.0873327,1.532255498,-0.03681463062,-0.2069411457,46.59027496,42.75416732,-18.51310069,5.373051283e-08,-1.84153218e-05,0.4330127764,1.515385909e-05,-28.37249514,0.03813952176,-173.8242748,-173.8242748,1.079303647,-0.03791818406,-0.004102979121,46.34676714,46.34520222,-0.3808608031,2.611763632e-06,-3.788492465e-07,0.008217912207,-1.073551377e-06,
168000,-25.2467556,0.0546590677,-11.79728848,-371.7972885,1.115638847,0.05350450779,-0.01117503146,55.65215888,55.63818089,-1.247243124,7.595558826e-07,-1.181576836e-06,0.02241703636,6.111263125e-07,-13.62347902,0.2083656135,29.73303405,-1050.266966,1.526418804,0.180933387,0.1033408842,71.79649012,70.17713566,15.16263911,-6.247928508e-08,1.436433908e-05,0.2160623823,1.519422377e-05,-14.10163653,0.1972051142,-143.9309743,-863.9309743,1.491296389,-0.1594025282,-0.1161063783,36.413358,35.39492317,-8.551728167,1.107788781e-07,-8.101486963e-06,0.2416088919,1.51224039e-05,-24.84859635,0.05722294199,-175.2878096,-175.2878096,1.121392309,-0.05702952448,-0.004700896429,44.60485,44.60286577,-0.4207245527,2.251712779e-06,-3.985737633e-07,0.009432679839,7.924117025e-07,
176000,-24.88967875,0.05695292882,-31.00027858,-391.0002786,1.120784912,0.04881804564,-0.02933316419,55.12770659,55.03246796,-3.239059166,2.791827513e-07,-2.929047029e-06,0.05885723984,9.515002426e-07,-13.87413627,0.2024385354,-14.26047352,-1094.260474,1.507643723,0.1962005736,-0.0498667779,74.33086843,73.93215361,-7.688606108,1.176142251e-07,-6.952725384e-06,0.10399543,1.516790118e-05,-14.33398937,0.1919996918,172.1606157,-907.8393843,1.475246581,-0.1902053236,0.02618809875,34.02866486,33.97846002,1.847778833,-4.893926877e-07,1.670926903e-06,0.05438088812,1.503104248e-05,-24.925087,0.05672123133,163.8727397,-196.1272603,1.120263984,-0.05448908662,0.01575555529,44.83387501,44.81148897,1.416617465,-6.383441342e-07,1.281032228e-06,0.03161281845,8.291552297e-07,
184000,-28.32445679,0.03835104134,-43.01327432,-403.0132743,1.079761,0.0280421156,-0.02616184481,52.88308449,52.81062943,-2.76731716,3.125671785e-07,-2.393653289e-06,0.05240076079,-7.456113995e-07,-14.14731484,0.1961707525,-57.3087965,-1137.308796,1.488090606,0.1059540046,-0.1650960721,61.49669811,58.162725,-19.97351494,4.33059739e-08,-1.727654149e-05,0.3434074821,1.47452648e-05,-14.59058838,0.1864105899,129.2243338,-950.7756662,1.45824242,-0.1178782966,0.1444078088,39.65089827,37.98689148,11.3661695,-7.610061743e-08,9.83142424e-06,0.2992129405,1.455941632e-05,-28.89128738,0.03592821418,154.852222,-205.147778,1.074534313,-0.03252274946,0.01526785322,46.85087802,46.82899429,1.431804648,-6.041134996e-07,1.23847167e-06,0.03057517399,-1.070082075e-06,
