Frequency,S11_Magnitude,S11_Magnitude (linear),S11_Phase,S11_Unwrapped Phase,S11_VSWR,S11_Real,S11_Imaginary,S11_Impedance (absolute),S11_Resistance,S11_Reactance,S11_Capacitance,S11_Inductance,S11_Quality Factor,S11_Group delay,S12_Magnitude,S12_Magnitude (linear),S12_Phase,S12_Unwrapped Phase,S12_VSWR,S12_Real,S12_Imaginary,S12_Impedance (absolute),S12_Resistance,S12_Reactance,S12_Capacitance,S12_Inductance,S12_Quality Factor,S12_Group delay,S21_Magnitude,S21_Magnitude (linear),S21_Phase,S21_Unwrapped Phase,S21_VSWR,S21_Real,S21_Imaginary,S21_Impedance (absolute),S21_Resistance,S21_Reactance,S21_Capacitance,S21_Inductance,S21_Quality Factor,S21_Group delay,S22_Magnitude,S22_Magnitude (linear),S22_Phase,S22_Unwrapped Phase,S22_VSWR,S22_Real,S22_Imaginary,S22_Impedance (absolute),S22_Resistance,S22_Reactance,S22_Capacitance,S22_Inductance,S22_Quality Factor,S22_Group delay,
0,-13.44604341,0.2126658859,-134.3174748,-134.3174748,1.540217633,-0.1485755196,-0.1521581218,37.32548041,35.56276065,-11.33496991,inf,-inf,0.3187314399,1.303019667e-05,-13.57423778,0.2095502152,-133.5695718,-133.5695718,1.530205003,-0.1444293129,-0.1518270932,37.63405682,35.86848315,-11.39184574,inf,-inf,0.317600432,-1.900818174e-07,-16.36491487,0.1519687379,-163.2253411,-163.2253411,1.358403622,-0.1455020484,-0.04385944814,37.31972072,37.17017532,-3.337607112,inf,-inf,0.08979261151,-1.67453952e-05,-16.41348458,0.1511213313,-162.3292114,-162.3292114,1.356049308,-0.1439908775,-0.04587247516,37.43688156,37.27295822,-3.499526689,inf,-inf,0.0938891587,-2.437204275e-06,
8000,-18.50723161,0.1187513128,-122.4159095,-122.4159095,1.269506927,-0.06365797376,-0.1002473773,44.07142324,43.18743351,-8.782706507,2.265175077e-06,-0.0001747263943,0.2033625477,1.303019667e-05,-32.20057285,0.02454547029,-88.62502472,-88.62502472,1.050326221,0.0005889818755,-0.0245384028,50.05889741,49.9986494,-2.455253238,8.102776356e-06,-4.884571117e-05,0.04910639123,-1.900818174e-07,-28.53928457,0.03741414041,41.3917848,41.3917848,1.077736734,0.02806830822,0.02473839074,52.8860703,52.82127668,2.617090214,-7.60171269e-06,5.20653555e-05,0.04954613704,-1.67453952e-05,-27.05976617,0.04436205864,49.50147215,49.50147215,1.092842816,0.02880998565,0.03373391428,52.96298759,52.84238361,3.572190923,-5.569234208e-06,7.106648038e-05,0.06760086655,-2.437204275e-06,
16000,-2.16237184,0.7796171928,114.119447,-245.880553,8.075118089,-0.3185829774,0.7115531279,32.87708176,8.735021425,31.6954556,-3.138362821e-07,0.000315280527,3.628549268,1.303019667e-05,-12.17061682,0.2463026923,-126.8248408,-126.8248408,1.653585172,-0.1476266178,-0.1971583068,37.56650758,34.63833393,-14.54057474,6.84098402e-07,-0.0001446377716,0.4197827403,-1.900818174e-07,-20.74143534,0.09181808544,100.4161345,100.4161345,1.202201969,-0.01660035284,0.09030497827,48.38007024,47.59695062,8.669572542,-1.147367289e-06,8.623783278e-05,0.1821455456,-1.67453952e-05,10.99982235,3.548061323,-115.7804691,-115.7804691,nan,-1.543137644,-3.194912419,39.68098947,-34.74881294,-19.15987797,5.191673954e-07,-0.0001905868305,-0.5513822301,-2.437204275e-06,
24000,-7.136776816,0.439704752,120.4538381,-239.5461619,2.569546605,-0.222861717,0.3790421138,33.76848868,24.60733313,23.12552668,-2.867591323e-07,0.0001533559117,0.9397819161,1.31123409e-05,-22.09472627,0.07857125434,-49.1340174,-49.1340174,1.170542225,0.05140853815,-0.05941888769,55.39931135,55.00744754,-6.577568936,1.008192545e-06,-4.361885874e-05,0.1195759707,8.40990865e-06,-21.70329157,0.08219311149,125.8557402,125.8557402,1.179107637,-0.04814432252,0.06661705327,45.4261192,45.02286286,6.039381201,-1.098035667e-06,4.004989047e-05,0.1341403193,6.577912972e-06,-6.847783809,0.4545805079,-49.50269967,-49.50269967,2.666902318,0.2952101362,-0.3456796402,85.38522577,64.37250382,-56.09650195,1.182151423e-07,-0.0003720014823,0.8714357624,9.459129227e-06,
32000,-6.868208048,0.4535128506,96.61281927,-263.3871807,2.65973839,-0.0522262693,0.4504956409,45.84064426,30.3148638,34.38566124,-1.446414521e-07,0.0001710202487,1.134283877,6.628328879e-06,-21.03059373,0.08881172662,-150.5778973,-150.5778973,1.194936061,-0.07735717846,-0.04362785493,42.83246687,42.66776506,-3.752604885,1.325370542e-06,-1.866392553e-05,0.08794941286,1.728602019e-05,-21.25219432,0.08657455822,35.67637209,35.67637209,1.189560208,0.07032660021,0.05049082524,57.54386747,57.24831624,5.824686383,-8.538815044e-07,2.896961343e-05,0.1017442392,2.012758823e-05,-6.298573223,0.4842519061,-77.73138398,-77.73138398,2.877862126,0.102901193,-0.4731926173,59.16338087,37.20724871,-45.99919869,1.081234481e-07,-0.0002287812453,1.236296697,2.168675305e-06,
40000,-6.132175823,0.493618251,57.51969543,-302.4803046,2.949589423,0.2650777695,0.4164045555,78.83627059,53.00191851,58.36055342,-6.817744768e-08,0.0002322092639,1.101102659,7.125666116e-06,-13.25536387,0.2173861176,162.1488189,-197.8511811,1.555538619,-0.2069202677,0.06663877941,32.92115175,32.60369115,4.560872247,-8.723931218e-07,1.814713407e-05,0.1398882177,2.721588876e-05,-13.2636933,0.2171777527,-20.96028079,-20.96028079,1.554858407,0.2028068041,-0.07768897263,75.24086408,74.25999608,-12.10952563,3.2857386e-07,-4.818227155e-05,0.1630693006,2.658756836e-05,-5.972850191,0.5027562642,-105.7345313,-105.7345313,3.022172339,-0.1363377434,-0.4839172252,40.07791786,24.49248932,-31.72313772,1.254249694e-07,-0.0001262223545,1.295219008,7.001601067e-06,
48000,-13.31444468,0.2159124902,50.13858254,-309.8614175,1.550735696,0.1383854148,0.1657337635,65.55585013,61.92018243,21.52813261,-1.54018374e-07,7.138143168e-05,0.347675536,6.954978907e-06,-10.45894207,0.2999527836,58.61505028,-301.3849497,1.85695015,0.1562110321,0.2560659795,67.14921387,58.51898825,32.93242988,-1.006827614e-07,0.0001091949792,0.562764854,2.505541569e-05,-10.51152259,0.2981424874,-116.0131255,-116.0131255,1.849581239,-0.130758448,-0.267938745,39.13706673,33.7347126,-19.84134971,1.671120175e-07,-6.578851843e-05,0.5881582556,2.488453582e-05,-12.82152059,0.228519871,-118.8934777,-118.8934777,1.592419331,-0.1104168531,-0.2000736115,40.40621705,37.22457555,-15.71602213,2.109775587e-07,-5.211005433e-05,0.4221947974,7.021782017e-06,
56000,-10.1440442,0.311026784,41.08136442,-318.9186356,1.902870465,0.2344448876,0.2043850657,78.95633809,71.9332151,32.55327771,-8.730465117e-08,9.251812611e-05,0.4525486268,5.510977715e-06,-10.68290132,0.2923175797,-5.639289333,-365.6392893,1.826126441,0.2909028359,-0.0287246841,90.97231836,90.79336021,-5.703371838,4.983109354e-07,-1.62092825e-05,0.0628170587,2.457622479e-05,-10.82158712,0.2876872695,178.8395046,-181.1604954,1.807755518,-0.2876282606,0.005826553341,27.66280826,27.66057605,0.3514162454,-8.087425075e-06,9.987434383e-07,0.01270458883,2.408468283e-05,-9.844527601,0.3219390217,-129.7447082,-129.7447082,1.949587226,-0.2058375049,-0.2475391994,33.78791632,29.5764399,-16.33577339,1.73977227e-07,-4.642712651e-05,0.552323858,5.872404226e-06,
64000,-11.72086651,0.2593920579,4.680288522,-355.3197115,1.700484138,0.2585271196,0.0211652585,84.84414086,84.75689796,3.846620227,-6.464885637e-07,9.56575974e-06,0.04538415539,4.761742277e-06,-9.636162376,0.3297553734,-67.48182908,-427.4818291,1.983985131,0.1262885305,-0.3046142041,63.04803666,52.04983795,-35.579057,6.989493808e-08,-8.847785612e-05,0.683557498,2.172435662e-05,-9.854110084,0.3215840466,117.4391636,-242.5608364,1.948043881,-0.1481880282,0.2854060394,37.96520866,32.02559642,20.38916974,-1.219665154e-07,5.070370547e-05,0.6366523038,2.148351183e-05,-11.79308379,0.2572443295,-166.8399566,-166.8399566,1.692675505,-0.2504885563,-0.05856729655,30.02718404,29.79371176,-3.737180925,6.654202823e-07,-9.293606522e-06,0.1254352246,4.656498586e-06,
72000,-17.00327052,0.1412005778,0.8907633439,-359.1092367,1.328832494,0.1411835139,0.002195122106,66.43921699,66.4385504,0.297615195,-7.427326823e-06,6.578740198e-07,0.004479555818,3.961385903e-06,-9.84477598,0.3219298157,-128.7003783,-488.7003783,1.94954718,-0.201285912,-0.2512424883,34.11197833,29.75550616,-16.68043521,1.325196431e-07,-3.687185717e-05,0.5605831444,2.02790237e-05,-10.09956079,0.3126237445,55.49414183,-304.5058582,1.909614616,0.1770983801,0.2576233091,69.87014607,60.67395315,34.64835814,-6.379769315e-08,7.658968705e-05,0.5710581945,2.013170474e-05,-17.39471512,0.13497839,-166.3239127,-166.3239127,1.312080967,-0.1311514667,-0.03191329767,38.41610247,38.3351773,-2.492209833,8.869579483e-07,-5.508993253e-06,0.0650110423,3.722073456e-06,
80000,-15.83309243,0.1615642907,1.664794287,-358.3352057,1.385394584,0.1614960944,0.004693774394,69.25950929,69.25629195,0.6675724773,-2.980106065e-06,1.328093245e-06,0.009639159974,2.166201258e-06,-9.512737767,0.3344745758,167.3148595,-552.6851405,2.005144398,-0.3263105624,0.07344834071,25.50853105,25.16660792,4.162571561,-4.779345554e-07,8.281173e-06,0.1654005806,1.880870342e-05,-10.36536849,0.3032016606,-3.703014448,-363.7030144,1.870270905,0.3025686427,-0.01958222181,93.35704647,93.27033867,-4.022692013,4.945535931e-07,-8.002891479e-06,0.04312938143,1.882225728e-05,-15.51134224,0.1676613227,-167.6574551,-167.6574551,1.402868033,-0.1637861866,-0.03583858549,35.9423783,35.84502798,-2.643582137,7.52553424e-07,-5.259239557e-06,0.07375031589,1.842439519e-06,
88000,-16.78679296,0.1447639258,-14.45484547,-374.4548455,1.338535593,0.1401813749,-0.03613552729,66.27838205,66.0985379,-4.879263791,3.706663497e-07,-8.824533534e-06,0.07381802905,1.388218572e-06,-10.53840617,0.2972211371,124.9444251,-595.0555749,1.845845408,-0.1702428038,0.2436345462,36.17337013,31.90240057,17.05137954,-1.060664268e-07,3.083876522e-05,0.5344857825,1.742361159e-05,-10.88024617,0.2857509557,-50.48595457,-410.4859546,1.800143754,0.1818140052,-0.2204478991,70.93756556,63.94941862,-30.70195541,5.890761271e-08,-5.552690871e-05,0.4800974907,1.753447522e-05,-17.02501992,0.140847455,177.0661833,-182.9338167,1.327875313,-0.1406628494,0.007208909079,37.66889691,37.66482231,0.5540355187,-3.26437356e-06,1.002016948e-06,0.01470962784,1.173059246e-06,
96000,-20.303416,0.09656710237,-18.84020519,-378.8402052,1.21377814,0.09139331601,-0.03118440393,60.047778,59.92913258,-3.772891543,4.394146961e-07,-6.254941029e-06,0.0629558844,1.45995497e-06,-10.93967508,0.2838025191,74.8504399,-645.1495601,1.792525879,0.07416881763,0.2739395122,57.40754921,49.31613285,29.38614891,-5.641651091e-08,4.87182381e-05,0.5958729368,1.649020967e-05,-11.34864234,0.2707496371,-100.6112931,-460.6112931,1.742542344,-0.04985721486,-0.2661195673,45.55180543,39.50038343,-22.68670727,7.307644827e-08,-3.761147505e-05,0.5743414444,1.675973579e-05,-20.7826477,0.09138346366,174.9338663,-185.0661337,1.201148581,-0.09102646822,0.008069666321,41.65730688,41.65179081,0.6778931502,-2.445612542e-06,1.123854643e-06,0.0162752462,1.232523703e-06,
104000,-20.30733275,0.0965235669,-8.847084357,-368.8470844,1.213671466,0.09537516111,-0.01484512073,60.54047103,60.51330156,-1.813551025,8.438339868e-07,-2.775342405e-06,0.02996946089,1.494273519e-06,-11.32606734,0.2714542423,26.63182455,-693.3681754,1.745194765,0.2426544115,0.1216809034,81.38869945,78.7173957,20.68071596,-7.39982114e-08,3.164844395e-05,0.2627210386,1.670767103e-05,-11.76269389,0.258145944,-148.5481621,-508.5481621,1.695948056,-0.2202189014,-0.1346958197,32.22992724,30.96592246,-8.937553159,1.712253862e-07,-1.367745927e-05,0.2886254453,1.663973521e-05,-20.42221099,0.09525536607,-174.5116266,-174.5116266,1.210568513,-0.09481867995,-0.00911058167,41.33998822,41.33300107,-0.7600315748,2.013516335e-06,-1.163103673e-06,0.01838800849,1.433949766e-06,
112000,-19.92880955,0.1008229783,-22.16243784,-382.1624378,1.224256127,0.09337398429,-0.0380338272,60.28251257,60.10529059,-4.619022092,3.076465644e-07,-6.56375177e-06,0.07684884388,7.501342402e-07,-11.67010759,0.2609123405,-20.98785947,-740.9878595,1.706038958,0.2436024611,-0.09345100511,81.81533746,80.21796836,-16.08810103,8.83277818e-08,-2.286161433e-05,0.2005548303,1.63359481e-05,-12.11452853,0.2478983141,163.9878939,-556.0121061,1.659214887,-0.2382807109,0.06838038417,30.83384014,30.51161492,4.446015438,-3.19617936e-07,6.317904769e-06,0.145715507,1.625235808e-05,-20.18141169,0.09793308049,170.3831085,-189.6168915,1.217130411,-0.09655681015,0.01636064387,41.19671468,41.17424956,1.360321156,-1.044625581e-06,1.933052108e-06,0.03303815297,5.071399607e-07,
120000,-22.87445747,0.07182524674,-34.31126782,-394.3112678,1.154766646,0.05932675277,-0.04048706552,56.29582989,56.11027176,-4.567041253,2.904049075e-07,-6.057226589e-06,0.08139403196,1.523599459e-07,-12.05029409,0.2497383831,-67.72688798,-787.726888,1.665736798,0.0946563244,-0.2311048252,59.86814326,53.6981639,-26.47077203,5.010398605e-08,-3.510795179e-05,0.4929548816,1.604611252e-05,-12.64371664,0.2332459803,117.602265,-602.397735,1.608398455,-0.1080701091,0.2066991506,40.61303411,37.21226431,16.2685563,-8.152482422e-08,2.157684293e-05,0.4371826493,1.596562008e-05,-23.59322425,0.06612090474,158.6926856,-201.3073144,1.14160485,-0.06160120019,0.02402636425,44.20049693,44.14910664,2.130800841,-6.22437896e-07,2.826062388e-06,0.04826373631,-8.427310075e-08,
128000,-25.15666094,0.05522897119,-16.91004652,-376.9100465,1.11691504,0.05284101386,-0.01606444872,55.57737202,55.54853336,-1.790173589,6.94568393e-07,-2.225898247e-06,0.0322271981,-6.145787486e-08,-12.46490499,0.2380974536,-113.2078565,-833.2078565,1.625007633,-0.09382657274,-0.2188309202,41.78486965,37.90390556,-17.58605342,7.070364015e-08,-2.186646353e-05,0.4639641527,1.581477465e-05,-12.92312509,0.2258622996,72.27953706,-647.7204629,1.583519701,0.06874644904,0.2151457741,57.03107764,51.94113469,23.55127055,-5.279536788e-08,2.928360254e-05,0.4534223347,1.573351187e-05,-25.63807659,0.05225118814,-178.9711052,-178.9711052,1.11026379,-0.0522427635,-0.0009382556377,45.03510773,45.035028,-0.08474009411,1.467307779e-05,-1.053656629e-07,0.001881648527,-2.109003156e-07,
136000,-22.85555366,0.07198173606,-13.66726324,-373.6672632,1.155129999,0.06994352154,-0.01700806047,57.51800226,57.48440723,-1.965580951,5.953745805e-07,-2.300234739e-06,0.03419328903,9.549649856e-07,-12.71280155,0.2313981712,-158.3221973,-878.3221973,1.602127558,-0.2150327086,-0.08547542271,32.41314771,31.89701295,-5.761311404,2.031233607e-07,-6.742214623e-06,0.1806222863,1.561340648e-05,-13.18852258,0.2190654413,27.40108713,-692.5989129,1.561034056,0.1944877563,0.1008175592,73.83219078,72.22988499,15.29823881,-7.649618687e-08,1.790287005e-05,0.2117992962,1.554746864e-05,-23.01521392,0.07067068552,-178.620987,-178.620987,1.152089651,-0.07065021731,-0.001700760208,43.40120383,43.40095023,-0.1483702305,7.88741064e-06,-1.736312911e-07,0.003418594056,7.972044788e-07,
144000,-22.8765179,0.0718082107,-31.59944673,-391.5994467,1.154727097,0.06116135047,-0.03762589975,56.50472978,56.34376896,-4.261946386,2.593281473e-07,-4.710484962e-06,0.07564184052,7.83175078e-07,-13.03642522,0.2229352478,156.5770403,-923.4229597,1.573788084,-0.2045643591,0.08862024405,33.13230176,32.57064322,6.074752668,-1.819403556e-07,6.714075799e-06,0.1865100614,1.544388051e-05,-13.51129322,0.211074291,-17.47408816,-737.4740882,1.535092946,0.2013338133,-0.06338021733,75.07731934,74.4251732,-9.874080874,1.119337257e-07,-1.091325541e-05,0.1326712515,1.537493534e-05,-23.4469724,0.06724366567,162.0769094,-197.9230906,1.144182705,-0.06398036149,0.02069357186,43.9891263,43.95115809,1.827275307,-6.048583136e-07,2.019582621e-06,0.04157513444,3.906066422e-07,
152000,-26.39175243,0.04790847851,-40.71806351,-400.7180635,1.100638389,0.03631121146,-0.03125249167,53.76411955,53.65892055,-3.361665706,3.114741577e-07,-3.519906014e-06,0.06264877621,-6.030021316e-07,-13.36395299,0.2146853209,112.5476104,-967.4523896,1.546749798,-0.08232130212,0.1982750369,42.66228087,39.39393295,16.37645431,-6.39376494e-08,1.714732667e-05,0.415710062,1.531942203e-05,-13.84446416,0.2031312739,-61.40447075,-781.4044707,1.509823682,0.09722337042,-0.1783533871,60.39954969,56.60841129,-21.06165647,4.971460793e-08,-2.205307064e-05,0.3720587806,1.527572477e-05,-27.62595927,0.04156253577,156.6889338,-203.3110662,1.086729781,-0.03816978464,0.01644724658,46.32431732,46.29918841,1.525623766,-6.863238612e-07,1.597437919e-06,0.03295141489,-1.012150738e-06,
160000,-27.96893834,0.03995333925,-14.66236751,-374.6623675,1.083232078,0.0386522274,-0.01011309223,54.02020067,54.00911893,-1.094144952,9.091285326e-07,-1.088366109e-06,0.02025852251,-8.872930474e-07,-13.75842718,0.2051533632,68.9653604,-1011.03464,1.516208671,0.07363616921,0.1914826807,57.64477492,53.52567256,21.39912272,-4.648407354e-08,2.128610099e-05,0.3997917579,1.525603508e-05,-14.18880363,0.1952359627,-104.7167528,-824.7167528,1.485200515,-0.0495978914,-0.188830957,45.43019741,42.2875248,-16.60325518,5.991104658e-08,-1.651556333e-05,0.3926277373,1.522980506e-05,-27.58698189,0.04174946414,-172.2508012,-172.2508012,1.087136845,-0.04136819898,-0.005629375574,46.02763576,46.02470862,-0.5190855163,1.91629002e-06,-5.163439113e-07,0.01127840962,-9.325403641e-07,
168000,-25.09449796,0.05562565041,-13.45257216,-373.4525722,1.117804238,0.0540994398,-0.01294077264,55.71834269,55.69957457,-1.446065495,6.551230596e-07,-1.369931379e-06,0.02596187685,7.031221597e-07,-13.85543943,0.2028747645,24.88396543,-1055.116035,1.509016038,0.1840402382,0.08536604004,72.34852438,71.22816867,12.68294,-7.469489344e-08,1.201519401e-05,0.178060734,1.521992641e-05,-14.32469637,0.1922052213,-148.9480172,-868.9480172,1.475876365,-0.1646621496,-0.09914244102,35.98336679,35.24410126,-7.256446244,1.305530035e-07,-6.87440053e-06,0.2058910849,1.519314035e-05,-24.90745276,0.05683650468,-176.8821611,-176.8821611,1.120523122,-0.05675237441,-0.003091320563,44.62959716,44.62873866,-0.2768177037,3.422291417e-06,-2.622434874e-07,0.006202678186,8.405261197e-07,
176000,-25.02009201,0.05610420331,-32.45517252,-392.4551725,1.11887796,0.04734137554,-0.03010773641,54.96466099,54.86465602,-3.314133038,2.728585241e-07,-2.99693554e-06,0.06040561044,8.979619586e-07,-14.120523,0.1967767802,-19.27804243,-1099.278042,1.489967858,0.1857430232,-0.06496638012,72.68955877,72.03450207,-9.736655718,9.287474833e-08,-8.804755038e-06,0.1351665582,1.513273292e-05,-14.57160528,0.1868184378,166.9884922,-913.0115078,1.459475341,-0.182021849,0.04206156415,34.62460505,34.49381465,3.006663547,-3.007617697e-07,2.718894124e-06,0.0871652955,1.510524492e-05,-25.43030811,0.05351611699,162.2910381,-197.7089619,1.113084053,-0.05098019769,0.01627864311,45.15049728,45.1264496,1.473414558,-6.137372843e-07,1.332393239e-06,0.03265079728,4.964942388e-07,
184000,-28.58277299,0.03722728382,-41.9466201,-401.9466201,1.077333483,0.02768845878,-0.02488412971,52.84588034,52.78037412,-2.630432791,3.288327761e-07,-2.275252071e-06,0.0498373275,-7.045719767e-07,-14.38570183,0.1908599953,-62.49762844,-1142.497628,1.471760126,0.08813634544,-0.1692912355,59.36881953,56.01156964,-19.68148364,4.394854233e-08,-1.702394244e-05,0.3513824691,1.503230187e-05,-14.82620906,0.1814218316,123.9616857,-956.0383143,1.44326086,-0.1013492002,0.1504733219,40.98494058,39.1338826,12.17803709,-7.102725264e-08,1.053366739e-05,0.3111890842,1.509687609e-05,-29.89615061,0.03200313101,157.314438,-202.685562,1.066122385,-0.02952721854,0.01234276144,47.132388,47.11800447,1.164325079,-7.428960625e-07,1.007109194e-06,0.02471083172,-1.372872012e-06,
192000,-30.55475186,0.02966623324,-13.34599574,-373.3459957,1.061146451,0.0288650634,-0.006847883578,52.97215839,52.96718223,-0.7260651942,1.141677086e-06,-6.018586701e-07,0.01370783122,-1.239343159e-06,-14.58422731,0.1865471569,-105.2551968,-1185.255197,1.458655123,-0.04908404913,-0.179973881,45.46169565,42.59609315,-15.8851698,5.21827595e-08,-1.31677255e-05,0.3729255108,1.501255843e-05,-15.01011398,0.177620996,81.31286884,-998.6871312,1.431968703,0.02682766158,0.1755832987,52.67201564,49.51717087,17.95525052,-4.616655135e-08,1.488368164e-05,0.3626065506,1.502437519e-05,-30.30623215,0.03052729987,-166.4986178,-166.4986178,1.062977121,-0.02968365622,-0.007127172695,47.11734857,47.11255357,-0.6721850308,1.233190204e-06,-5.571956788e-07,0.01426764164,-1.423179791e-06,
