Frequency,S11_Magnitude,S11_Magnitude (linear),S11_Phase,S11_Unwrapped Phase,S11_VSWR,S11_Real,S11_Imaginary,S11_Impedance (absolute),S11_Resistance,S11_Reactance,S11_Capacitance,S11_Inductance,S11_Quality Factor,S11_Group delay,S12_Magnitude,S12_Magnitude (linear),S12_Phase,S12_Unwrapped Phase,S12_VSWR,S12_Real,S12_Imaginary,S12_Impedance (absolute),S12_Resistance,S12_Reactance,S12_Capacitance,S12_Inductance,S12_Quality Factor,S12_Group delay,S21_Magnitude,S21_Magnitude (linear),S21_Phase,S21_Unwrapped Phase,S21_VSWR,S21_Real,S21_Imaginary,S21_Impedance (absolute),S21_Resistance,S21_Reactance,S21_Capacitance,S21_Inductance,S21_Quality Factor,S21_Group delay,S22_Magnitude,S22_Magnitude (linear),S22_Phase,S22_Unwrapped Phase,S22_VSWR,S22_Real,S22_Imaginary,S22_Impedance (absolute),S22_Resistance,S22_Reactance,S22_Capacitance,S22_Inductance,S22_Quality Factor,S22_Group delay,
0,-13.05911875,0.2223535474,-133.5103998,-133.5103998,1.571862822,-0.153087355,-0.1612617802,37.02319881,35.06004035,-11.89583207,inf,-inf,0.3392988698,-2.117116366e-05,-13.25863873,0.2173041716,-132.5903408,-132.5903408,1.555271061,-0.1470610033,-0.1599817624,37.46503358,35.51585311,-11.92698283,inf,-inf,0.3358213808,1.409031689e-07,-15.57572958,0.1664230669,-172.094714,-172.094714,1.399298638,-0.1648415116,-0.02288915108,35.85512842,35.81545352,-1.686274795,inf,-inf,0.04708232421,9.769207129e-06,-15.75465737,0.163029851,-171.4130242,-171.4130242,1.389571483,-0.161202343,-0.02434208166,36.12490435,36.07980849,-1.804475973,inf,-inf,0.05001345763,-1.33336728e-05,
8000,-13.32396986,0.2156758443,-17.76503817,-17.76503817,1.549966089,0.2053915035,-0.06580577556,75.70192967,74.9909031,-10.35116457,1.921944893e-06,-0.000205929876,0.1380322698,-2.117116366e-05,-14.72549317,0.1835377239,-100.5046646,-100.5046646,1.449592662,-0.03346178542,-0.1804616442,46.86118284,43.89902855,-16.39651637,1.213328944e-06,-0.0003261983287,0.3735052211,1.409031689e-07,-17.50847821,0.1332220431,112.1009405,-247.8990595,1.307396011,-0.05012339121,0.1234332144,45.29533181,43.92917586,11.04058837,-1.801930044e-06,0.0002196455267,0.2513270089,9.769207129e-06,-12.12042444,0.2477301,117.938769,-242.061231,1.658620264,-0.1160684149,0.2188568608,40.03353987,36.2823616,16.91964987,-1.175814396e-06,0.0003366057389,0.4663326509,-1.33336728e-05,
16000,5.88265466,1.968487825,87.03373042,87.03373042,nan,0.1018654008,1.96585039,52.13511801,-30.77299193,42.08436168,-2.363629516e-07,0.0004186208867,-1.367574585,-2.117116366e-05,-11.92146192,0.253470198,-141.7363044,-141.7363044,1.679062503,-0.1990169227,-0.1569694421,33.74902539,31.99634226,-10.73456083,9.266502931e-07,-0.0001067786512,0.3354933744,1.409031689e-07,-17.16004309,0.1386748949,123.1239424,-236.8760576,1.322003606,-0.07577917003,0.1161388991,43.04359768,41.88496893,9.919711619,-1.002769468e-06,9.867319614e-05,0.2368322545,9.769207129e-06,10.39630271,3.309902,144.375586,-215.624414,nan,-2.690462585,1.927916577,30.79094844,-28.71260697,11.12064327,-8.944791866e-07,0.0001106190841,-0.3873087274,-1.33336728e-05,
24000,-6.754299395,0.4594994864,125.8011751,125.8011751,2.700274005,-0.2687953948,0.3726778954,31.03081254,22.55522482,21.31133877,-3.111703133e-07,0.0001413252046,0.944851534,-6.103967143e-06,-23.6580194,0.06562949012,-72.7325042,-72.7325042,1.140478513,0.01948101061,-0.06267152622,51.97887616,51.5718502,-6.492136248,1.021459764e-06,-4.305231563e-05,0.1258852692,7.631450802e-06,-22.96042159,0.07111789941,129.084008,-230.915992,1.153125783,-0.04483693241,0.05520330704,45.72121951,45.44229041,5.04263383,-1.315077831e-06,3.344000418e-05,0.1109678624,1.206917484e-05,-6.513556271,0.4724133767,-49.3635221,-49.3635221,2.790846681,0.3076627465,-0.3584941184,86.95688804,63.89956406,-58.97750495,1.124404291e-07,-0.0003911067268,0.9229719454,2.358279649e-05,
32000,-6.549124457,0.4704828283,99.57125019,99.57125019,2.777025764,-0.07822904946,0.4639335163,43.9570551,28.25660542,33.6717529,-1.477081394e-07,0.0001674695599,1.191641827,4.735197917e-06,-21.06905323,0.08841935417,-148.5054266,-148.5054266,1.193991293,-0.07539426791,-0.04619184514,43.00311273,42.81790247,-3.986844923,1.247500735e-06,-1.98289399e-05,0.09311163539,1.556527564e-05,-20.91240737,0.0900284207,38.73716966,-321.2628303,1.197870841,0.07022438533,0.05633517763,57.52701221,57.15943231,6.492798433,-7.660166911e-07,3.229253016e-05,0.1135910237,2.160011989e-05,-6.404787964,0.4783663275,-75.75699042,-75.75699042,2.834108313,0.1176948782,-0.4636617937,60.701854,38.81271623,-46.67213449,1.065644849e-07,-0.0002321281534,1.202495961,2.042194104e-05,
40000,-7.208964155,0.4360655644,63.86332879,63.86332879,2.546511569,0.1920929194,0.391476036,69.88120939,50.24067265,48.57219613,-8.191669091e-08,0.0001932626278,0.9667903228,7.532827417e-06,-14.55370316,0.1872038784,152.987005,-207.012995,1.460641663,-0.1667805968,0.08502661133,35.79642229,35.25318337,6.212641268,-6.404479843e-07,2.471931419e-05,0.1762292274,2.543922466e-05,-14.51051909,0.1881369267,-19.50179087,-379.5017909,1.463469599,0.1773437101,-0.0628069398,71.45126212,70.85302208,-9.226706919,4.312344168e-07,-3.671190037e-05,0.1302231951,2.671816975e-05,-7.045629964,0.4443431626,-111.5872122,-111.5872122,2.599343813,-0.1634814157,-0.4131763218,37.78321537,26.32370827,-27.10412786,1.467995428e-07,-0.0001078438982,1.029647023,6.981681599e-06,
48000,-13.37237392,0.2144772852,49.81580357,49.81580357,1.546075323,0.1383908226,0.1638550764,65.56758762,62.01092712,21.30148971,-1.556570938e-07,7.062994547e-05,0.3435118728,7.264075426e-06,-10.40366806,0.301867666,61.26397179,-298.7360282,1.864786377,0.1451304155,0.2646908579,65.66715106,56.74351424,33.05069319,-1.003224944e-07,0.0001095871082,0.5824576365,2.46751239e-05,-10.38580461,0.3024891276,-113.6248845,-473.6248845,1.867338817,-0.1212216064,-0.2771371401,39.89051764,34.0531944,-20.77578757,1.59595778e-07,-6.888686017e-05,0.610098052,2.494420958e-05,-12.96500811,0.2247758219,-118.58852,-118.58852,1.579898894,-0.1075588119,-0.1973708999,40.62220913,37.50965852,-15.59453084,2.126212077e-07,-5.170722226e-05,0.4157470757,6.82403286e-06,
56000,-10.18547758,0.3095466592,42.20618362,42.20618362,1.896647582,0.2292911459,0.2079536117,78.0910314,70.94543235,32.63364543,-8.708964377e-08,9.274653538e-05,0.4599823322,5.949808798e-06,-10.65441125,0.2932779674,-3.942038497,-363.9420385,1.829966957,0.2925841031,-0.02016206354,91.33358564,91.24482591,-4.025619395,7.059913709e-07,-1.144102189e-05,0.04411887858,2.38019393e-05,-10.79630308,0.2885259275,-179.4766092,-539.4766092,1.811065192,-0.2885138894,-0.002635616511,27.60891868,27.6084623,-0.1587457817,1.790316898e-05,-4.511638546e-07,0.005749895812,2.404853406e-05,-9.863418504,0.3212395988,-128.4839724,-128.4839724,1.946547849,-0.1999060175,-0.2514606609,34.2046697,29.83369908,-16.73050592,1.698724814e-07,-4.75489771e-05,0.5607922061,5.447488543e-06,
64000,-11.59170318,0.2632781642,5.797136638,5.797136638,1.71472882,0.2619316959,0.02659282637,85.45234638,85.3131539,4.875374254,-5.100728387e-07,1.212406113e-05,0.05714680599,4.327358797e-06,-9.596510412,0.3312641814,-65.362689,-425.362689,1.990717626,0.1380950263,-0.3011074917,64.47261208,53.40222035,-36.12368435,6.884115036e-08,-8.983223323e-05,0.6764453634,2.10316511e-05,-9.832362198,0.3223902434,119.5279609,-600.4720391,1.951551362,-0.1588894654,0.2805166783,37.18076649,31.51352097,19.7308741,-1.260357738e-07,4.906665852e-05,0.6261082068,2.082107891e-05,-11.64492247,0.261669965,-165.5746835,-165.5746835,1.708815713,-0.2534203435,-0.06518665569,29.85465585,29.56648948,-4.138015934,6.009633663e-07,-1.029040141e-05,0.1399562818,4.227899842e-06,
72000,-16.90957542,0.1427319599,0.1954155665,0.1954155665,1.332992607,0.1427311297,0.000486807108,66.6495127,66.64947978,0.06624035687,-3.337067349e-05,1.464233365e-07,0.0009938615738,3.768969693e-06,-9.778712799,0.3243876862,-126.4475905,-486.4475905,1.960277602,-0.1927145839,-0.2609376556,34.7445418,30.01270265,-17.50488116,1.262782249e-07,-3.869428285e-05,0.5832490784,1.985116034e-05,-10.02777399,0.3152182114,57.62289594,-662.3771041,1.920638418,0.1687959953,0.2662150122,68.67195806,59.11474937,34.94687727,-6.325272795e-08,7.724955921e-05,0.5911701841,1.973508364e-05,-17.34024456,0.1358275202,-166.5379655,-166.5379655,1.314352802,-0.1320955767,-0.03162078237,38.34224348,38.26290616,-2.465288448,8.966436859e-07,-5.449483926e-06,0.06443024577,3.502706004e-06,
80000,-16.70519202,0.1461303415,8.507220924,8.507220924,1.342277864,0.1445225025,0.02161765391,66.88436178,66.81918614,2.951984994,-6.739318772e-07,5.872787547e-06,0.04417870323,2.198382307e-06,-10.60347731,0.2950027976,179.660972,-540.339028,1.83689069,-0.2949976331,0.001745566917,27.22027706,27.22007805,0.104087305,-1.911315495e-05,2.070751138e-07,0.003823916477,1.874594464e-05,-11.27545178,0.2730407142,8.001826608,-711.9981734,1.751185711,0.2703822891,0.03800854277,86.97909225,86.68714013,7.12054948,-2.793937173e-07,1.416588309e-05,0.082140782,1.875814398e-05,-16.39418531,0.1514574828,-160.4432811,-160.4432811,1.356982661,-0.142719989,-0.0506988544,37.5391122,37.33858354,-3.874935393,5.134116022e-07,-7.708939025e-06,0.1037783179,1.864525718e-06,
88000,-16.69912557,0.1462324383,-13.42202211,-13.42202211,1.342557963,0.1422383525,-0.03394373399,66.55980068,66.40022286,-4.606242553,3.92636488e-07,-8.330753084e-06,0.06937088995,1.531430823e-06,-10.47277507,0.2994754641,127.689422,-592.310578,1.855003497,-0.1830935948,0.2369858416,35.24739889,31.26353078,16.27792283,-1.11106246e-07,2.943990774e-05,0.520668089,1.770361908e-05,-10.81737567,0.2878267915,-47.89874649,-767.8987465,1.808305587,0.1929714149,-0.2135563039,72.58781929,65.80240015,-30.64368849,5.901962159e-08,-5.542152838e-05,0.4656925647,1.778236198e-05,-16.85085581,0.1437001461,178.51136,-181.48864,1.335630435,-0.1436516467,0.003733149664,37.43936935,37.43828139,0.2854192461,-6.336569533e-06,5.162032258e-07,0.007623727252,1.325694655e-06,
96000,-20.1978373,0.09774805731,-19.05084975,-19.05084975,1.216675748,0.09239432417,-0.03190566673,60.16850421,60.04401709,-3.868450615,4.285602055e-07,-6.413364974e-06,0.06442691216,1.846688133e-06,-10.86779687,0.28616081,77.62720184,-642.3727982,1.80175147,0.06131613933,0.2795144724,56.02861187,47.85543425,29.13868153,-5.689564193e-08,4.830797084e-05,0.608889711,1.711854551e-05,-11.26262321,0.2734442779,-97.82849113,-817.8284911,1.752713851,-0.03724535804,-0.2708958405,46.64675213,40.2531291,-23.57127663,7.033407722e-08,-3.907797073e-05,0.5855762559,1.733891174e-05,-20.60315746,0.093291511,175.0514834,-184.9485166,1.205780606,-0.09294377717,0.008047379101,41.49652304,41.49105467,0.6736514875,-2.4610114e-06,1.116822543e-06,0.01623606565,1.617015824e-06,
104000,-20.37814746,0.09573982447,-8.07815295,-8.07815295,1.211752827,0.09478982804,-0.01345371655,60.46946988,60.44718507,-1.641524994,9.322648131e-07,-2.512084778e-06,0.02715635131,1.485439599e-06,-11.25110097,0.2738072552,29.63717979,-690.3628202,1.754089757,0.2379862083,0.1353993268,80.45540291,77.21474799,22.60430379,-6.770108938e-08,3.459217965e-05,0.2927459375,1.668764283e-05,-11.68755031,0.2603889105,-145.5279577,-865.5279577,1.704123868,-0.2146652611,-0.1473811737,32.65206915,31.13276086,-9.844227791,1.554551585e-07,-1.506497609e-05,0.3162015677,1.656100795e-05,-20.37198716,0.0958077502,-173.3753508,-173.3753508,1.211918981,-0.09516806355,-0.01105281312,41.31116447,41.30088689,-0.9214399817,1.660809192e-06,-1.410112768e-06,0.02231041634,1.456928043e-06,
112000,-19.83468295,0.1019215107,-20.75702277,-20.75702277,1.226976844,0.0953059666,-0.0361215598,60.51929761,60.35867919,-4.406271604,3.225008364e-07,-6.261427735e-06,0.07300145833,8.02146437e-07,-11.59479346,0.2631845112,-17.81996222,-737.8199622,1.714383764,0.2505576628,-0.08054157022,83.12674612,81.90906151,-14.17609123,1.002410506e-07,-2.014459815e-05,0.1730710982,1.629534009e-05,-12.02477798,0.2504731058,167.1361032,-912.8638968,1.668349883,-0.2441866504,0.05576429414,30.42580672,30.21265985,3.595121645,-3.952651448e-07,5.108762329e-06,0.1189938808,1.618839941e-05,-19.92100197,0.100913647,172.2150464,-187.7849536,1.224480433,-0.09998357092,0.01366929727,40.91200803,40.89641195,1.129553303,-1.258042692e-06,1.605124925e-06,0.02761986318,6.432136627e-07,
120000,-22.60818432,0.07406120676,-33.95926582,-33.95926582,1.159969984,0.06142895101,-0.04137083906,56.53298578,56.33833754,-4.687238386,2.829579132e-07,-6.216642988e-06,0.08319802448,1.657592797e-07,-11.98490626,0.2516255209,-64.88905265,-784.8890527,1.67245885,0.1067829362,-0.2278438222,61.29143604,55.11533479,-26.81305656,4.946437902e-08,-3.556192076e-05,0.4864899517,1.598756947e-05,-12.59473492,0.2345650235,121.1404418,-958.8595582,1.612893402,-0.1213023909,0.2007647385,39.56257392,36.41186253,15.4717007,-8.572368471e-08,2.051998037e-05,0.4249082475,1.591080856e-05,-22.97166448,0.07102590502,158.9498147,-201.0501853,1.152912563,-0.06628607465,0.02551147763,43.78727124,43.72980849,2.242536941,-5.914244568e-07,2.974256994e-06,0.05128165476,5.46852097e-09,
128000,-25.27293434,0.05449457665,-17.66120201,-17.66120201,1.115270786,0.05192609138,-0.01653299484,55.47542591,55.44494282,-1.838802524,6.761998511e-07,-2.286363368e-06,0.03316447687,-1.253717615e-07,-12.37248189,0.2406444808,-109.7625793,-829.7625793,1.633812423,-0.08136751684,-0.2264709547,42.81828409,38.5898598,-18.55338709,6.701730453e-08,-2.306924427e-05,0.4807839984,1.57311229e-05,-12.836049,0.2281379581,75.72435762,-1004.275642,1.591136617,0.05625586421,0.2210932058,55.66653133,50.44798069,23.53218974,-5.283817641e-08,2.925987749e-05,0.4664644534,1.568154702e-05,-25.5154111,0.0529943348,179.6266239,-180.3733761,1.111919784,-0.05299320956,0.0003453426384,44.96737462,44.96736383,0.03114576589,-3.992189492e-05,3.872658279e-08,0.0006926304598,-2.521645181e-07,
136000,-22.9219061,0.07143395487,-12.01299696,-12.01299696,1.153858641,0.06986958076,-0.01486780391,57.51001117,57.48434152,-1.718098968,6.811347635e-07,-2.010617232e-06,0.02988812123,9.333890084e-07,-12.63425349,0.2335002369,-154.6125121,-874.6125121,1.60926369,-0.2109508717,-0.1001103907,32.72925439,32.01917514,-6.780598507,1.725890323e-07,-7.935042422e-06,0.2117668078,1.551590038e-05,-13.100455,0.2212978783,31.06227183,-1048.937728,1.568376205,0.1895653175,0.1141829294,73.00684885,70.98891114,17.04624518,-6.865188917e-08,1.994848662e-05,0.2401254633,1.550245153e-05,-22.87658924,0.07180762086,-177.1598862,-177.1598862,1.154725728,-0.07171941898,-0.003557998611,43.30808361,43.30697575,-0.3097695948,3.777830214e-06,-3.625100164e-07,0.007152879863,7.755454197e-07,
144000,-22.67028142,0.07353361701,-29.92480383,-29.92480383,1.158739957,0.06373017903,-0.03668319932,56.7970088,56.64311139,-4.178293931,2.645200837e-07,-4.6180287e-06,0.07376526163,9.203643671e-07,-12.94979643,0.2251698188,160.5135977,-919.4864023,1.581210759,-0.2122722458,0.07511285476,32.57462277,32.17424728,5.091547977,-2.170739951e-07,5.627396031e-06,0.1582491716,1.53317725e-05,-13.42261535,0.2132402743,-13.63908897,-1093.639089,1.542072166,0.2072269738,-0.05028315708,76.05270064,75.63408586,-7.968584027,1.38700007e-07,-8.807219009e-06,0.1053570482,1.537366832e-05,-22.95161447,0.07119004647,163.9010659,-196.0989341,1.153293031,-0.06839827989,0.01974077061,43.60039932,43.56611075,1.728818891,-6.393050574e-07,1.91076439e-06,0.03968265382,4.989098933e-07,
152000,-26.01379046,0.05003921376,-41.26826663,-41.26826663,1.105350062,0.03761095229,-0.03300513872,53.90365706,53.78601425,-3.559342041,2.941757162e-07,-3.726887368e-06,0.06617597698,-5.240668333e-07,-13.27262592,0.2169545208,116.5438933,-963.4561067,1.554130064,-0.09695334707,0.1940858382,41.45760576,38.39440763,15.63977424,-6.694930363e-08,1.63759696e-05,0.407345111,1.522766326e-05,-13.75936405,0.2051312363,-57.41313692,-1137.413137,1.516138627,0.1104790913,-0.1728386372,62.01183135,58.33011176,-21.04911611,4.974422625e-08,-2.203993997e-05,0.3608619197,1.523795832e-05,-26.79306716,0.04574531704,155.6447397,-204.3552603,1.095876537,-0.04167425635,0.01886505734,46.0006693,45.96782465,1.738008311,-6.024551134e-07,1.819819828e-06,0.03780923557,-8.823165579e-07,
160000,-28.51170392,0.0375331318,-16.28681406,-16.28681406,1.077993608,0.03602692191,-0.01052600969,53.73690687,53.72496946,-1.132614653,8.78249625e-07,-1.126632629e-06,0.02108171795,-1.009343626e-06,-13.32041804,0.2157640562,73.88169396,-1006.118306,1.550252913,0.0599007644,0.2072824797,56.09234519,51.44015096,22.3665388,-4.447350586e-08,2.224840756e-05,0.434807021,1.518778142e-05,-13.75350048,0.2052697607,-101.4187618,-1181.418762,1.516577199,-0.04063896334,-0.2012067327,46.24126579,42.63186436,-17.9102988,5.553890561e-08,-1.781570366e-05,0.4201153074,1.516569827e-05,-28.44424211,0.03782578017,-173.9599915,-173.9599915,1.078625636,-0.03761579651,-0.00398013802,46.3748411,46.37336766,-0.3696737328,2.690800849e-06,-3.67721262e-07,0.00797168184,-1.009890817e-06,
168000,-25.22620411,0.05478854843,-11.28542945,-11.28542945,1.11592866,0.05372918209,-0.01072194161,55.67730036,55.6644263,-1.19725536,7.912688332e-07,-1.134220885e-06,0.02150844695,5.939789488e-07,-13.76896241,0.2049046808,29.42508886,-1050.574911,1.515421676,0.1784717248,0.1006666364,71.45113771,69.92369828,14.69494805,-6.446779182e-08,1.392127155e-05,0.2101569055,1.517313235e-05,-14.241137,0.1940631828,-144.4744915,-1224.474492,1.481584111,-0.1579396613,-0.1127633908,36.51213801,35.54898983,-8.330999008,1.137139557e-07,-7.892379006e-06,0.2343526229,1.510842365e-05,-24.69853778,0.058220122,-175.5239991,-175.5239991,1.123638492,-0.05804255702,-0.004543586604,44.51426407,44.51241374,-0.4058677358,2.334136883e-06,-3.844991452e-07,0.009118079692,8.187542541e-07,
176000,-24.79506515,0.05757669637,-30.38167421,-30.38167421,1.122188609,0.04967000404,-0.02911986716,55.22193497,55.12789896,-3.221313086,2.807207574e-07,-2.912999437e-06,0.05843344563,1.010199069e-06,-14.02574247,0.1989357687,-14.6310525,-1094.631053,1.496678695,0.192484762,-0.05024993958,73.75952687,73.35898871,-7.676365024,1.178017781e-07,-6.941655901e-06,0.1046410966,1.511900677e-05,-14.47314947,0.1889480988,171.5055332,-1268.494467,1.465933434,-0.1868753633,0.02791026025,34.26554558,34.20827883,1.980220544,-4.566609777e-07,1.790692545e-06,0.05788717267,1.498802665e-05,-24.75714498,0.05782860965,164.0278631,-195.9721369,1.12275603,-0.05559617234,0.0159126904,44.73446386,44.71167424,1.427740635,-6.333709549e-07,1.291090793e-06,0.03193216669,8.974141979e-07,
184000,-28.12805675,0.03922808994,-42.77413342,-42.77413342,1.081659527,0.02879485095,-0.02664018767,52.96269098,52.88744454,-2.822205827,3.064881053e-07,-2.441130477e-06,0.05336249183,-8.467841494e-07,-14.29995503,0.1927534893,-57.69283928,-1137.692839,1.477557937,0.1030186414,-0.1629142939,61.15162209,57.92484855,-19.6018572,4.41270696e-08,-1.695506775e-05,0.338401527,1.51872617e-05,-14.73536451,0.1833292554,128.563415,-1311.436585,1.448967363,-0.1142838731,0.1433485691,39.93181453,38.28266982,11.3572445,-7.616042047e-08,9.823704362e-06,0.2966680369,1.519241367e-05,-28.60418121,0.03713564228,154.8607511,-205.1392489,1.077135771,-0.03361808,0.01577595084,46.74831752,46.72500116,1.476298541,-5.859062329e-07,1.276957665e-06,0.03159547361,-1.150623351e-06,
192000,-30.97243795,0.02827340424,-15.08932866,-15.08932866,1.058192097,0.0272985693,-0.007360265049,52.80631312,52.80058349,-0.7778743999,1.065637326e-06,-6.448049784e-07,0.01473230689,-1.538979256e-06,-14.4931952,0.1885125379,-100.2730395,-1180.27304,1.464609859,-0.03361918063,-0.1854905055,46.85232392,43.72889879,-16.82033494,4.928153919e-08,-1.39429138e-05,0.3846503205,1.504880406e-05,-14.9300727,0.1792653549,86.23470115,-1353.765299,1.436841203,0.01177227886,0.178878397,51.15388536,47.98096768,17.73546527,-4.673866642e-08,1.470149462e-05,0.3696354228,1.502275411e-05,-30.2865821,0.03059643982,-172.0751311,-172.0751311,1.063124257,-0.03030423503,-0.004218467582,47.05876089,47.05708297,-0.3973895711,2.085943003e-06,-3.294089301e-07,0.008444840734,-1.513009764e-06,
