Frequency,S11_Magnitude,S11_Magnitude (linear),S11_Phase,S11_Unwrapped Phase,S11_VSWR,S11_Real,S11_Imaginary,S11_Impedance (absolute),S11_Resistance,S11_Reactance,S11_Capacitance,S11_Inductance,S11_Quality Factor,S11_Group delay,S12_Magnitude,S12_Magnitude (linear),S12_Phase,S12_Unwrapped Phase,S12_VSWR,S12_Real,S12_Imaginary,S12_Impedance (absolute),S12_Resistance,S12_Reactance,S12_Capacitance,S12_Inductance,S12_Quality Factor,S12_Group delay,S21_Magnitude,S21_Magnitude (linear),S21_Phase,S21_Unwrapped Phase,S21_VSWR,S21_Real,S21_Imaginary,S21_Impedance (absolute),S21_Resistance,S21_Reactance,S21_Capacitance,S21_Inductance,S21_Quality Factor,S21_Group delay,S22_Magnitude,S22_Magnitude (linear),S22_Phase,S22_Unwrapped Phase,S22_VSWR,S22_Real,S22_Imaginary,S22_Impedance (absolute),S22_Resistance,S22_Reactance,S22_Capacitance,S22_Inductance,S22_Quality Factor,S22_Group delay,
0,-13.54267877,0.2103129723,-133.6158617,-133.6158617,1.532648923,-0.1450780937,-0.1522625793,37.58688702,35.81299608,-11.41066988,inf,-inf,0.3186181312,-2.008312132e-05,-13.77525681,0.2047562465,-132.7618428,-132.7618428,1.514952166,-0.1390197679,-0.1503283893,38.03671568,36.29168686,-11.38881928,inf,-inf,0.313813445,3.15282856e-05,-16.33023197,0.1525767646,-173.722967,-173.722967,1.360095778,-0.1516620459,-0.01668211389,36.83428486,36.81281328,-1.257505397,inf,-inf,0.03415944843,-2.105783195e-05,-16.43720891,0.1507091271,-173.024086,-173.024086,1.354905797,-0.1495934719,-0.01830393788,36.99114999,36.96522515,-1.384668683,inf,-inf,0.03745868387,-1.147162506e-05,
8000,-15.10674095,0.1756559853,8.760740731,8.760740731,1.426171555,0.1736066027,0.02675392825,70.98899926,70.88104814,3.913442313,-5.083598095e-06,7.785546108e-05,0.05521140581,-2.008312132e-05,-19.63576977,0.1042825186,111.9938514,-248.0061486,1.232846898,-0.03905454284,0.09669325912,46.27490825,45.41504836,8.879218188,-2.240554007e-06,0.0001766464332,0.1955126882,3.15282856e-05,-20.99824024,0.08914315233,-42.95305225,-42.95305225,1.195734714,0.06524496793,-0.06074204284,56.95234151,56.53006297,-6.922512773,2.873865104e-06,-0.0001377190158,0.122457192,-2.105783195e-05,-13.99617776,0.1996140528,178.6559072,-181.3440928,1.498794496,-0.1995591297,0.00468228575,33.36427723,33.36269046,0.325392828,-6.113954019e-05,6.473484629e-06,0.009753195068,-1.147162506e-05,
16000,11.34379154,3.691386989,-35.14742098,-35.14742098,nan,3.018349441,-2.125065778,77.54961074,-73.49748849,-24.73987291,4.020709395e-07,-0.0002460920665,-0.3366084123,-2.008312132e-05,-12.45802888,0.238286016,45.00039377,-314.9996062,1.625657454,0.1684924998,0.1684948157,69.57614076,65.52000769,23.40871538,-4.249350629e-07,0.0002328507978,0.3572758339,3.15282856e-05,-9.636068845,0.3297589243,-85.78466955,-85.78466955,1.98400094,0.02423894385,-0.3288668754,52.23612301,42.0300907,-31.01747931,3.206960773e-07,-0.0003085365722,0.7379826881,-2.105783195e-05,4.770887147,1.731985921,97.74448881,-262.2555112,nan,-0.2333948364,1.716188242,44.46866697,-22.38605364,38.4230002,-2.588861851e-07,0.0003822006506,-1.716381137,-1.147162506e-05,
24000,-6.744406993,0.4600231107,124.3013109,124.3013109,2.70386222,-0.2592437009,0.3800183757,31.64767947,22.78408154,21.96500044,-3.01910122e-07,0.0001456599331,0.9640502909,-9.114832095e-06,-23.19604595,0.06921459829,-54.18046917,-414.1804692,1.148722999,0.04050674412,-0.05612365185,54.20784464,53.86630938,-6.075453424,1.091516221e-06,-4.028910183e-05,0.112787631,2.734310089e-05,-21.26007933,0.08649600184,141.2901064,141.2901064,1.189371917,-0.06749477043,0.05409264552,43.69463583,43.43735445,4.734705811,-1.400605703e-06,3.139799308e-05,0.1090007868,-7.221636885e-06,-6.92073894,0.4507783536,-51.99423232,-51.99423232,2.641517069,0.2775626228,-0.355190251,82.35819511,61.47419635,-54.80689267,1.209967513e-07,-0.0003634494951,0.8915430525,2.544836867e-05,
32000,-6.787816825,0.4577297696,97.81080027,97.81080027,2.688198038,-0.06220654044,0.4534830628,45.09611405,29.62987869,33.99602611,-1.462992162e-07,0.0001690823625,1.147356237,-3.420913431e-06,-19.59248336,0.104803511,-143.681995,-503.681995,1.234146385,-0.08444461202,-0.06207159913,42.24086487,41.91197799,-5.260871224,9.453932172e-07,-2.616542688e-05,0.1255219027,2.762453214e-05,-20.45824349,0.09486102771,37.38823383,37.38823383,1.209605443,0.07537081773,0.05760081955,58.12215356,57.7333718,6.711372112,-7.410693206e-07,3.337962645e-05,0.1162477074,6.135265516e-06,-5.879314227,0.5081995646,-72.50761539,-72.50761539,3.066690178,0.1527541347,-0.4846988465,64.05687149,38.92556091,-50.87320997,9.776446139e-08,-0.0002530225887,1.306935822,1.744796201e-05,
40000,-6.711084037,0.4617913547,73.53521228,73.53521228,2.716030981,0.1308836899,0.4428551851,62.25411183,41.34325158,46.54363532,-8.548695326e-08,0.0001851912408,1.125785552,7.280123659e-06,-14.42008441,0.1901059805,172.594393,-547.405607,1.469458907,-0.1885202217,0.024503262,34.14654397,34.10249296,1.733908588,-2.294742412e-06,6.899003068e-06,0.05084404211,2.566373456e-05,-14.08913746,0.1974890983,-0.547932793,-0.547932793,1.492177983,0.1974800676,-0.001888605142,74.60738311,74.60680682,-0.2932426306,1.356853732e-05,-1.166775355e-06,0.003930507726,2.640776544e-05,-6.771004577,0.4586166009,-102.6745495,-102.6745495,2.694239615,-0.100626378,-0.4474410784,42.27454952,27.97112904,-31.69784657,1.255250437e-07,-0.0001261217242,1.133234433,6.72896319e-06,
48000,-13.54352083,0.2102925844,39.49678175,39.49678175,1.532583537,0.1622744409,0.1337534183,68.95529231,66.40346257,18.58527634,-1.784061705e-07,6.162372081e-05,0.279884145,6.605721496e-06,-9.876575508,0.3207533675,73.8196998,-646.1803002,1.944438595,0.08938142694,0.3080481834,58.88298554,48.53901033,33.33422359,-9.946918282e-08,0.0001105272179,0.6867512001,2.416627281e-05,-9.959876836,0.3176919118,-103.2134734,-103.2134734,1.931227161,-0.07261795555,-0.3092810751,43.78662007,36.07357476,-24.81864824,1.335982503e-07,-8.229188643e-05,0.6880007985,2.404482681e-05,-13.96636051,0.2003004728,-128.1660056,-128.1660056,1.50093933,-0.1237740799,-0.1574809719,39.22720582,37.27200618,-12.2299318,2.711158194e-07,-4.055112708e-05,0.3281264695,6.497940155e-06,
56000,-10.89605127,0.2852314677,48.6245395,48.6245395,1.798108632,0.1885353007,0.2140360497,71.95115879,65.21800111,30.39048505,-9.351784122e-08,8.637135569e-05,0.4659830803,6.17823661e-06,-10.55277239,0.2967299479,7.510905813,-712.4890942,1.843857767,0.2941840046,0.03878702659,91.58296984,91.25341684,7.762363095,-3.661323904e-07,2.206104387e-05,0.08506380762,2.375907552e-05,-10.64140378,0.293717492,-168.6808623,-168.6808623,1.831728065,-0.2880044385,-0.05764901111,27.70220196,27.48425871,-3.468071039,8.194908706e-07,-9.856440158e-06,0.1261839031,2.39192485e-05,-10.71378568,0.2912800334,-121.0621072,-121.0621072,1.821989071,-0.1502908616,-0.2495129551,37.61915626,33.02796709,-18.00983918,1.578055488e-07,-5.118490946e-05,0.5452905754,5.861928419e-06,
64000,-11.12006042,0.2779693931,15.14374711,15.14374711,1.769965678,0.268316474,0.07261716928,86.38863548,85.33804347,13.43185307,-1.851416907e-07,3.340227829e-05,0.1573958404,3.957028749e-06,-9.751828209,0.3253932874,-49.13457989,-769.1345799,1.964690334,0.2128997882,-0.246078182,75.03669336,65.73620833,-36.18364639,6.872706966e-08,-8.998134659e-05,0.5504370773,2.073022536e-05,-9.920900487,0.3191206998,135.2091925,-224.7908075,1.93737818,-0.2264747841,0.2248270295,32.30126231,28.88375188,14.46030513,-1.719739635e-07,3.595982874e-05,0.5006380469,2.050773497e-05,-11.2442629,0.2740228979,-156.8841748,-156.8841748,1.754907826,-0.2520224484,-0.1075789668,30.06735619,29.28541138,-6.812531717,3.650325737e-07,-1.694137653e-05,0.2326254403,3.871409659e-06,
72000,-16.0268193,0.1580007087,-3.254877582,-3.254877582,1.375298911,0.1577458284,-0.008970929528,68.72717025,68.71553751,-1.264450515,1.748178592e-06,-2.795049302e-06,0.01840123152,3.795545225e-06,-9.611347218,0.3306988153,-108.0591546,-828.0591546,1.988191334,-0.1025162164,-0.3144075887,41.47348133,33.88018354,-23.92034317,9.241026791e-08,-5.287556744e-05,0.7060275557,1.917134717e-05,-9.838168786,0.3221747949,75.8035558,-284.1964442,1.950613204,0.07901247319,0.3123357609,57.75317002,47.37948106,33.02443674,-6.693483793e-08,7.300003263e-05,0.6970198069,1.90993945e-05,-16.85944888,0.1435580517,-172.7272341,-172.7272341,1.335242925,-0.1424030881,-0.01817346189,37.53845463,37.51263077,-1.39215963,1.587810244e-06,-3.077348426e-06,0.03711175679,3.448789729e-06,
80000,-17.01446194,0.1410187637,8.455276307,8.455276307,1.328339567,0.1394860221,0.02073502735,66.20136195,66.14218255,2.798573171,-7.108753881e-07,5.567584421e-06,0.04231147299,2.197566094e-06,-9.361531287,0.3403481824,-166.9105152,-886.9105152,2.031902508,-0.3315051018,-0.07707952231,25.22706348,24.85213935,-4.333116814,4.591237379e-07,-8.620462e-06,0.1743558876,1.803640818e-05,-10.2075851,0.3087597956,19.23293399,-340.767066,1.893350224,0.2915270406,0.1017083871,90.50299274,88.29838996,19.85411863,-1.00202725e-07,3.9498514e-05,0.2248525555,1.80320408e-05,-16.8388461,0.1438989733,-158.0817412,-158.0817412,1.336172879,-0.1334975733,-0.05371510427,38.25295213,38.02483179,-4.171392273,4.769239282e-07,-8.298721247e-06,0.1097017942,1.836748445e-06,
88000,-16.46554563,0.150218257,-2.687076346,-2.687076346,1.353545503,0.1500530883,-0.007042403077,67.65335332,67.64633039,-0.9747819161,1.855367718e-06,-1.762970004e-06,0.0144099748,1.035116918e-06,-10.33393567,0.3043008856,150.3314743,-929.6685257,1.874806017,-0.2644081209,0.1506232871,29.48348259,27.98175728,9.289618138,-1.946881855e-07,1.680100734e-05,0.3319883753,1.677228019e-05,-10.68201969,0.2923472516,-25.72401383,-385.7240138,1.826244941,0.2633742318,-0.1268894381,84.93467455,81.84203345,-22.71080143,7.963518612e-08,-4.107427624e-05,0.2774955664,1.679703522e-05,-16.55656929,0.1486522665,-170.1258961,-170.1258961,1.349216332,-0.1464502705,-0.02549146161,37.23315818,37.1826602,-1.938517084,9.329703173e-07,-3.505961093e-06,0.05213497564,7.437515819e-07,
96000,-19.20716226,0.1095574429,-16.78510526,-16.78510526,1.246074139,0.1048897045,-0.03163831829,61.70484123,61.5786785,-3.94382878,4.203691598e-07,-6.538331719e-06,0.06404536238,1.139210346e-06,-10.64716213,0.2935228351,101.9458278,-978.0541722,1.830947834,-0.0607553455,0.2871662283,44.68690463,37.83513338,23.77860651,-6.972082193e-08,3.942169548e-05,0.6284795213,1.593395364e-05,-11.06819566,0.2796341557,-73.68841013,-433.6884101,1.776367058,0.07853828778,-0.2683784611,57.90198842,50.03724023,-29.1361434,5.690059826e-08,-4.830376297e-05,0.5822891764,1.602711027e-05,-19.59803782,0.1047365126,175.3659786,-184.6340214,1.233979189,-0.1043941375,0.008461744932,40.5480035,40.54206872,0.6937232507,-2.389806005e-06,1.150098797e-06,0.01711119518,9.702090035e-07,
104000,-21.3496459,0.0856086611,-5.540370419,-5.540370419,1.187247314,0.08520873327,-0.008265266386,59.31385411,59.30563171,-0.9875915921,1.549563609e-06,-1.511346958e-06,0.01665257689,1.003044643e-06,-11.04246492,0.2804637614,55.99183908,-1024.008161,1.779568134,0.1568664617,0.232492655,67.45915564,60.22405281,30.39409716,-5.034977624e-08,4.651318081e-05,0.5046836894,1.593801159e-05,-11.48156965,0.2666376772,-119.6130793,-479.6130793,1.72716492,-0.1317564323,-0.2318100375,38.89435603,34.80063023,-17.3691412,8.810660089e-08,-2.658062191e-05,0.4991042139,1.585123621e-05,-21.71494154,0.08208294368,-170.1611168,-170.1611168,1.178846102,-0.08087568092,-0.01402618544,42.51894851,42.50200107,-1.200369519,1.274887414e-06,-1.836968677e-06,0.0282426589,8.711482025e-07,
112000,-20.04961563,0.09943040734,-6.522705638,-6.522705638,1.22081671,0.09878678601,-0.01129499058,60.95996645,60.94410631,-1.390472993,1.021973303e-06,-1.975898662e-06,0.02281554489,1.183908292e-06,-11.37365362,0.2699711266,10.81036996,-1069.18963,1.739617668,0.2651800355,0.05063554033,85.95284735,85.44460825,9.333321432,-1.522530096e-07,1.326289501e-05,0.1092324211,1.556189079e-05,-11.82399945,0.2563303481,-164.6129212,-524.6129212,1.689366165,-0.2471422553,-0.06801435884,30.26126852,29.94554124,-4.359923422,3.259291827e-07,-6.195565751e-06,0.1455950783,1.549454234e-05,-20.11824224,0.09864790988,-172.0351405,-172.0351405,1.218888736,-0.09769627714,-0.01366921933,41.10141009,41.08575628,-1.134258361,1.252824159e-06,-1.611810936e-06,0.02760709461,1.035371473e-06,
120000,-20.98377788,0.08929170302,-22.26211902,-22.26211902,1.196092873,0.08263593455,-0.03382765953,58.99667653,58.85995317,-4.014194114,3.30400363e-07,-5.323990298e-06,0.06819907081,4.463034629e-07,-11.85748791,0.2553439689,-33.60816366,-1113.608164,1.685803803,0.2126612797,-0.1413354966,76.31163816,73.04513377,-22.08788242,6.004609981e-08,-2.929496391e-05,0.3023867749,1.52931082e-05,-12.26781978,0.2435617079,151.4804403,-568.5195597,1.6439698,-0.2140065099,0.1162906672,32.57516667,31.62291913,7.818725554,-1.696300993e-07,1.036990684e-05,0.2472486971,1.522520488e-05,-21.2102872,0.08699326679,171.0301293,-188.9698707,1.190564349,-0.08592937967,0.01356356059,42.08836983,42.07265555,1.150013128,-1.153283524e-06,1.525252282e-06,0.02733398005,3.272706313e-07,
128000,-24.58918988,0.05895769633,-25.47251038,-25.47251038,1.125302967,0.05322652084,-0.02535640818,55.61805947,55.54618027,-2.826728977,4.39871669e-07,-3.514749137e-06,0.05088970949,-6.29751646e-07,-12.09325948,0.2485060841,-77.34539818,-1157.345398,1.661365525,0.05444101635,-0.2424694818,55.41962961,49.23239974,-25.44614239,4.886390926e-08,-3.163968238e-05,0.5168576492,1.506183256e-05,-12.57364576,0.2351352344,107.6434204,-612.3565796,1.614841329,-0.07126764606,0.2240747668,43.64658057,39.43448802,18.70682095,-6.646762677e-08,2.326002362e-05,0.4743771731,1.49982258e-05,-25.01744371,0.0561213119,169.8610063,-190.1389937,1.118916366,-0.05524489921,0.009879410953,44.7652176,44.75642647,0.8871283606,-1.401598741e-06,1.103053623e-06,0.01982125095,-7.338068223e-07,
136000,-24.9814893,0.05635410215,-2.492237916,-2.492237916,1.119439087,0.05630079802,-0.002450504144,55.96593051,55.96525409,-0.2751600231,4.253004929e-06,-3.220079251e-07,0.004916622422,-4.557229267e-07,-12.40586815,0.2397212826,-120.1510349,-1200.151035,1.630614213,-0.120407482,-0.2072880402,39.65554722,36.29928805,-15.96634312,7.329523899e-08,-1.868472375e-05,0.4398527898,1.488656286e-05,-12.8907499,0.2267057343,65.01579966,-654.9842003,1.586337554,0.09575332141,0.2054915847,60.11284919,55.15855411,23.897459,-4.896993167e-08,2.796616711e-05,0.4332502798,1.483184366e-05,-24.8443043,0.05725122519,-165.8218873,-165.8218873,1.121455952,-0.05550729491,-0.01402294537,44.7421563,44.72445443,-1.258462026,9.299104065e-07,-1.472723913e-06,0.02813811912,-4.563653992e-07,
144000,-22.7247156,0.07307422528,-7.339222486,-7.339222486,1.157670069,0.07247554472,-0.009334763987,57.81313098,57.80294978,-1.084947235,1.018706371e-06,-1.199129969e-06,0.01876975551,8.273039165e-07,-12.62953067,0.2336272335,-162.8085832,-1242.808583,1.609696074,-0.2231893878,-0.06905201943,31.82802019,31.49377819,-4.600522218,2.402428698e-07,-5.084693415e-06,0.1460771772,1.474613314e-05,-13.1284155,0.22058665,22.64494761,-697.3550524,1.566032517,0.2035812854,0.08493015017,75.32290444,74.15024248,13.23939097,-8.348138242e-08,1.463273969e-05,0.1785481817,1.465769919e-05,-22.54786817,0.07457728888,-173.0423139,-173.0423139,1.161174538,-0.07402809304,-0.009034016644,43.1079608,43.10084725,-0.7831029831,1.411363108e-06,-8.655188244e-07,0.0181690856,8.522873534e-07,
152000,-23.47386976,0.06703575611,-24.76635282,-24.76635282,1.143704877,0.06087005174,-0.02808254615,56.47607818,56.38640878,-3.181243703,3.291391958e-07,-3.330991188e-06,0.05641862591,3.332302772e-07,-12.93045372,0.225671811,154.7569237,-1285.243076,1.582884142,-0.2041216619,0.09623987455,33.18301089,32.52093741,6.595516811,-1.587551096e-07,6.905980939e-06,0.202808324,1.457994458e-05,-13.42990132,0.2130614774,-19.59887204,-739.598872,1.541494593,0.2007175597,-0.0714678556,74.9461509,74.11987526,-11.09818116,9.434626979e-08,-1.162059468e-05,0.1497328635,1.451654884e-05,-23.53272321,0.06658307365,169.0534512,-190.9465488,1.142665237,-0.06537157876,0.01264366983,43.864889,43.85074597,1.113806552,-9.400842471e-07,1.166235648e-06,0.02539994537,3.006777626e-07,
160000,-27.17567334,0.04377401003,-26.24862932,-26.24862932,1.091555784,0.03926017953,-0.01935981035,54.08485679,54.0442046,-2.09658851,4.744461726e-07,-2.085515157e-06,0.03879395628,-1.443241165e-06,-13.20964219,0.2185334341,112.8563053,-1327.143695,1.559290553,-0.08488304621,0.2013746019,42.45964908,39.1057571,16.53969653,-6.014127238e-08,1.645234038e-05,0.4229478665,1.446776201e-05,-13.8447366,0.2031249027,-61.12011202,-781.120112,1.509803615,0.09810425942,-0.1778630944,60.50559313,56.72675607,-21.04761142,4.726039332e-08,-2.093644624e-05,0.371034991,1.443609857e-05,-27.48437398,0.04224558233,170.1503992,-189.8496008,1.088217985,-0.04162289002,0.007226634939,46.00423531,45.9994138,0.6660305995,-1.493502543e-06,6.625128885e-07,0.01447911059,-1.427922674e-06,
168000,-27.91533444,0.04020066876,2.163949512,2.163949512,1.083768903,0.04017200055,0.001517939688,54.1853232,54.18507269,0.1647656214,-5.749687609e-06,1.560908518e-07,0.003040793584,-1.391021171e-06,-13.46261954,0.2122604219,72.06531882,-1367.934681,1.538910137,0.06536189558,0.2019463031,56.69974041,52.22101357,22.08679027,-4.289219214e-08,2.092393957e-05,0.4229483259,1.443207487e-05,-13.97348381,0.2001362738,-102.1399738,-822.1399738,1.500425928,-0.04208879581,-0.1956605769,46.10446654,42.693384,-17.40393051,5.443315527e-08,-1.648762839e-05,0.4076493563,1.441896125e-05,-27.28819233,0.04321060864,-161.7480036,-161.7480036,1.09032418,-0.04103660574,-0.01353342855,46.05879612,46.0418706,-1.248539952,7.587669502e-07,-1.182805387e-06,0.02711748971,-1.201519172e-06,
176000,-24.80549645,0.0575075913,-0.02170087238,-0.02170087238,1.122033007,0.05750758718,-2.178109593e-05,56.10164988,56.10164982,-0.002452019965,0.0003687936731,-2.217335784e-09,4.370673541e-05,6.494626505e-07,-13.67784334,0.2070655418,30.20144633,-1409.798554,1.522276563,0.1789589008,0.1041626153,71.50313005,69.86730504,15.20714614,-5.946477012e-08,1.375166181e-05,0.2176575457,1.441474654e-05,-14.17422344,0.1955639624,-143.9643209,-863.9643209,1.486213827,-0.1581429573,-0.1150481136,36.50327865,35.50138794,-8.493574417,1.064674782e-07,-7.680649733e-06,0.2392462636,1.440737125e-05,-24.35317934,0.06058164098,-167.0795,-167.0795,1.128976915,-0.05904778984,-0.01354598605,44.42541445,44.40899965,-1.207559286,7.488571866e-07,-1.091983122e-06,0.02719176958,8.291268239e-07,
184000,-24.82755952,0.05736170132,-17.84911217,-17.84911217,1.121704585,0.05460071115,-0.01758201128,55.77351929,55.7388414,-1.966472287,4.398600084e-07,-1.700944483e-06,0.03528010697,6.353970756e-07,-13.91620742,0.2014603709,-11.73752493,-1451.737525,1.504572005,0.1972477919,-0.04098279674,74.51807006,74.24760356,-6.34319561,1.363622644e-07,-5.486689871e-06,0.08543300128,1.453362394e-05,-14.3873211,0.1908244174,174.1901905,-905.8098095,1.471651447,-0.1898442272,0.01931651231,34.04980383,34.02247016,1.364061817,-6.341153354e-07,1.179875983e-06,0.04009296829,1.450768158e-05,-24.67074278,0.05840672584,174.9702769,-185.0297231,1.124059352,-0.05818182201,0.00512066504,44.50185458,44.49950497,0.4572941071,-1.89150156e-06,3.955468347e-07,0.01027638639,-1.931404852e-08,
192000,-28.20047113,0.03890240436,-25.59436065,-25.59436065,1.080954119,0.03508510788,-0.01680572134,53.63501787,53.60465524,-1.804460662,4.593793661e-07,-1.495775177e-06,0.03366238723,-1.542089962e-06,-14.15114153,0.1960843458,-52.81462301,-1492.814623,1.487823181,0.118512556,-0.1562172997,63.07753013,59.99015371,-19.49246688,4.252576138e-08,-1.615792946e-05,0.3249277702,1.431706619e-05,-14.61989861,0.1857826141,133.2486598,-946.7513402,1.456346468,-0.1272919218,0.1353216403,38.89153187,37.44804716,10.49738134,-7.896559802e-08,8.70161526e-06,0.2803185249,1.42745314e-05,-28.22123751,0.03880950687,169.8518327,-190.1481673,1.080752998,-0.03820234786,0.006838014451,46.32050294,46.31615872,0.6343766093,-1.306687515e-06,5.258550685e-07,0.0136966585,-1.911940605e-06,
