Frequency,S11_Magnitude,S11_Magnitude (linear),S11_Phase,S11_Unwrapped Phase,S11_VSWR,S11_Real,S11_Imaginary,S11_Impedance (absolute),S11_Resistance,S11_Reactance,S11_Capacitance,S11_Inductance,S11_Quality Factor,S11_Group delay,S12_Magnitude,S12_Magnitude (linear),S12_Phase,S12_Unwrapped Phase,S12_VSWR,S12_Real,S12_Imaginary,S12_Impedance (absolute),S12_Resistance,S12_Reactance,S12_Capacitance,S12_Inductance,S12_Quality Factor,S12_Group delay,S21_Magnitude,S21_Magnitude (linear),S21_Phase,S21_Unwrapped Phase,S21_VSWR,S21_Real,S21_Imaginary,S21_Impedance (absolute),S21_Resistance,S21_Reactance,S21_Capacitance,S21_Inductance,S21_Quality Factor,S21_Group delay,S22_Magnitude,S22_Magnitude (linear),S22_Phase,S22_Unwrapped Phase,S22_VSWR,S22_Real,S22_Imaginary,S22_Impedance (absolute),S22_Resistance,S22_Reactance,S22_Capacitance,S22_Inductance,S22_Quality Factor,S22_Group delay,
0,-13.32189232,0.215727437,-133.5472491,-133.5472491,1.550133837,-0.1486259622,-0.1563606423,37.33603432,35.47658096,-11.63579227,inf,-inf,0.3279851654,-2.297973033e-05,-13.4905488,0.2115789999,-132.7786057,-132.7786057,1.53671579,-0.1436975342,-0.1552954985,37.70039595,35.8528178,-11.65741443,inf,-inf,0.3251463942,2.93133338e-07,-16.12668978,0.1561944186,-173.0837696,-173.0837696,1.370214234,-0.1550578341,-0.01880862833,36.57996292,36.55280122,-1.409400829,inf,-inf,0.03855794309,9.310795224e-06,-16.24068485,0.15415789,-172.471103,-172.471103,1.364507485,-0.1528288801,-0.02019872386,36.74794469,36.71652192,-1.519360861,inf,-inf,0.04138084933,2.251188206e-05,
8000,-12.93559571,0.2255382543,-71.05459533,-71.05459533,1.582438721,0.07322484018,-0.2133204794,57.52942799,52.47201409,-23.58649662,8.434643011e-07,-0.0004692384409,0.4495062183,-2.297973033e-05,-26.26931919,0.04858856135,-103.9817795,-103.9817795,1.102139956,-0.01173964372,-0.0471490091,48.84220194,48.62546887,-4.596136129,4.328498401e-06,-9.143722301e-05,0.09452116835,2.93133338e-07,-20.05639755,0.09935280264,87.32364425,-272.6763558,1.220625352,0.004639203096,0.09924443152,50.4615156,49.47713221,9.918565676,-2.005770646e-06,0.0001973235945,0.2004676753,9.310795224e-06,-19.12015627,0.1106603875,70.45345002,-289.54655,1.248859684,0.03702393337,0.1042830269,53.80174907,52.64104335,11.11524892,-1.789826573e-06,0.0002211308513,0.2111517595,2.251188206e-05,
16000,-14.36089738,0.1914058166,152.7714759,152.7714759,1.473428626,-0.1701958895,0.08757594302,35.55326452,34.97982021,6.359779554,-1.564076845e-06,6.326189706e-05,0.1818128142,-2.297973033e-05,-30.37759816,0.03027750552,-77.74468216,-77.74468216,1.062445711,0.006426956795,-0.02958752383,50.64628352,50.55768008,-2.994498267,3.321819903e-06,-2.978682508e-05,0.05922934483,2.93133338e-07,-33.72444849,0.02059574829,108.3049775,-251.6950225,1.042057707,-0.006468608306,0.01955356628,49.35754064,49.31980899,1.929574804,-5.155117034e-06,1.919383551e-05,0.03912372825,9.310795224e-06,-14.14435827,0.1962375379,-32.00363032,-392.0036303,1.488297344,0.1664122811,-0.104000596,69.70055901,68.12468463,-14.7375463,6.749552294e-07,-0.0001465970839,0.2163319563,2.251188206e-05,
24000,-7.111514316,0.4409854741,127.3383461,127.3383461,2.577724562,-0.2674667956,0.3506133221,30.87740859,23.2893195,20.27367649,-3.27096862e-07,0.0001344439929,0.8705139064,-6.319276446e-06,-21.27548306,0.08634274407,-77.13704312,-77.13704312,1.18900467,0.01922160981,-0.08417600115,51.9457698,51.2142824,-8.686787594,7.633956616e-07,-5.760604938e-05,0.1696165051,9.869241717e-06,-22.70100274,0.0732739937,120.8152046,-239.1847954,1.158135184,-0.03753612657,0.06292946333,46.39596146,46.0289186,5.824422068,-1.138560339e-06,3.862439845e-05,0.1265383208,1.083148803e-05,-6.696561122,0.4625641215,-49.36705508,-409.3670551,2.721374177,0.3012267001,-0.3510385187,86.17384424,64.26972976,-57.4049934,1.155205422e-07,-0.0003806786857,0.8931886537,1.470224395e-05,
32000,-6.693117103,0.4627475679,98.16439685,98.16439685,2.722644851,-0.06571657157,0.4580574678,44.85094615,29.20195868,34.04192973,-1.461019399e-07,0.0001693106684,1.165741315,9.919852319e-06,-20.75407163,0.0916846051,-150.422094,-150.422094,1.201878347,-0.0797367565,-0.04525612085,42.62923761,42.45274728,-3.875067399,1.283485282e-06,-1.92730041e-05,0.09127954365,2.004961381e-05,-21.02118826,0.08890794808,36.09499903,-323.905001,1.195167871,0.07184129465,0.05237796879,57.71726639,57.3981765,6.060707403,-8.206289531e-07,3.014348568e-05,0.1055905914,2.097662795e-05,-6.194053268,0.4901142577,-76.73195205,-436.7319521,2.922447392,0.1124846482,-0.4770316442,60.06628188,37.41903401,-46.98695683,1.058504808e-07,-0.0002336939513,1.255696682,8.342371122e-06,
40000,-7.268648728,0.4330794371,47.24652502,47.24652502,2.527831112,0.2939939321,0.3180021489,86.04309104,67.7520798,53.03837477,-7.501876886e-08,0.0002110329879,0.7828302086,7.628346136e-06,-13.50697349,0.2111792901,150.2398457,-209.7601543,1.53543039,-0.1833270348,0.1048231411,34.6548784,33.84952317,7.427676489,-5.35682132e-07,2.955378572e-05,0.219432234,2.519570848e-05,-14.36545049,0.1913055086,-32.54479415,-392.5447941,1.473121829,0.1612650197,-0.1029144841,68.9811525,67.45873842,-14.41242556,2.76072446e-07,-5.734521925e-05,0.2136480151,2.626747185e-05,-6.362882784,0.4806797878,-118.8947019,-478.8947019,2.851188444,-0.23226516,-0.4208395821,33.6180834,22.67499644,-24.81975156,1.603107737e-07,-9.875465369e-05,1.09458679,6.940024383e-06,
48000,-13.08352403,0.2217296638,49.97151309,49.97151309,1.569801144,0.1426095131,0.1697838937,66.08139684,62.23196267,22.22462217,-1.491916468e-07,7.36908016e-05,0.3571255223,6.620203841e-06,-10.3231828,0.3046778342,59.85243463,-300.1475654,1.876364509,0.1530179797,0.2634655206,66.66957638,57.64996967,33.48601815,-9.901828179e-08,0.0001110305273,0.580850577,2.452077924e-05,-10.40650474,0.3017690967,-117.0784656,-477.0784656,1.864381955,-0.1373683986,-0.2686903624,38.65525306,33.27480197,-19.67272587,1.685444103e-07,-6.522940763e-05,0.5912199233,2.447515065e-05,-13.31720654,0.2158438471,-117.369951,-477.369951,1.550512411,-0.09923077764,-0.1916815565,41.26739303,38.2880744,-15.39548916,2.153700962e-07,-5.104725419e-05,0.4020961984,6.55887235e-06,
56000,-10.08340279,0.3132058468,41.58660367,41.58660367,1.912080702,0.2342633475,0.2078908042,78.8733062,71.62828342,33.02101522,-8.606799448e-08,9.384746067e-05,0.4610052571,4.689481734e-06,-10.6277457,0.2941797097,-5.092509549,-365.0925095,1.833582468,0.2930184877,-0.02611259147,91.40273495,91.25371357,-5.217251727,5.447413128e-07,-1.48277036e-05,0.05717303464,2.364689474e-05,-10.73022282,0.2907293376,179.1503423,-540.8496577,1.819798007,-0.2906973713,0.004311161692,27.47784993,27.47663128,0.2587859031,-1.098225414e-05,7.354831371e-07,0.009418399963,2.316730905e-05,-10.05038441,0.3143987276,-128.9844067,-488.9844067,1.917147445,-0.1977910264,-0.2443875402,34.29981417,30.1504345,-16.35324285,1.737913747e-07,-4.647677562e-05,0.5423882978,4.935302562e-06,
64000,-11.64523302,0.2616606097,5.663422217,5.663422217,1.70878139,0.2603833849,0.02582184208,85.17117202,85.04058494,4.714600222,-5.274669895e-07,1.172424891e-05,0.05543941432,4.061567068e-06,-9.632779716,0.3298838194,-65.85513738,-425.8551374,1.984557093,0.1349373549,-0.3010236611,64.09688158,53.11270795,-35.88106021,6.930664732e-08,-8.922887651e-05,0.6755645042,2.053805787e-05,-9.77582544,0.324495537,117.8052614,-602.1947386,1.960750238,-0.1513667414,0.28702868,37.74884985,31.77141521,20.38511321,-1.219907861e-07,5.069361769e-05,0.6416180417,2.039506243e-05,-12.05671838,0.2495537389,-166.1348615,-526.1348615,1.665080904,-0.2422823589,-0.05980240101,30.55644898,30.31088698,-3.866096813,6.432316897e-07,-9.614194036e-06,0.1275481254,3.923050367e-06,
72000,-16.77553061,0.1449517522,1.872033488,1.872033488,1.339049294,0.1448743886,0.004735187461,66.94143019,66.93829826,0.6475361704,-3.413686249e-06,1.431369199e-06,0.009673627614,3.651704836e-06,-9.81502532,0.3230343711,-127.4216525,-487.4216525,1.954359741,-0.1963002383,-0.2565490623,34.47704798,29.91575501,-17.13809907,1.289807762e-07,-3.788351643e-05,0.5728787079,1.960854671e-05,-10.03616136,0.3149139738,56.40409199,-663.595908,1.919341402,0.1742519984,0.2623109833,69.43555392,60.00193243,34.9437298,-6.325842528e-08,7.724260178e-05,0.5823767401,1.956903945e-05,-17.92376486,0.12700235,-165.5806036,-525.5806036,1.290956912,-0.1230016384,-0.03162584178,39.05696101,38.97649858,-2.505745824,8.821666186e-07,-5.538914362e-06,0.06428863329,3.222465854e-06,
80000,-16.68065402,0.1465437495,11.34223239,11.34223239,1.343412446,0.1436817444,0.02882059749,66.76241023,66.64687997,3.925915107,-5.067447294e-07,7.810359943e-06,0.05890620999,2.202814554e-06,-11.13419531,0.2775174106,-174.7310273,-534.7310273,1.768232798,-0.2763447812,-0.02548480152,28.36065679,28.31751199,-1.563767313,1.272207682e-06,-3.111016221e-06,0.05522262385,1.874616434e-05,-11.45588001,0.2674274602,10.60576057,-709.3942394,1.730105063,0.2628589566,0.04922007083,85.53382277,85.05710403,9.017975984,-2.206079049e-07,1.794069318e-05,0.1060226078,1.869808006e-05,-17.14893492,0.1388523563,-155.5637779,-515.5637779,1.322482114,-0.1264142838,-0.05744045345,38.81058893,38.54702601,-4.515373606,4.405918452e-07,-8.983050366e-06,0.1171393509,1.690828007e-06,
88000,-16.65235037,0.1470220525,-13.83735106,-13.83735106,1.344726503,0.1427552629,-0.03516274799,66.62831972,66.45686224,-4.77686607,3.786120172e-07,-8.639339177e-06,0.07187919966,1.697434162e-06,-10.489039,0.2989152345,126.9823628,-593.0176372,1.852722093,-0.1798181844,0.2387796849,35.48249341,31.42367322,16.47908067,-1.097499876e-07,2.980371757e-05,0.5244161163,1.788389387e-05,-10.84829944,0.2868038837,-49.04407532,-769.0440753,1.80427775,0.1879937128,-0.2165983187,71.84557128,64.97124166,-30.66796161,5.897290866e-08,-5.546542823e-05,0.4720236342,1.788658125e-05,-17.29589639,0.1365227979,179.3265432,-540.6734568,1.316216335,-0.1365133672,0.001604657283,37.9884341,37.98823096,0.1242316718,-1.455811447e-05,2.246827802e-07,0.003270267361,1.332355447e-06,
96000,-20.21619344,0.09754170172,-18.20241508,-18.20241508,1.216168884,0.09266060624,-0.03046958523,60.20181359,60.08819602,-3.696898531,4.484472529e-07,-6.128954951e-06,0.06152453853,2.038728135e-06,-10.87932665,0.2857812079,76.99808853,-643.0019115,1.80026236,0.06429607371,0.2784545092,56.34371741,48.17697907,29.216317,-5.674445519e-08,4.843667988e-05,0.6064372976,1.752558907e-05,-11.30530039,0.2721040341,-98.72300786,-818.7230079,1.747645397,-0.04126668572,-0.2689566248,46.29469633,40.03027101,-23.25459765,7.129188024e-08,-3.855296006e-05,0.5809253114,1.756530672e-05,-21.1693236,0.08740450545,177.0636418,-542.9363582,1.191551473,-0.08728974782,0.004477443308,41.97195355,41.97024478,0.3787321253,-4.377405242e-06,6.278863526e-07,0.009023824553,1.786790763e-06,
104000,-20.19530005,0.09777661484,-7.798694701,-7.798694701,1.216745911,0.09687227229,-0.01326760234,60.72419911,60.70241766,-1.626298928,9.409930519e-07,-2.488783782e-06,0.02679133699,1.534250085e-06,-11.27461885,0.2730668985,29.18571786,-690.8142821,1.75128481,0.2383993242,0.1331589023,80.54914942,77.40763966,22.2760588,-6.8698687e-08,3.408985453e-05,0.2877759728,1.656354091e-05,-11.71811348,0.2594742863,-146.4982938,-866.4982938,1.700784001,-0.2163676638,-0.1432198985,32.52089714,31.08781337,-9.547597115,1.602849359e-07,-1.46110315e-05,0.3071170365,1.654853658e-05,-20.73185121,0.09191945479,-171.0802319,-531.0802319,1.202447801,-0.09080782034,-0.01425222561,41.67673981,41.65952944,-1.197600777,1.277834835e-06,-1.832731572e-06,0.02874734287,1.29601774e-06,
112000,-19.73341562,0.1031167505,-21.03478092,-21.03478092,1.229944646,0.09624532973,-0.03701217018,60.63322915,60.46422542,-4.523927616,3.141133984e-07,-6.42862002e-06,0.07481990523,8.537318465e-07,-11.61022641,0.2627173045,-18.2011874,-738.2011874,1.712663693,0.2495723961,-0.08206096003,82.94226279,81.68270711,-14.39980261,9.868373314e-08,-2.046249789e-05,0.1762894879,1.621872484e-05,-12.08497552,0.2487432039,166.3924531,-913.6075469,1.662205534,-0.2417609871,0.05852184759,30.58764593,30.35232818,3.786853309,-3.75252528e-07,5.381218062e-06,0.1247631907,1.618077464e-05,-20.34183436,0.09614092183,173.9098227,-546.0901773,1.212734317,-0.09559831663,0.01019993675,41.27516406,41.26641741,0.8496833837,-1.67241858e-06,1.207422416e-06,0.02059019021,4.210285232e-07,
120000,-22.45844993,0.07534900188,-34.51436936,-34.51436936,1.162978252,0.06208638042,-0.04269371676,56.60673749,56.3991613,-4.843277208,2.738416852e-07,-6.423595903e-06,0.08587498637,1.541595038e-07,-12.15820279,0.2466549643,-63.93298833,-783.9329883,1.654826016,0.1083856308,-0.2215653999,61.51493623,55.63307609,-26.24972809,5.052590214e-08,-3.481478316e-05,0.4718367189,1.596742398e-05,-12.3914839,0.2401186012,120.0992674,-959.9007326,1.631989681,-0.1204194005,0.2077404887,39.65632148,36.28595095,15.99854984,-8.290071325e-08,2.121873574e-05,0.4409020411,1.588808452e-05,-23.60594618,0.06602413055,162.2407973,-557.7592027,1.141382947,-0.06287787082,0.02013849982,44.08645203,44.0504231,1.781986888,-7.442766283e-07,2.363433514e-06,0.04045334329,-1.354785328e-07,
128000,-25.18346912,0.05505877496,-17.13831634,-17.13831634,1.116533756,0.05261395407,-0.01622468911,55.55204486,55.52264299,-1.807153571,6.880422409e-07,-2.247011124e-06,0.0325480466,-1.596767958e-07,-12.3999922,0.2398835073,-109.992196,-829.992196,1.631175641,-0.08201428778,-0.2254279345,42.76233393,38.57551516,-18.45391106,6.737856213e-08,-2.294555597e-05,0.4783840471,1.576487824e-05,-12.87399576,0.2271434469,74.97505673,-1005.024943,1.587802344,0.05888456017,0.2193781075,55.95153088,50.78070458,23.49242113,-5.292762233e-08,2.921042928e-05,0.4626249542,1.565838188e-05,-25.86140349,0.05092485786,-175.6596835,-535.6596835,1.107314702,-0.05077881186,-0.003854012724,45.16757555,45.16622684,-0.3490476254,3.562258851e-06,-4.340051168e-07,0.007728066961,-2.816537916e-07,
136000,-22.80068743,0.07243786283,-11.96682385,-11.96682385,1.156189779,0.07086363048,-0.01501964867,57.62496711,57.59871084,-1.739351604,6.728121744e-07,-2.035488276e-06,0.03019775232,8.905568064e-07,-12.64805795,0.2331294304,-154.8496832,-874.8496832,1.608002027,-0.2110278093,-0.09907873142,32.72100919,32.02545036,-6.710810027,1.743838567e-07,-7.853371971e-06,0.2095461563,1.559666765e-05,-13.13973784,0.2202992953,30.42198725,-1049.578013,1.565086818,0.1899683595,0.1115517902,73.08424355,71.15429628,16.68450708,-7.014033613e-08,1.952516011e-05,0.234483481,1.546479971e-05,-23.09093281,0.0700572942,-174.3445879,-534.3445879,1.15067013,-0.06971629452,-0.006903821403,43.48302222,43.4788368,-0.6033012655,1.939755478e-06,-7.060174896e-07,0.0138757453,7.960797687e-07,
144000,-22.61170523,0.0740311914,-30.00920782,-30.00920782,1.159899968,0.06410694294,-0.0370258986,56.83975468,56.68283927,-4.220597599,2.618687602e-07,-4.664784518e-06,0.07445988333,8.317735689e-07,-12.95116966,0.2251342227,160.2429134,-919.7570866,1.581092182,-0.2118815195,0.07610282467,32.60334002,32.19219286,5.161443542,-2.141344086e-07,5.704647592e-06,0.1603321515,1.532189296e-05,-13.46425081,0.2122205615,-14.24960589,-1094.249606,1.538781672,0.2056910872,-0.05223737522,75.80305613,75.35345275,-8.243814517,1.340693265e-07,-9.111415489e-06,0.109401948,1.519906774e-05,-23.34625214,0.06802795144,166.2583299,-553.7416701,1.145987107,-0.0660807612,0.01615967745,43.80304849,43.77997648,1.421519107,-7.775081287e-07,1.571123559e-06,0.03246961787,3.385194468e-07,
152000,-25.97194948,0.05028084016,-40.90294164,-40.90294164,1.105885702,0.03800325722,-0.03292286938,53.94600339,53.82884678,-3.553383716,2.946689909e-07,-3.720648573e-06,0.06601262944,-5.659557377e-07,-13.28690452,0.2165981656,116.3574429,-963.6425571,1.552968237,-0.0961630347,0.194081004,41.52127858,38.45439917,15.66128218,-6.685736086e-08,1.639848996e-05,0.4072689344,1.521828171e-05,-13.80425306,0.204073845,-57.98151704,-1137.981517,1.512795926,0.1081984847,-0.1730295411,61.73411382,58.06451595,-20.96694532,4.993917703e-08,-2.195390124e-05,0.3610973927,1.514923545e-05,-27.40772882,0.04262001115,159.8182419,-560.1817581,1.089034681,-0.04000326656,0.01470387753,46.15434489,46.13432771,1.359175905,-7.70372687e-07,1.423155025e-06,0.02946127044,-1.049792834e-06,
160000,-28.42331959,0.03791700452,-14.64779684,-14.64779684,1.078822731,0.03668464706,-0.009588321111,53.80780203,53.79788253,-1.033148102,9.628032928e-07,-1.027691421e-06,0.01920425216,-9.896288552e-07,-13.91340673,0.2015253404,73.76898234,-1006.231018,1.504775795,0.0563285353,0.1934930462,55.74062886,51.6936237,20.85154608,-4.770477884e-08,2.074141644e-05,0.4033678544,1.518110379e-05,-14.46788195,0.1890627203,-99.6897666,-1179.689767,1.46628198,-0.03182177485,-0.1863654659,47.01648825,43.85417423,-16.95174238,5.867941904e-08,-1.686220996e-05,0.386547978,1.51542875e-05,-28.27927768,0.03855104155,-167.6157785,-527.6157785,1.080193631,-0.03765401188,-0.008267901427,46.3714757,46.36511838,-0.767825586,1.295500453e-06,-7.637702341e-07,0.01656041466,-1.02310153e-06,
168000,-25.11757846,0.05547803588,-11.49776672,-11.49776672,1.117473257,0.054364729,-0.01105842239,55.74827107,55.73455704,-1.236478195,7.661686681e-07,-1.171378671e-06,0.02218512644,6.459975054e-07,-13.77509128,0.2047601486,29.2440258,-1050.755974,1.514964506,0.1786628433,0.1000315295,71.48242226,69.97311112,14.61165334,-6.483529482e-08,1.384236223e-05,0.2088181174,1.517295138e-05,-14.27903589,0.1932182772,-145.0069229,-1225.006923,1.478985262,-0.1582885365,-0.110806326,36.48121118,35.551345,-8.184169943,1.157540543e-07,-7.753280366e-06,0.2302070412,1.517648541e-05,-24.78390623,0.05765071374,-172.2905169,-532.2905169,1.122355298,-0.05712960952,-0.0077338549,44.59608678,44.5907173,-0.6920162636,1.368971947e-06,-6.555821967e-07,0.01551928979,8.54318083e-07,
176000,-24.75050537,0.0578728315,-30.46113977,-30.46113977,1.122855668,0.04988482944,-0.02933885507,55.24563397,55.15013448,-3.246958529,2.785035415e-07,-2.93619034e-06,0.05887489776,1.071355752e-06,-14.02566527,0.1989375368,-14.80827266,-1094.808273,1.496684206,0.1923301241,-0.05084552002,73.73408207,73.32421333,-7.7636717,1.164770336e-07,-7.020606407e-06,0.1058814183,1.511734118e-05,-14.5163524,0.1880106194,171.0413571,-1268.958643,1.463086399,-0.1857170779,0.02927729441,34.34886887,34.28576371,2.081153392,-4.345135984e-07,1.881965055e-06,0.06070021976,1.513341541e-05,-25.05303556,0.05589181615,167.0453713,-552.9546287,1.118401296,-0.05446925168,0.01252979385,44.83521032,44.82105079,1.126716798,-8.025880604e-07,1.018878113e-06,0.02513811653,8.152919184e-07,
184000,-28.07881942,0.03945109203,-42.29863425,-42.29863425,1.082142808,0.02917988728,-0.02655038306,53.00351182,52.92871054,-2.814936214,3.072796153e-07,-2.434842461e-06,0.05318354037,-8.862307267e-07,-14.29864405,0.1927825843,-57.84442955,-1137.84443,1.477647237,0.1026027359,-0.1632109169,61.10045635,57.86547891,-19.61764808,4.409155029e-08,-1.696872643e-05,0.3390216144,1.482290044e-05,-14.7746707,0.1825015112,128.1115311,-1311.888469,1.446487703,-0.1126388812,0.1435941643,40.06289126,38.40398278,11.40917889,-7.581373958e-08,9.868626175e-06,0.2970832205,1.460903112e-05,-29.12682344,0.03496703657,160.1854866,-559.8145134,1.072468067,-0.03289681088,0.01185299459,46.81552584,46.80234463,1.11085411,-7.786553689e-07,9.608582753e-07,0.02373500983,-1.319530658e-06,
192000,-30.76323963,0.02896263149,-14.6748859,-14.6748859,1.05965297,0.02801783825,-0.007337217661,52.88238678,52.87668431,-0.7765869115,1.067404025e-06,-6.43737738e-07,0.01468675507,-1.525911662e-06,-14.5030571,0.1882986235,-100.3765029,-1180.376503,1.46396034,-0.0339155509,-0.1852190784,46.82515908,43.71225323,-16.78792544,4.937667839e-08,-1.391604853e-05,0.3840553667,1.486556462e-05,-14.96987613,0.1784457436,85.82982445,-1354.170176,1.434410125,0.012976405,0.1779733023,51.27381599,48.12439958,17.69311647,-4.685053628e-08,1.466639034e-05,0.3676537604,1.473124646e-05,-30.07537813,0.0313495343,-165.5939839,-525.5939839,1.06472827,-0.03036381224,-0.007799500422,47.05327209,47.04753716,-0.7346165481,1.128387316e-06,-6.08947161e-07,0.01561434652,-1.495763364e-06,
