Frequency,S11_Magnitude,S11_Magnitude (linear),S11_Phase,S11_Unwrapped Phase,S11_VSWR,S11_Real,S11_Imaginary,S11_Impedance (absolute),S11_Resistance,S11_Reactance,S11_Capacitance,S11_Inductance,S11_Quality Factor,S11_Group delay,S12_Magnitude,S12_Magnitude (linear),S12_Phase,S12_Unwrapped Phase,S12_VSWR,S12_Real,S12_Imaginary,S12_Impedance (absolute),S12_Resistance,S12_Reactance,S12_Capacitance,S12_Inductance,S12_Quality Factor,S12_Group delay,S21_Magnitude,S21_Magnitude (linear),S21_Phase,S21_Unwrapped Phase,S21_VSWR,S21_Real,S21_Imaginary,S21_Impedance (absolute),S21_Resistance,S21_Reactance,S21_Capacitance,S21_Inductance,S21_Quality Factor,S21_Group delay,S22_Magnitude,S22_Magnitude (linear),S22_Phase,S22_Unwrapped Phase,S22_VSWR,S22_Real,S22_Imaginary,S22_Impedance (absolute),S22_Resistance,S22_Reactance,S22_Capacitance,S22_Inductance,S22_Quality Factor,S22_Group delay,
0,-13.5026832,0.2112836252,-134.1824363,-134.1824363,1.535765788,-0.1472531307,-0.1515166188,37.42186652,35.67043824,-11.31441247,inf,-inf,0.3171929763,-2.217486226e-05,-13.71704456,0.2061331177,-133.2476304,-133.2476304,1.519314062,-0.1412326964,-0.15014722,37.86895384,36.13361325,-11.33223979,inf,-inf,0.313620443,3.660238498e-06,-16.30948054,0.1529417211,-173.8527457,-173.8527457,1.361112629,-0.152062301,-0.01637762775,36.80400634,36.78332305,-1.233704947,inf,-inf,0.03353979045,1.533238629e-05,-16.44447686,0.1505830734,-173.2572895,-173.2572895,1.354556328,-0.1495415509,-0.01768011719,36.99481817,36.97062809,-1.33762098,inf,-inf,0.03618063986,2.272996924e-05,
8000,-11.85278652,0.2554822156,-45.48695606,-45.48695606,1.686302519,0.1791113319,-0.1821820333,70.9452292,66.10075824,-25.76655401,7.721004476e-07,-0.0005126093047,0.3898072382,-2.217486226e-05,-23.51454284,0.06672258417,48.81416554,48.81416554,1.142985533,0.04393704964,0.05021393141,54.5835116,54.30788813,5.478414511,-3.631409753e-06,0.0001089895937,0.1008769573,3.660238498e-06,-19.81066129,0.1022037746,-66.61882577,-66.61882577,1.227676998,0.04055919193,-0.09381131854,54.18889246,53.24036351,-10.09454106,1.970804594e-06,-0.0002008245134,0.189603158,1.533238629e-05,-15.90363753,0.1602574115,89.09615033,-270.9038497,1.381682229,0.002527980274,0.1602374714,50.2470786,47.73134852,15.69991323,-1.267164193e-06,0.0003123398497,0.3289224738,2.272996924e-05,
16000,-12.83221015,0.228238809,160.4029042,160.4029042,1.591475217,-0.2150179516,0.0765521679,32.39232576,31.97788915,5.165014333,-1.925877316e-06,5.137734764e-05,0.1615183012,-2.217486226e-05,-29.49681693,0.03350882145,97.44862082,97.44862082,1.069341184,-0.004343985622,0.0332260576,49.56795521,49.45862862,3.290324999,-3.023161525e-06,3.2729468e-05,0.06652681425,3.660238498e-06,-30.50855609,0.02982443296,-91.94754433,-91.94754433,1.061482548,-0.00101356891,-0.02980720516,49.89883553,49.81024687,-2.972052126,3.346907632e-06,-2.956354918e-05,0.05966748435,1.533238629e-05,-14.28876533,0.1930019662,-23.91018593,-383.9101859,1.478320784,0.1764389071,-0.07822449101,71.26088873,70.33823117,-11.43011364,8.702611588e-07,-0.0001136974429,0.1625021479,2.272996924e-05,
24000,-7.163351148,0.4383615386,119.3775382,119.3775382,2.561009684,-0.2150435883,0.3819909602,34.26966466,24.89875635,23.54701357,-2.816262004e-07,0.0001561509835,0.9457104297,-5.886844495e-06,-21.26211193,0.08647576318,-38.39108672,-38.39108672,1.189323413,0.06777884511,-0.05370368491,57.24815563,56.91585949,-6.159241935,1.076667556e-06,-4.084474165e-05,0.1082166199,2.531832672e-05,-20.76468556,0.09157263732,137.8125829,-222.1874171,1.201606955,-0.06785093768,0.06149632641,43.66855526,43.33648076,5.375142245,-1.233726599e-06,3.564501909e-05,0.1240327353,2.858799533e-05,-6.755627633,0.4594292255,-50.42098777,-410.4209878,2.69979306,0.2927215194,-0.3541035517,84.72786903,63.05020897,-56.59931924,1.171649421e-07,-0.000375335893,0.8976864655,1.530529115e-05,
32000,-6.39158822,0.4790938423,102.7033331,102.7033331,2.839463156,-0.1053541515,0.4673664649,42.05348339,26.7479556,32.45061381,-1.532664991e-07,0.0001613961123,1.213199779,1.013378009e-05,-20.16211125,0.09815093423,-142.3524387,-142.3524387,1.217665989,-0.07771423014,-0.05995084924,42.81308912,42.50273109,-5.145721501,9.66549e-07,-2.559271915e-05,0.1210680201,3.204006234e-05,-20.09168933,0.09894993959,43.14518728,-316.8548127,1.219632502,0.07219616901,0.06766685839,57.74299276,57.21113571,7.819153678,-6.360780433e-07,3.888927996e-05,0.1366718836,3.070462837e-05,-6.136403578,0.4933780465,-70.81027755,-430.8102775,2.947716806,0.1621720032,-0.4659636662,65.30319838,41.15962918,-50.69903988,9.810031874e-08,-0.0002521563377,1.231766196,9.044541867e-06,
40000,-7.173736611,0.4378377158,68.13339022,68.13339022,2.557691535,0.1630713458,0.406336808,66.21178121,46.69225162,46.94500623,-8.475605601e-08,0.0001867882449,1.005413202,7.058240515e-06,-15.12704438,0.1752458657,164.1307905,-195.8692095,1.42496511,-0.1685669645,0.04791964019,35.60401318,35.43123879,3.503294503,-1.135751954e-06,1.393916593e-05,0.09887586838,2.67561778e-05,-14.89317406,0.1800285141,-5.832324277,-365.8323243,1.439109206,0.1790966034,-0.01829405798,71.807828,71.75654494,-2.713378092,1.466391134e-06,-1.07961884e-05,0.03781366696,2.630612869e-05,-7.02166353,0.445570904,-107.8499964,-467.8499964,2.607314289,-0.1365790749,-0.4241221367,39.64793281,27.22943381,-28.81868337,1.380657654e-07,-0.0001146658978,1.058365134,6.763815169e-06,
48000,-13.6190992,0.2084707075,40.09854486,40.09854486,1.526754245,0.1594671159,0.1342768589,68.56373684,66.01144905,18.53306785,-1.789087488e-07,6.145061164e-05,0.2807553555,6.757916002e-06,-10.02183225,0.3154339161,74.81078455,-285.1892155,1.921558703,0.08264606215,0.3044144934,58.17788198,48.19606324,32.58535622,-1.017551552e-07,0.0001080441774,0.6760999558,2.389794712e-05,-10.07549898,0.3134909813,-102.2717392,-462.2717392,1.913290205,-0.06663201847,-0.306327879,44.26007183,36.60956777,-24.87355033,1.333033659e-07,-8.247392681e-05,0.6794275881,2.424652836e-05,-13.61385205,0.2085966826,-125.4370845,-485.4370845,1.527156452,-0.1209461588,-0.1699547076,39.48520271,37.20568627,-13.22188118,2.507758115e-07,-4.384016138e-05,0.3553725922,6.281613981e-06,
56000,-10.92117712,0.2844075649,49.04126889,49.04126889,1.794887008,0.1864334983,0.2147794536,71.64610695,64.90716873,30.33519554,-9.368828862e-08,8.621422e-05,0.4673627912,5.833933555e-06,-10.66573516,0.2928958659,7.738341372,-352.2616586,1.828437713,0.290228556,0.03943822468,90.79282505,90.45677343,7.804435971,-3.6415861e-07,2.218061719e-05,0.08627807156,2.315876953e-05,-10.77765136,0.2891461621,-168.287207,-528.287207,1.813517904,-0.2831254184,-0.05869838585,27.99891001,27.77194823,-3.557787695,7.988257869e-07,-1.011141961e-05,0.1281072421,2.356170571e-05,-10.56424512,0.2963382718,-120.5065227,-480.5065227,1.842274803,-0.1504321083,-0.2553165723,37.63942553,32.8435364,-18.38555061,1.545807692e-07,-5.22527011e-05,0.5597920513,5.374099248e-06,
64000,-11.10462912,0.2784636708,14.93540336,14.93540336,1.771863202,0.2690563357,0.07176840646,86.53205005,85.5031334,13.30450544,-1.869138239e-07,3.308559071e-05,0.1556025482,3.99142587e-06,-9.840272158,0.3220967866,-48.28665263,-408.2866526,1.950273668,0.2143245772,-0.2404398377,75.33074956,66.37960276,-35.61558881,6.982324507e-08,-8.856870329e-05,0.5365441692,2.010051421e-05,-10.00567291,0.3160212995,135.2226203,-584.7773797,1.924067663,-0.2243273622,0.2225908721,32.42448733,29.06414205,14.37438783,-1.730018708e-07,3.574616994e-05,0.4945746481,2.052518751e-05,-11.15727589,0.2767809564,-154.9372557,-514.9372557,1.765413906,-0.2507204896,-0.1172473196,30.18607736,29.25740871,-7.429892455,3.34701478e-07,-1.847662673e-05,0.2539490947,3.56568087e-06,
72000,-16.11326341,0.1564360457,-3.29368222,-3.29368222,1.370893149,0.156177638,-0.008987867711,68.50653898,68.4949115,-1.26213364,1.751387691e-06,-2.789927883e-06,0.01842667743,3.756531389e-06,-9.683571286,0.3279604213,-107.8067722,-467.8067722,1.976015198,-0.1002928685,-0.3122489047,41.63315054,34.11100443,-23.86961668,9.260665348e-08,-5.276343728e-05,0.6997629381,1.887265592e-05,-9.927367452,0.3188831911,76.13193381,-643.8680662,1.936353903,0.07643214784,0.3095878168,57.49389219,47.33834834,32.6286441,-6.774677224e-08,7.212513883e-05,0.6892645234,1.90971193e-05,-16.63340981,0.1473430004,-170.48694,-530.48694,1.34560908,-0.1453167328,-0.0243517337,37.31879951,37.27263844,-1.855591549,1.191256407e-06,-4.10175788e-06,0.04978428216,3.273198252e-06,
80000,-16.18500272,0.1551493156,8.789487895,8.789487895,1.367282216,0.1533273093,0.02370751711,68.09709343,68.01686532,3.304567259,-6.020264175e-07,6.574227677e-06,0.04858452744,2.144583525e-06,-9.655344168,0.32902795,-156.8640633,-516.8640633,1.980750092,-0.3025659553,-0.1292796759,27.09447531,26.02267815,-7.545251089,2.636674068e-07,-1.50108001e-05,0.2899490608,1.810623897e-05,-9.1208626,0.3499104155,19.95599028,-700.0440097,2.076499067,0.3289000636,0.1194238128,97.87054174,94.43526632,25.7025955,-7.740217474e-08,5.113368906e-05,0.2721715785,1.805587728e-05,-16.64981212,0.1470650226,-151.7926804,-511.7926804,1.344844628,-0.1296000329,-0.06951224597,38.57660467,38.1929399,-5.427132748,3.665723469e-07,-1.079693755e-05,0.1420978003,1.912374602e-06,
88000,-16.4628125,0.1502655326,-1.97982538,-1.97982538,1.353676445,0.1501758321,-0.005191312838,67.67082718,67.66700961,-0.7187913462,2.516138944e-06,-1.299990861e-06,0.01062247837,1.019902539e-06,-10.39443467,0.302188732,150.2608015,-569.7391985,1.866104478,-0.2623881632,0.149901573,29.60414955,28.11351846,9.275545849,-1.949835544e-07,1.67755565e-05,0.3299318747,1.715279409e-05,-10.75828946,0.2897914227,-25.65240988,-745.6524099,1.816074128,0.2612286845,-0.1254537487,84.57042353,81.56594232,-22.34174544,8.095065372e-08,-4.040680937e-05,0.2739102229,1.685605456e-05,-16.35115103,0.1522097415,-169.2128652,-529.2128652,1.359074051,-0.1495200889,-0.02848768895,37.00221102,36.93943037,-2.1545543,8.394213591e-07,-3.896681443e-06,0.05832667906,1.010519561e-06,
96000,-19.16594428,0.1100785717,-16.60352781,-16.60352781,1.247389417,0.1054888437,-0.03145466265,61.77972847,61.65484158,-3.92623988,4.222523435e-07,-6.509171715e-06,0.06368096616,1.125085951e-06,-10.73809737,0.2904658845,101.9497193,-618.0502807,1.818751003,-0.06014189804,0.2841713957,44.72978709,38.00383339,23.58945742,-7.027986957e-08,3.910811201e-05,0.6207125786,1.664897176e-05,-11.09957498,0.2786257504,-73.88984072,-793.8898407,1.772485989,0.07731446845,-0.2676841082,57.77231302,49.96556455,-29.00142256,5.716491965e-08,-4.808041414e-05,0.5804281974,1.608983133e-05,-19.38157992,0.1073794077,176.8875126,-543.1124874,1.240593615,-0.107221008,0.005830319374,40.31650616,40.31370121,0.4755669538,-3.486079042e-06,7.884253277e-07,0.0117966582,1.380086663e-06,
104000,-21.41959377,0.08492201916,-5.283770929,-5.283770929,1.185606082,0.0845611704,-0.007820345098,59.23660632,59.22925648,-0.9331158487,1.640027863e-06,-1.427980767e-06,0.0157543063,1.047379121e-06,-11.11494444,0.2781331652,55.78610164,-664.2138984,1.770594109,0.1563898253,0.2300006089,67.41986864,60.33664658,30.08201734,-5.087211985e-08,4.603559382e-05,0.4985695931,1.596078763e-05,-11.55369043,0.2644328943,-119.6723363,-839.6723363,1.718990537,-0.1309046528,-0.2297579759,38.94914741,34.91970625,-17.25254182,8.870205949e-08,-2.640218569e-05,0.4940632003,1.595958686e-05,-21.37334895,0.08537536089,-169.3785182,-529.3785182,1.186689396,-0.08391256604,-0.01573637528,42.26014475,42.2389222,-1.33913596,1.142778655e-06,-2.049327957e-06,0.03170383832,9.325606121e-07,
112000,-20.14395443,0.09835632163,-5.759777021,-5.759777021,1.218171156,0.09785976064,-0.009870828262,60.84632813,60.83424204,-1.212700333,1.171786829e-06,-1.72327904e-06,0.01993450222,1.134289807e-06,-11.44879361,0.2676457302,10.6280933,-709.3719067,1.73091874,0.2630542773,0.0493627804,85.56887794,85.08909783,9.048662968,-1.570426794e-07,1.285838785e-05,0.1063433883,1.559664914e-05,-11.92047954,0.2534988672,-164.7276176,-884.7276176,1.679165392,-0.2445464274,-0.0667736513,30.42512547,30.1199213,-4.298674256,3.305731472e-07,-6.108529076e-06,0.1427186417,1.555721709e-05,-19.87409057,0.1014601433,-171.5831019,-531.5831019,1.225833373,-0.100367337,-0.01485120679,40.88058911,40.86219134,-1.226329742,1.158763609e-06,-1.742646789e-06,0.03001135529,1.075139291e-06,
120000,-20.91762309,0.08997437645,-22.48396012,-22.48396012,1.197740314,0.0831351207,-0.03440843098,59.05555061,58.91393332,-4.08736079,3.244859606e-07,-5.421030617e-06,0.06937850794,4.337975269e-07,-11.79346165,0.257233139,-33.91372732,-753.9137273,1.692634937,0.2134722857,-0.1435216744,76.4169616,73.04408549,-22.45247416,5.907104861e-08,-2.977851873e-05,0.3073825075,1.53249145e-05,-12.14585441,0.247005873,149.9484277,-930.0515723,1.656063213,-0.2138021085,0.1236954312,32.6152198,31.53896049,8.309424413,-1.596128837e-07,1.102071641e-05,0.2634653865,1.5255929e-05,-20.89910592,0.09016639457,171.5935693,-548.4064307,1.198204142,-0.08919764059,0.0131817914,41.8120187,41.79725687,1.110957503,-1.193827116e-06,1.473453152e-06,0.026579675,3.998072009e-07,
128000,-24.54101325,0.05928561613,-24.33720644,-24.33720644,1.126043818,0.05401725069,-0.02443196489,55.7065615,55.63970725,-2.72836436,4.557301844e-07,-3.392442769e-06,0.04903628173,-6.103184826e-07,-12.16704939,0.2464038734,-77.79211381,-797.7921138,1.653941454,0.05210439698,-0.2408318929,55.1791329,49.09979956,-25.17829204,4.938373067e-08,-3.130663779e-05,0.5127982653,1.509512345e-05,-12.64108342,0.2333167021,107.2758512,-972.7241488,1.608639063,-0.06928863002,0.2227908643,43.8088299,39.62918127,18.67462367,-6.658222488e-08,2.321998959e-05,0.4712341531,1.498479928e-05,-24.64808923,0.0585592544,170.9194631,-549.0805369,1.124403484,-0.05782535911,0.009241975991,44.53400562,44.52634748,0.825854879,-1.505588966e-06,1.026866299e-06,0.018547555,-6.324455291e-07,
136000,-24.93924706,0.05662883761,-2.241740608,-2.241740608,1.120056325,0.05658549873,-0.002215080752,55.99791538,55.99736233,-0.248875459,4.70217891e-06,-2.912482317e-07,0.004444413963,-4.920066162e-07,-12.47627742,0.2377859166,-120.6825637,-840.6825637,1.623934723,-0.1213376882,-0.2044976957,39.57361529,36.30869521,-15.74006606,7.434892142e-08,-1.841992145e-05,0.4335067941,1.491005845e-05,-12.96720758,0.2247189108,64.6405517,-1015.359448,1.579709512,0.09624613891,0.2030646932,60.18090744,55.33184307,23.66703957,-4.944669699e-08,2.769651718e-05,0.4277291025,1.476514607e-05,-24.49351592,0.05961069756,-166.3870244,-526.3870244,1.126778766,-0.05793609737,-0.01403010639,44.52468978,44.5070462,-1.253330817,9.337175142e-07,-1.466719079e-06,0.02816027851,-3.862698884e-07,
144000,-22.76134398,0.07276672029,-7.092300628,-7.092300628,1.156954505,0.07220994853,-0.008984370639,57.78232464,57.77289912,-1.043632306,1.059034542e-06,-1.153466946e-06,0.01806439215,7.952359173e-07,-12.71961746,0.2312166619,-163.3572661,-883.3572661,1.601513197,-0.2215308175,-0.06622115705,31.93268423,31.62460565,-4.425001607,2.497722619e-07,-4.890700548e-06,0.1399227442,1.479416075e-05,-13.19991087,0.2187784074,22.14521086,-1057.854789,1.560093089,0.2026394463,0.08246966918,75.1897843,74.08637472,12.83404631,-8.611802027e-08,1.418473549e-05,0.1732308587,1.464404402e-05,-22.35486201,0.0762529938,-173.4855894,-533.4855894,1.165094974,-0.07576065508,-0.008651138924,42.95797314,42.95146905,-0.7475046314,1.478576338e-06,-8.261740074e-07,0.01740347066,9.094413001e-07,
152000,-23.5562486,0.06640297999,-24.02151775,-24.02151775,1.142251911,0.06065199326,-0.02703130527,56.45178105,56.36873463,-3.060937711,3.420755641e-07,-3.205022153e-06,0.05430204759,2.801153438e-07,-13.00840753,0.2236555212,154.1640071,-925.8359929,1.576175982,-0.2013000747,0.09746831319,33.38007523,32.69874221,6.709819699,-1.5605069e-07,7.025664291e-06,0.2052011559,1.461218465e-05,-13.50714608,0.2111750939,-20.10435552,-1100.104356,1.535416903,0.1983077995,-0.07258744348,74.56811121,73.72188034,-11.20212345,9.347084944e-08,-1.172942973e-05,0.1519511357,1.452250021e-05,-23.348939,0.06800691122,169.3583819,-550.6416181,1.14593866,-0.0668372925,0.01255851522,43.73593619,43.7220186,1.103269829,-9.490624747e-07,1.15520294e-06,0.02523373495,3.282775822e-07,
160000,-27.4924459,0.04220634117,-24.89871508,-24.89871508,1.08813243,0.03828340763,-0.01776952264,53.97942847,53.94525054,-1.920583982,5.179249664e-07,-1.910440215e-06,0.03560246663,-1.428724395e-06,-13.39828456,0.2138384373,111.748686,-968.251314,1.54400634,-0.07923486854,0.1986170005,42.91865021,39.62281206,16.49373517,-6.030886176e-08,1.640662177e-05,0.4162686673,1.448228534e-05,-14.19784357,0.1950328744,-61.22592912,-1141.225929,1.484573514,0.09388044975,-0.1709511136,60.0342916,56.56758124,-20.10534557,4.947531943e-08,-1.999915706e-05,0.3554216944,1.445310079e-05,-27.38969181,0.0427086073,169.9508053,-550.0491947,1.089228019,-0.0420533844,0.007452382033,45.96458878,45.95946539,0.6862667561,-1.44946318e-06,6.826421657e-07,0.01493200041,-1.343285454e-06,
168000,-27.79572189,0.04075809765,2.627805666,2.627805666,1.084979811,0.04071523796,0.001868668441,54.24431734,54.24393725,0.2030652038,-4.66525448e-06,1.923739938e-07,0.003743555761,-1.352138721e-06,-13.55130743,0.2101041488,71.34900133,-1008.650999,1.53197937,0.06719189225,0.1990703468,56.90841111,52.53343076,21.88163401,-4.329433767e-08,2.072958462e-05,0.4165277937,1.442809335e-05,-14.05835617,0.1981902071,-102.7978813,-1182.797881,1.494357163,-0.04390159611,-0.193266676,45.94001136,42.6197993,-17.14751736,5.52471143e-08,-1.624471518e-05,0.4023368868,1.445178959e-05,-26.94393366,0.04495762051,-162.8324189,-522.8324189,1.094147907,-0.04295455737,-0.01327002802,45.88215111,45.86593508,-1.21974983,7.766763545e-07,-1.155531041e-06,0.02659380711,-1.129005932e-06,
176000,-24.81885001,0.05741924789,0.1566689523,0.1566689523,1.121834119,0.05741903323,0.0001570063672,56.09168164,56.09167886,0.01767176473,-5.117142872e-05,1.59803904e-08,0.0003150514495,6.076090566e-07,-13.77191879,0.2048349502,29.50532784,-1050.494672,1.51520109,0.1782698855,0.1008821329,71.42054703,69.88751552,14.71834615,-6.143961013e-08,1.330964514e-05,0.2106005063,1.439379762e-05,-14.26985242,0.1934226723,-144.6326776,-1224.632678,1.479613462,-0.1577280743,-0.1119561734,36.52562323,35.57580375,-8.275466179,1.092735357e-07,-7.483416755e-06,0.2326150166,1.445451299e-05,-24.18266279,0.06178269668,-168.0468785,-528.0468785,1.131702318,-0.06044308615,-0.01279589566,44.30108776,44.28647633,-1.137713027,7.948308828e-07,-1.028821887e-06,0.02568985209,7.855966012e-07,
184000,-24.89563111,0.05691391286,-17.07841218,-17.07841218,1.120697174,0.05440422188,-0.01671448829,55.75172887,55.72040132,-1.868729166,4.628667077e-07,-1.61639937e-06,0.0335376114,8.245158609e-07,-14.01141898,0.1992640949,-12.47885796,-1092.478858,1.49770241,0.1945566414,-0.04305685566,74.09758,73.80143752,-6.618094952,1.306981122e-07,-5.724470247e-06,0.08967433662,1.428705622e-05,-14.47772993,0.1888484843,173.4932486,-1266.506751,1.465630602,-0.1876320186,0.02140036497,34.20747741,34.17383436,1.516758346,-5.702770775e-07,1.311954284e-06,0.04438361613,1.416531054e-05,-24.52764855,0.05937690722,174.6149092,-545.3850908,1.126250158,-0.05911484245,0.005572478183,44.4186314,44.41585349,0.4967641493,-1.741213648e-06,4.296873365e-07,0.01118438824,8.155067928e-07,
192000,-28.22307749,0.0388012865,-23.79517657,-23.79517657,1.080735203,0.03550293026,-0.01565508791,53.68004226,53.6536703,-1.682438829,4.926966621e-07,-1.394627376e-06,0.03135738561,-1.371138273e-06,-14.24706504,0.1939307818,-53.60807002,-1133.60807,1.481176498,0.1150602019,-0.156109891,62.6491341,59.59159547,-19.33276372,4.287705614e-08,-1.60255464e-05,0.3244209786,1.420537594e-05,-14.70999942,0.1838654076,132.4835189,-1307.516481,1.45057619,-0.12417867,0.1355955237,39.13427392,37.67823934,10.57552246,-7.838213176e-08,8.766388937e-06,0.2806798473,1.411152504e-05,-27.9721097,0.0399387543,169.9145501,-550.0854499,1.08320043,-0.03932160797,0.00699394318,46.21678658,46.21225138,0.647444462,-1.28031367e-06,5.366874297e-07,0.01401023414,-1.408620165e-06,
