Frequency,S11_Magnitude,S11_Magnitude (linear),S11_Phase,S11_Unwrapped Phase,S11_VSWR,S11_Real,S11_Imaginary,S11_Impedance (absolute),S11_Resistance,S11_Reactance,S11_Capacitance,S11_Inductance,S11_Quality Factor,S11_Group delay,S12_Magnitude,S12_Magnitude (linear),S12_Phase,S12_Unwrapped Phase,S12_VSWR,S12_Real,S12_Imaginary,S12_Impedance (absolute),S12_Resistance,S12_Reactance,S12_Capacitance,S12_Inductance,S12_Quality Factor,S12_Group delay,S21_Magnitude,S21_Magnitude (linear),S21_Phase,S21_Unwrapped Phase,S21_VSWR,S21_Real,S21_Imaginary,S21_Impedance (absolute),S21_Resistance,S21_Reactance,S21_Capacitance,S21_Inductance,S21_Quality Factor,S21_Group delay,S22_Magnitude,S22_Magnitude (linear),S22_Phase,S22_Unwrapped Phase,S22_VSWR,S22_Real,S22_Imaginary,S22_Impedance (absolute),S22_Resistance,S22_Reactance,S22_Capacitance,S22_Inductance,S22_Quality Factor,S22_Group delay,
0,-13.39760412,0.2138551897,-134.7250828,-134.7250828,1.544060552,-0.150491139,-0.1519422892,37.18242521,35.42936042,-11.28242726,inf,-inf,0.3184485162,1.304013967e-05,-13.48481143,0.2117188024,-133.8855598,-133.8855598,1.537165679,-0.146767752,-0.1525912129,37.46166605,35.6845279,-11.40135482,inf,-inf,0.3195041519,-1.369365681e-06,-16.23689616,0.1542251466,-162.2520727,-162.2520727,1.364695512,-0.1468850826,-0.04701242758,37.21786838,37.04643026,-3.568155224,inf,-inf,0.09631576373,-1.720241655e-05,-16.33914026,0.1524203614,-161.4591243,-161.4591243,1.359660271,-0.1445092941,-0.04846679779,37.40010045,37.21728407,-3.693410349,inf,-inf,0.09923911539,-2.433276423e-06,
8000,-15.14767332,0.1748301516,-112.72427,-112.72427,1.423743431,-0.06753632572,-0.1612588807,43.82472435,41.5838461,-13.83438498,1.438037753e-06,-0.0002752263443,0.3326865184,1.304013967e-05,-28.52312289,0.03748382104,-121.6246822,-121.6246822,1.07788715,-0.01965474538,-0.03191751594,48.07433637,47.97641124,-3.066884827,6.486832408e-06,-6.101373501e-05,0.06392484865,-1.369365681e-06,-21.94833262,0.07990673191,25.85693064,25.85693064,1.173692678,0.07190693893,0.03484936066,57.73763777,57.59610946,4.040172027,-4.924138812e-06,8.037666863e-05,0.07014661346,-1.720241655e-05,-24.24222586,0.06136047417,58.01094846,58.01094846,1.130743427,0.03250615322,0.05204284574,53.35044117,53.0616202,5.543828542,-3.588561178e-06,0.0001102909645,0.1044790664,-2.433276423e-06,
16000,-15.23092311,0.1731624988,148.6557653,-211.3442347,1.418854971,-0.1478907283,0.0900754322,37.20872273,36.58316141,6.794214373,-1.464066836e-06,6.758330012e-05,0.1857197167,1.304013967e-05,-29.15258874,0.03486346615,-84.41988008,-84.41988008,1.072245667,0.003390038975,-0.03469825511,50.3397466,50.21867461,-3.489241804,2.850815306e-06,-3.470813005e-05,0.06948096164,-1.369365681e-06,-35.7263295,0.01635624189,104.8279301,104.8279301,1.033256434,-0.004185840791,0.01581155861,49.5832645,49.55847766,1.567612927,-6.345433731e-06,1.559333413e-05,0.03163157952,-1.720241655e-05,-11.844818,0.2557167053,-37.08869794,-37.08869794,1.687148851,0.2039859576,-0.1542101243,74.85205219,71.08166928,-23.45689684,4.240622283e-07,-0.0002333300676,0.32999924,-2.433276423e-06,
24000,-7.68994738,0.4125747365,121.14297,-238.85703,2.404688433,-0.2133734862,0.353114243,34.11570262,25.97997283,22.11158468,-2.999086704e-07,0.000146632,0.8511011471,1.467593448e-05,-21.00892838,0.08903352757,-56.23009336,-56.23009336,1.195470482,0.04949009493,-0.07401148246,55.17678286,54.57266881,-8.142554015,8.144196465e-07,-5.399698837e-05,0.149205714,7.580874841e-06,-22.0761787,0.07873921213,119.7832691,119.7832691,1.170937943,-0.03911138434,0.06833859189,46.25294032,45.82162466,6.30184117,-1.052304522e-06,4.17903822e-05,0.1375298501,5.512184326e-06,-6.775570244,0.4583755962,-49.30055162,-49.30055162,2.692595802,0.2989026489,-0.3475131561,85.91632101,64.50172182,-56.75510636,1.16843336e-07,-0.0003763689884,0.8799006406,1.256009262e-05,
32000,-6.235973893,0.487754523,100.5632859,-259.4367141,2.904378057,-0.0894158741,0.4794885569,43.23031473,26.89616857,33.84458935,-1.469538283e-07,0.0001683291779,1.258342402,8.761394795e-06,-20.51052467,0.09429176528,-146.8639885,-146.8639885,1.208216646,-0.07895759669,-0.05154255449,42.70013457,42.4710257,-4.417405184,1.125908031e-06,-2.197037096e-05,0.104009854,2.015963968e-05,-20.55519245,0.09380810816,38.49955636,38.49955636,1.207038066,0.07341544279,0.05839635192,57.89402238,57.49626448,6.77476183,-7.341353241e-07,3.369490105e-05,0.1178295997,2.030810907e-05,-6.038639695,0.4989626243,-72.76419382,-72.76419382,2.991718177,0.1478451104,-0.4765558979,63.64683974,39.39248891,-49.99151954,9.948871363e-08,-0.0002486374202,1.269062223,7.379735917e-06,
40000,-6.272573039,0.4857036286,59.98851317,-300.0114868,2.888808304,0.2429361389,0.420582985,75.75614947,50.93703856,56.07505939,-7.095620799e-08,0.0002231155721,1.100870034,7.254090304e-06,-13.36769245,0.2145929143,160.4327743,-199.5672257,1.546450161,-0.2021999982,0.07186987953,33.25582657,32.88461531,4.955005262,-8.030008783e-07,1.971533951e-05,0.150678523,2.70033616e-05,-13.23312178,0.217943495,-20.3543368,-20.3543368,1.55735997,0.204334993,-0.07580618481,75.48897119,74.55047163,-11.86642115,3.353052724e-07,-4.721498958e-05,0.1591729857,2.641679932e-05,-6.286288258,0.4849372967,-105.0166373,-105.0166373,2.883022372,-0.1256470184,-0.4683769939,40.67827633,25.72678494,-31.50959698,1.262749752e-07,-0.0001253727029,1.224777874,7.039040019e-06,
48000,-13.03195155,0.2230501001,53.06890863,-306.9310914,1.574168553,0.1340205634,0.1782970435,64.91882052,60.78010931,22.80858544,-1.453719254e-07,7.562706496e-05,0.3752639753,7.384952479e-06,-10.72276889,0.2909789387,56.94987472,-303.0501253,1.820790678,0.1586919224,0.2438967333,67.58865915,59.64741778,31.78698473,-1.043108684e-07,0.0001053969947,0.5329146828,2.536345422e-05,-10.67124491,0.2927101313,-117.5400375,-117.5400375,1.827694964,-0.1353398951,-0.2595425471,38.75799733,33.70496939,-19.13523964,1.732786233e-07,-6.344724949e-05,0.5677275483,2.533081023e-05,-12.85222188,0.2277135667,-115.4988523,-115.4988523,1.58971272,-0.09802910043,-0.205532878,41.40597558,37.98932868,-16.47014633,2.013174573e-07,-5.461052504e-05,0.4335466538,7.257835762e-06,
56000,-10.03952195,0.3147921563,40.43125823,-319.5687418,1.918822396,0.2396149436,0.2041538157,79.78473386,72.66961678,32.9352479,-8.629212579e-08,9.360370546e-05,0.4532189567,5.651243289e-06,-10.82825134,0.2874666267,-6.985432023,-366.985432,1.80688607,0.2853327924,-0.0349608217,89.85108004,89.59121556,-6.828665912,4.161944063e-07,-1.94074274e-05,0.07622026188,2.450452686e-05,-10.93226598,0.2840447072,177.4011559,-182.5988441,1.793470514,-0.2837525628,0.01287939212,27.89973692,27.88879148,0.7814280697,-3.636998292e-06,2.220859642e-06,0.02801943104,2.427088356e-05,-9.91714509,0.3192587034,-129.2953986,-129.2953986,1.937973662,-0.2021925148,-0.2470714607,34.0249548,29.81037088,-16.40241864,1.73270334e-07,-4.66165358e-05,0.5502252456,5.66100936e-06,
64000,-11.8164556,0.2565530723,3.998597684,-356.0014023,1.690171854,0.2559285599,0.0178899738,84.37987315,84.31805028,3.229456569,-7.700354324e-07,8.030999633e-06,0.03830089238,4.837321652e-06,-9.811657561,0.3231596447,-68.38862606,-428.3886261,1.954906551,0.1190226437,-0.3004426172,62.23971171,51.6840615,-34.6776513,7.171177668e-08,-8.623624405e-05,0.6709544547,2.161519795e-05,-9.947671307,0.3181386506,114.8581427,-245.1418573,1.933147628,-0.1337369188,0.2886635369,39.02410742,32.83396534,21.09055903,-1.179103874e-07,5.244791754e-05,0.6423396874,2.141628489e-05,-12.18824432,0.2458033425,-165.1376481,-165.1376481,1.651828247,-0.2375799495,-0.06304800378,30.86797142,30.59369154,-4.105812616,6.056769314e-07,-1.021031833e-05,0.1342045503,4.548725709e-06,
72000,-16.90734986,0.1427685363,3.145765285,-356.8542347,1.333092151,0.1425534064,0.007834620693,66.62412466,66.61560345,1.065534608,-2.074531699e-06,2.35534861e-06,0.01599527067,3.877926297e-06,-10.07602609,0.3134719572,-129.7631621,-489.7631621,1.913209476,-0.2005015555,-0.2409643007,34.09794934,30.07252423,-16.07213228,1.375352867e-07,-3.552721248e-05,0.5344457339,2.025812708e-05,-10.30211621,0.3054176911,53.94584976,-306.0541502,1.879428362,0.1797534574,0.2469183278,70.35420828,61.7847734,33.6505037,-6.568951658e-08,7.438394446e-05,0.5446407237,2.00782235e-05,-17.63662706,0.1312709556,-161.7157742,-161.7157742,1.302213806,-0.1246433328,-0.04118377561,38.93403072,38.79800248,-3.251730484,6.797873722e-07,-7.187902502e-06,0.08381180153,3.529801567e-06,
80000,-15.7740753,0.1626657931,2.054223313,-357.9457767,1.38853254,0.1625612562,0.005830800862,69.41090962,69.40593042,0.831382841,-2.392925005e-06,1.653983609e-06,0.01197855624,2.106170064e-06,-9.864964985,0.3211824087,167.0798892,-552.9201108,1.946299603,-0.3130509609,0.07181389505,26.26180844,25.93137609,4.152868424,-4.79051245e-07,8.26186922e-06,0.1601484012,1.886277969e-05,-10.68187169,0.2923522331,-4.206886898,-364.2068869,1.826264836,0.2915645388,-0.02144639641,91.12693776,91.02687475,-4.269292583,4.659874557e-07,-8.493487727e-06,0.04690145185,1.875409086e-05,-15.72150367,0.1636533186,-164.7903148,-164.7903148,1.391352826,-0.1579208964,-0.04293482463,36.38391528,36.24311219,-3.197828892,6.221210877e-07,-6.361878442e-06,0.08823273441,1.699500459e-06,
88000,-16.8090822,0.144392917,-14.43869326,-374.4386933,1.337521556,0.1398322658,-0.03600349863,66.2314476,66.05307531,-4.857560418,3.723224712e-07,-8.785281271e-06,0.0735402613,1.48023628e-06,-10.71895387,0.2911067706,123.5632804,-596.4367196,1.82129934,-0.1609406005,0.2425722058,36.82170679,32.533805,17.24498835,-1.048756231e-07,3.118892204e-05,0.5300636784,1.748732872e-05,-11.09625822,0.2787321655,-52.19274766,-412.1927477,1.772895039,0.1708647865,-0.2202199918,69.43811738,62.66005045,-29.92273755,6.044162556e-08,-5.411763173e-05,0.4775409106,1.75735498e-05,-17.3367975,0.1358814352,179.7017921,-180.2982079,1.314497201,-0.1358795947,0.0007072201598,38.03750552,38.03746603,0.0548137946,-3.299495888e-05,9.913507228e-08,0.001441047481,1.226978058e-06,
96000,-20.30315553,0.09656999826,-17.53802197,-377.538022,1.213785236,0.09208115336,-0.02910027078,60.13247122,60.02896917,-3.52660682,4.701017367e-07,-5.846634456e-06,0.05874841545,1.419552946e-06,-11.13532217,0.2774814092,73.32412524,-646.6758748,1.768094864,0.07962528517,0.2658114866,58.03118556,50.28650133,28.96353363,-5.72397005e-08,4.801759945e-05,0.5759703472,1.656667653e-05,-11.5723333,0.2638659401,-102.131467,-462.131467,1.716896431,-0.05545288722,-0.2579732769,45.05853592,39.40492705,-21.85230841,7.586676699e-08,-3.622815523e-05,0.5545577685,1.68228072e-05,-20.98280407,0.08930171437,179.6807621,-180.3192379,1.196117014,-0.08930032821,0.0004975644192,41.80204894,41.80202791,0.04193280909,-3.953620152e-05,6.951889421e-08,0.001003128584,1.234432335e-06,
104000,-20.20842204,0.09762901282,-8.373514507,-368.3735145,1.216383315,0.09658826367,-0.01421729459,60.68908565,60.66409228,-1.74155807,8.787166029e-07,-2.665168996e-06,0.02870821939,1.363561967e-06,-11.53706217,0.2649396093,25.29718634,-694.7028137,1.720864878,0.2395328373,0.1132122626,80.9452662,78.6469318,19.15192521,-7.990507347e-08,2.930888046e-05,0.243517767,1.664076675e-05,-11.99311943,0.2513877022,-150.1509773,-510.1509773,1.671609865,-0.2180385898,-0.1251197435,32.33735473,31.24195028,-8.345361191,1.83375645e-07,-1.277120659e-05,0.2671203659,1.661287529e-05,-20.41274833,0.0953591966,-171.6197967,-171.6197967,1.210822232,-0.09434102244,-0.01389776466,41.38072839,41.36445806,-1.160298034,1.318916301e-06,-1.775645842e-06,0.02805060403,1.282375562e-06,
112000,-19.97098339,0.1003346247,-21.41992849,-381.4199285,1.223048763,0.09340439671,-0.03664226515,60.28739364,60.12286976,-4.450883479,3.192683619e-07,-6.324822382e-06,0.07402979094,6.996667193e-07,-11.8661509,0.255089425,-22.34720573,-742.3472057,1.684886035,0.2359313858,-0.09698966923,80.48113352,78.80285098,-16.3500315,8.691275471e-08,-2.323382441e-05,0.2074802028,1.630134859e-05,-12.35424713,0.2411502094,162.5238042,-557.4761958,1.635567704,-0.2300191498,0.07241970873,31.38333457,31.01869685,4.770129334,-2.979009956e-07,6.778479132e-06,0.1537823899,1.624730072e-05,-20.43232936,0.09514446574,173.094654,-186.905346,1.210297583,-0.09445429998,0.01143916847,41.37077659,41.35975517,0.9548864951,-1.488162504e-06,1.356918802e-06,0.02308733432,3.803586324e-07,
120000,-22.75222446,0.07284315991,-32.13303233,-392.1330323,1.157132336,0.06168471085,-0.03874432079,56.56344519,56.39258857,-4.3930954,3.019035718e-07,-5.826523737e-06,0.0779019994,1.983675268e-07,-12.4185396,0.2393718191,-68.22809541,-788.2280954,1.629405602,0.08878600008,-0.2222969049,59.23888137,53.57919412,-25.26885482,5.248719034e-08,-3.351385958e-05,0.4716169258,1.605621998e-05,-12.77435218,0.2297642156,116.2542125,-603.7457875,1.596607481,-0.1016372644,0.2060617899,41.11968763,37.70535593,16.40532978,-8.084514057e-08,2.17582444e-05,0.4350928238,1.59673139e-05,-23.8413152,0.064259041,164.5286381,-195.4713619,1.137343653,-0.06193054437,0.01714152922,44.16973666,44.14358723,1.519652165,-8.727597161e-07,2.015501283e-06,0.03442520784,-1.437216287e-07,
128000,-24.76693065,0.05776349567,-15.73346382,-375.7334638,1.122609335,0.0555993018,-0.01566330334,55.88572384,55.85813846,-1.755704054,7.082047742e-07,-2.183038896e-06,0.03143148164,2.482476425e-08,-12.65112484,0.2330471295,-114.6526536,-834.6526536,1.607722165,-0.09720772966,-0.2118056228,41.49150546,37.86614175,-16.96173147,7.330607699e-08,-2.109018286e-05,0.4479392588,1.585590624e-05,-13.16040119,0.219775836,70.70480768,-649.2951923,1.563365879,0.07262167173,0.2074307375,57.4819536,52.69309963,22.96981151,-5.413183267e-08,2.856061753e-05,0.4359168785,1.575192313e-05,-25.33611413,0.05409962983,-173.8706195,-173.8706195,1.114387586,-0.0537903597,-0.005776430603,44.89569713,44.89268373,-0.5201613369,2.39040833e-06,-6.467675623e-07,0.01158677303,-1.674655909e-07,
136000,-22.72879644,0.07303990136,-14.07323923,-374.0732392,1.157590173,0.07084765935,-0.01776052801,57.622377,57.58566873,-2.056474702,5.69059728e-07,-2.40660378e-06,0.03571157107,8.973045862e-07,-12.92545392,0.2258017504,-159.7596573,-879.7596573,1.583317646,-0.2118584159,-0.07811812917,32.60954984,32.1764247,-5.297210034,2.209194891e-07,-6.199096775e-06,0.1646301627,1.568094682e-05,-13.44069506,0.2127968755,25.82920074,-694.1707993,1.540640322,0.1915377951,0.09271344718,73.43307219,72.08603994,14.00067628,-8.358574337e-08,1.63843885e-05,0.1942217424,1.556207967e-05,-22.96190829,0.0711057277,-176.0675684,-176.0675684,1.153097569,-0.07093831778,-0.004876431288,43.37620725,43.37412344,-0.425171543,2.752434762e-06,-4.975599465e-07,0.00980242387,6.865780531e-07,
144000,-22.946932,0.0712284346,-30.80730164,-390.8073016,1.153382031,0.06117772044,-0.03647980836,56.50717404,56.35584948,-4.132668228,2.674404523e-07,-4.567601227e-06,0.07333166417,7.397475467e-07,-13.24939436,0.2175355709,155.0935253,-924.9064747,1.556026735,-0.1973039861,0.09161256285,33.64025993,33.03483788,6.353469455,-1.739589162e-07,7.022125483e-06,0.1923263398,1.543579973e-05,-13.76742445,0.2049409652,-19.09138299,-739.091383,1.515536473,0.1936688255,-0.06703122595,73.88029066,73.1673383,-10.23904066,1.079439663e-07,-1.131662454e-05,0.1399400457,1.538324376e-05,-23.7086437,0.06524809181,165.8042618,-194.1957382,1.139605153,-0.06325564957,0.0160011338,44.05219621,44.02946259,1.415067028,-7.810532214e-07,1.563992446e-06,0.03213909379,3.289317826e-07,
152000,-26.32271904,0.04829076082,-37.51729946,-397.5172995,1.101482173,0.03830275858,-0.02940911875,53.97924524,53.88567917,-3.176869126,3.295924233e-07,-3.326410691e-06,0.0589557221,-5.602532442e-07,-13.57551551,0.2095193918,111.0931809,-968.9068191,1.530106342,-0.07540304737,0.1954808328,43.23026799,40.01414778,16.36227516,-6.399305621e-08,1.713248008e-05,0.408912249,1.532052984e-05,-14.10630317,0.1970991908,-62.9416394,-782.9416394,1.490967722,0.08965999413,-0.1755254297,59.52420059,55.91160463,-20.42113913,5.127392685e-08,-2.138240287e-05,0.3652397256,1.528660799e-05,-27.74547845,0.04099454567,164.8044735,-195.1955265,1.085493874,-0.03956125183,0.01074523748,46.19485129,46.18415174,0.9941901451,-1.05319088e-06,1.040988658e-06,0.02152665162,-9.555484434e-07,
160000,-27.4421616,0.04245139046,-14.66379838,-374.6637984,1.08866681,0.04106865925,-0.01074643102,54.28223625,54.26965766,-1.168516072,8.512663356e-07,-1.16234443e-06,0.02153166469,-7.840259031e-07,-13.97240438,0.200161147,67.64541111,-1012.354589,1.500503686,0.07612878746,0.1851185903,57.94387475,54.06217864,20.85122207,-4.770552014e-08,2.074109414e-05,0.3856896372,1.525909791e-05,-14.31548514,0.1924091597,-106.4284823,-826.4284823,1.47650159,-0.05441683278,-0.1845537673,45.00109353,42.02009665,-16.10620675,6.175994198e-08,-1.602114012e-05,0.3832977083,1.523114398e-05,-26.94085801,0.04497354269,-169.0432582,-169.0432582,1.09418282,-0.04415371836,-0.008548022995,45.77163573,45.76492112,-0.7839848994,1.2687979e-06,-7.798442003e-07,0.01713069487,-7.123369335e-07,
168000,-24.95286856,0.05654009998,-14.07734414,-374.0773441,1.119856922,0.05484210294,-0.01375233257,55.80126329,55.7800328,-1.539131393,6.155100572e-07,-1.458097436e-06,0.02759287358,6.02393168e-07,-14.08199897,0.1976514712,23.34877009,-1056.65123,1.49268233,0.1814656659,0.0783346422,71.99908517,71.0608251,11.58565502,-8.176929573e-08,1.097568015e-05,0.163038566,1.523103867e-05,-14.59312948,0.1863560627,-150.6294047,-870.6294047,1.458077678,-0.1624029039,-0.09139955625,36.13103977,35.50007359,-6.722857246,1.409149142e-07,-6.368904538e-06,0.1893758679,1.519378556e-05,-24.68376222,0.05831924448,-174.8839109,-174.8839109,1.123862029,-0.05808690434,-0.005200559726,44.51033612,44.50791222,-0.4645119792,2.039454081e-06,-4.400558192e-07,0.01043661578,8.425260943e-07,
176000,-25.08347062,0.05569631586,-31.23730629,-391.2373063,1.117962721,0.04762184174,-0.02888320948,54.99592191,54.90382226,-3.181466361,2.842366842e-07,-2.876966464e-06,0.0579461726,7.203578401e-07,-14.34825484,0.1916846155,-20.7652792,-1100.765279,1.474281745,0.1792329164,-0.06795994026,71.71103908,71.00762538,-10.01949415,9.025300439e-08,-9.060522847e-06,0.1411044813,1.515642009e-05,-14.84456648,0.1810388056,165.4240263,-914.5759737,1.442118154,-0.1752120332,0.04556086662,35.11814468,34.9633303,3.293876211,-2.745365616e-07,2.978617505e-06,0.09420945269,1.509953096e-05,-25.53772764,0.05285835194,165.9061058,-194.0938942,1.111616572,-0.05126720829,0.01287162476,45.12406473,45.10903614,1.164506811,-7.765428599e-07,1.053051223e-06,0.02581537782,3.480395247e-07,
184000,-28.38228186,0.03809657271,-37.90500712,-397.9050071,1.079210806,0.03005935396,-0.02340478778,53.09734127,53.03909626,-2.48634614,3.478890179e-07,-2.150621079e-06,0.04687761134,-9.423088595e-07,-14.61482858,0.1858910887,-64.02843085,-1144.028431,1.45667376,0.08140637373,-0.1671182192,58.59893194,55.37439249,-19.17058895,4.511976753e-08,-1.658203257e-05,0.3461995354,1.515136992e-05,-15.09622473,0.1758687851,122.3415943,-957.6584057,1.426798019,-0.09408379112,0.14858691,41.5722314,39.74539528,12.18827213,-7.096760786e-08,1.054252042e-05,0.3066587221,1.496580967e-05,-29.71559252,0.03267535945,165.1974157,-194.8025843,1.067558208,-0.03159092524,0.008348206844,46.93785703,46.93130197,0.7844219435,-1.102687812e-06,6.785034227e-07,0.01671425915,-1.425278747e-06,
192000,-29.68318162,0.03279751347,-13.12311979,-373.1231198,1.067819332,0.03194098772,-0.007446488627,53.29929849,53.29337583,-0.7945517149,1.043270035e-06,-6.586293384e-07,0.01490901454,-1.149650649e-06,-14.8238166,0.1814718096,-106.9184378,-1186.918438,1.443410042,-0.05281012604,-0.1736177073,45.12387658,42.46919566,-15.24898873,5.435980117e-08,-1.264037465e-05,0.3590599843,1.508011688e-05,-15.29135335,0.1719619386,79.65277231,-1000.347228,1.415347909,0.03088662543,0.1691653768,53.09560641,50.13594961,17.47941581,-4.742332376e-08,1.448924703e-05,0.3486403659,1.496223019e-05,-29.40044607,0.03388267549,-164.0956906,-164.0956906,1.070141948,-0.03258567045,-0.009284922192,46.84452843,46.83643504,-0.8707449566,9.519802429e-07,-7.217883542e-07,0.01859118773,-1.23747246e-06,
