Frequency,S11_Magnitude,S11_Magnitude (linear),S11_Phase,S11_Unwrapped Phase,S11_VSWR,S11_Real,S11_Imaginary,S11_Impedance (absolute),S11_Resistance,S11_Reactance,S11_Capacitance,S11_Inductance,S11_Quality Factor,S11_Group delay,S12_Magnitude,S12_Magnitude (linear),S12_Phase,S12_Unwrapped Phase,S12_VSWR,S12_Real,S12_Imaginary,S12_Impedance (absolute),S12_Resistance,S12_Reactance,S12_Capacitance,S12_Inductance,S12_Quality Factor,S12_Group delay,S21_Magnitude,S21_Magnitude (linear),S21_Phase,S21_Unwrapped Phase,S21_VSWR,S21_Real,S21_Imaginary,S21_Impedance (absolute),S21_Resistance,S21_Reactance,S21_Capacitance,S21_Inductance,S21_Quality Factor,S21_Group delay,S22_Magnitude,S22_Magnitude (linear),S22_Phase,S22_Unwrapped Phase,S22_VSWR,S22_Real,S22_Imaginary,S22_Impedance (absolute),S22_Resistance,S22_Reactance,S22_Capacitance,S22_Inductance,S22_Quality Factor,S22_Group delay,
0,-13.29431593,0.2164134277,-133.7602965,-133.7602965,1.552366351,-0.1496808018,-0.1563023649,37.25749053,35.40216145,-11.610666,inf,-inf,0.3279648906,-2.0615971e-05,-13.56681253,0.2097294286,-132.9464494,-132.9464494,1.530778789,-0.1428917038,-0.1535200123,37.75500407,35.94658028,-11.54485593,inf,-inf,0.3211670162,-6.977781342e-06,-16.20343886,0.1548203544,-173.6757535,-173.6757535,1.366360821,-0.1538781841,-0.01705422469,36.66770292,36.64533358,-1.280610906,inf,-inf,0.03494608402,-2.11702996e-05,-16.35137359,0.1522058415,-173.2924814,-173.2924814,1.3590632,-0.1511640429,-0.01777780418,36.87228082,36.84787947,-1.34122031,inf,-inf,0.03639884655,-1.251399273e-05,
8000,-13.80781507,0.2039901731,-3.030436364,-3.030436364,1.512531796,0.2037049117,-0.01078423335,75.5776885,75.55855676,-1.700440948,1.16995347e-05,-3.382919779e-05,0.02250494214,-2.0615971e-05,-18.6164206,0.117267852,101.0605824,-258.9394176,1.265692945,-0.02249746492,0.1150895876,47.82790524,46.57621462,10.87036114,-1.830147832e-06,0.0002162589637,0.2333886778,-6.977781342e-06,-21.19168306,0.08717979574,-44.75508701,-44.75508701,1.191011977,0.06190836647,-0.06138135666,56.57289438,56.14494891,-6.945292692,2.864439091e-06,-0.0001381722079,0.1237028945,-2.11702996e-05,-12.96442681,0.2247908656,158.2264343,-201.7735657,1.57994896,-0.2087536254,0.08338379418,32.833056,32.33802353,5.679947231,-3.502562098e-06,0.0001129989598,0.1756429927,-1.251399273e-05,
16000,-13.58311201,0.2093362305,156.7092802,156.7092802,1.52952023,-0.1922775123,0.08277086237,33.96871953,33.47080482,5.794750321,-1.716585425e-06,5.764144735e-05,0.1731285027,-2.0615971e-05,-30.11111082,0.03122083104,94.6991883,-265.3008117,1.064453969,-0.002557747523,0.0311158837,49.74512393,49.64888956,3.092752778,-3.216288096e-06,3.076418077e-05,0.0622924864,-6.977781342e-06,-30.64423611,0.0293621731,-91.09834731,-91.09834731,1.060500781,-0.0005628318337,-0.02935677825,49.94379689,49.85778579,-2.929853859,3.395112665e-06,-2.914379527e-05,0.05876421933,-2.11702996e-05,-14.75420311,0.1829320682,-26.28411112,-26.28411112,1.447776889,0.1640185873,-0.08100644787,69.46291559,68.50715266,-11.48332168,8.662287983e-07,-0.0001142267131,0.1676222298,-1.251399273e-05,
24000,-7.823168918,0.4062950714,119.8777102,119.8777102,2.368676768,-0.2023960736,0.3522946415,34.79575406,26.59218495,22.4410383,-2.955057548e-07,0.0001488167572,0.843895992,-1.811975649e-06,-20.44829744,0.09496971348,-42.45499882,-42.45499882,1.209870796,0.07006938877,-0.06410559442,57.50159133,57.0262993,-7.377953206,8.988205504e-07,-4.892657178e-05,0.1293780816,2.979875961e-05,-21.25197817,0.08657671266,134.1584464,134.1584464,1.189565372,-0.06031323245,0.062111522,44.3324491,43.9892352,5.505745162,-1.204461116e-06,3.651110658e-05,0.1251611931,-5.549327841e-06,-6.881491711,0.4528198061,-50.27569813,-50.27569813,2.655103058,0.289394466,-0.3482766427,84.38612925,63.46870535,-55.61242893,1.192441346e-07,-0.0003687913734,0.8762181081,2.045255382e-05,
32000,-6.342044092,0.4818343919,101.6556127,101.6556127,2.859769866,-0.09734434064,0.4718987821,42.63530215,26.90661144,33.07269645,-1.503836247e-07,0.0001644900975,1.229166167,1.026084109e-05,-19.85019635,0.1017396368,-140.7086075,-140.7086075,1.22652594,-0.07873990174,-0.06442811158,42.72890484,42.37125287,-5.516904841,9.015185352e-07,-2.743883363e-05,0.1302039583,3.238630192e-05,-20.1663449,0.09810310544,41.71979398,41.71979398,1.217548383,0.07322497417,0.06528646457,57.86468716,57.36824034,7.563532274,-6.575752957e-07,3.76179234e-05,0.1318418036,6.528992585e-06,-5.842409039,0.5103634306,-68.83991985,-68.83991985,3.084662227,0.1842283892,-0.4759524471,67.56706409,41.45277568,-53.35705705,9.321338631e-08,-0.0002653762306,1.287176942,8.965403249e-06,
40000,-7.358619276,0.4286166486,50.58884671,50.58884671,2.500276995,0.2721205334,0.3311535094,82.19123793,63.82522102,51.78552649,-7.683369943e-08,0.000206048063,0.8113646245,6.91937051e-06,-14.27663902,0.1932716031,149.6623419,-210.3376581,1.479149126,-0.1668057163,0.09762051813,35.82313992,35.10833045,7.120567889,-5.5878599e-07,2.833183943e-05,0.2028170465,2.665963835e-05,-15.36930322,0.1704256028,-31.25383674,-31.25383674,1.410874789,0.1456929502,-0.08842200159,66.89597787,65.81327772,-11.98683989,3.319368251e-07,-4.769412053e-05,0.1821340664,2.604618767e-05,-6.257527717,0.4865456725,-115.0124362,-115.0124362,2.895185789,-0.2057187934,-0.4409154902,35.38122062,23.15525578,-26.75191399,1.487322955e-07,-0.0001064424837,1.155327941,6.720244113e-06,
48000,-13.73602956,0.2056830586,43.59760016,43.59760016,1.517886621,0.1489558244,0.1418368181,67.08975384,64.3271335,19.05400131,-1.740174112e-07,6.317788531e-05,0.2962047316,6.066624007e-06,-10.29047045,0.3058274598,72.27777029,-287.7222297,1.881128083,0.09309469015,0.2913139437,59.38027037,49.95197561,32.10633336,-1.032733307e-07,0.0001064558679,0.6427440149,2.359870711e-05,-10.28137926,0.3061477254,-102.409699,-102.409699,1.882457943,-0.06579134643,-0.2989948637,44.30646993,36.98142589,-24.40158635,1.358816567e-07,-8.090902266e-05,0.6598335723,2.334524454e-05,-13.52776479,0.2106743975,-123.0175488,-123.0175488,1.5338086,-0.1147956116,-0.1766512647,39.98647033,37.50530248,-13.86614926,2.39123921e-07,-4.59763791e-05,0.3697117033,6.096009674e-06,
56000,-10.86120823,0.2863779583,49.2677811,49.2677811,1.802604016,0.1868686682,0.2170079165,71.68237709,64.80446626,30.63893501,-9.275950858e-08,8.707746355e-05,0.4727904847,4.612031643e-06,-10.8228371,0.2876458715,7.153020054,-352.8469799,1.807592348,0.2854071626,0.03581757831,89.86192947,89.58913703,6.996634426,-4.062028087e-07,1.988480275e-05,0.07809690614,2.214215957e-05,-10.92630202,0.2842398067,-168.8419095,-168.8419095,1.794231949,-0.2788668124,-0.05500516955,28.25000581,28.04983847,-3.356991171,8.466070985e-07,-9.540745336e-06,0.1196795188,2.186368754e-05,-10.4825929,0.2991371523,-119.9583989,-119.9583989,1.853625365,-0.149380439,-0.2591689031,37.73540971,32.79383958,-18.66883049,1.522351685e-07,-5.305779739e-05,0.5692785819,4.696069846e-06,
64000,-11.2211513,0.2747529949,14.95675984,14.95675984,1.757681157,0.2654446045,0.07091100143,85.87269965,84.87980107,13.02074946,-1.90987162e-07,3.237994748e-05,0.1534022146,3.579705004e-06,-9.962291394,0.3176036101,-49.27532896,-409.275329,1.930847862,0.2072124683,-0.2406970007,74.28743137,65.49142135,-35.06417244,7.092127983e-08,-8.719744328e-05,0.5354009994,2.004362422e-05,-10.16235606,0.3103717586,134.342309,-225.657691,1.90011325,-0.2169323496,0.2219706833,32.89867009,29.52790912,14.50603588,-1.714318099e-07,3.60735518e-05,0.4912652577,1.999617463e-05,-11.25203759,0.2737777315,-154.1494778,-154.1494778,1.753977793,-0.2463820654,-0.1193738837,30.4697151,29.50293137,-7.614497952,3.265869925e-07,-1.893570294e-05,0.2580929283,3.394176354e-06,
72000,-16.31794517,0.1527927479,-1.503988783,-1.503988783,1.36069745,0.1527401108,-0.004010281242,68.02718909,68.02489528,-0.5586397157,3.956906855e-06,-1.234864891e-06,0.008212283362,3.430688825e-06,-9.861095821,0.3213255125,-108.4082063,-468.4082063,1.946920854,-0.101469757,-0.3048835408,41.51098784,34.32694287,-23.34144606,9.470215833e-08,-5.159592389e-05,0.6799745072,1.893141331e-05,-10.10769155,0.3123312381,75.53305869,-284.4669413,1.908376984,0.07802701395,0.3024278217,57.69536358,47.92630322,32.1220242,-6.881525606e-08,7.100526297e-05,0.6702378871,1.883182374e-05,-16.7416342,0.1455185271,-167.0698775,-167.0698775,1.340600778,-0.141828714,-0.03256159707,37.5905692,37.5076468,-2.495460747,8.85802481e-07,-5.516179349e-06,0.06653205306,3.148193509e-06,
80000,-17.78842878,0.1289966884,17.43573305,17.43573305,1.296202521,0.1230697605,0.03865203302,64.00992184,63.8130472,5.016483023,-3.965799903e-07,9.979975875e-06,0.07861218423,2.136237038e-06,-11.35415848,0.2705777468,-158.5698053,-518.5698053,1.741896057,-0.2518709207,-0.09886028698,30.04665127,29.38537173,-6.269065365,3.173418481e-07,-1.247190927e-05,0.2133396652,1.814045383e-05,-11.63304997,0.2620278789,27.45790232,-332.5420977,1.710129479,0.2325104018,0.1208202069,79.69830451,77.14405739,20.01534791,-9.939556373e-08,3.981926947e-05,0.2594541769,1.808221717e-05,-17.56104959,0.1324181513,-148.337949,-148.337949,1.305258003,-0.1127088961,-0.06950734875,39.91511346,39.52144369,-5.592116886,3.557573686e-07,-1.112516306e-05,0.1414957644,1.922809217e-06,
88000,-16.46311532,0.1502602938,-1.373624573,-1.373624573,1.353661934,0.1502171137,-0.003602036,67.67684071,67.67500255,-0.4987975192,3.625877895e-06,-9.021146679e-07,0.007370483936,1.340509649e-06,-10.55253336,0.2967381138,149.1879066,-570.8120934,1.843890788,-0.2548540636,0.1519964291,30.08206502,28.53825225,9.513085418,-1.901148596e-07,1.720516555e-05,0.3333450603,1.718205037e-05,-10.9207849,0.284420408,-26.57796798,-386.577968,1.79493717,0.2543646648,-0.1272540207,83.34055037,80.31809053,-22.24076597,8.131819295e-08,-4.022418003e-05,0.2769085499,1.719548087e-05,-16.31785898,0.152794264,-168.1981498,-168.1981498,1.360701675,-0.1495643132,-0.03125065348,37.00077423,36.92523959,-2.363043555,7.653599507e-07,-4.273750711e-06,0.06399534794,1.157220426e-06,
96000,-19.26951956,0.1087737302,-15.87023561,-15.87023561,1.244099022,0.1046276561,-0.02974521749,61.67371632,61.56225504,-3.70621626,4.473198201e-07,-6.144402478e-06,0.06020273717,1.645798869e-06,-10.88856589,0.285477382,100.7040794,-619.2959206,1.799071646,-0.05302359165,0.2805099542,45.31558543,38.67234658,23.62100533,-7.018600466e-08,3.916041416e-05,0.6107983462,1.664318728e-05,-11.29289752,0.2724928581,-74.98610492,-434.9861049,1.749113905,0.0705901711,-0.2631907777,57.06605891,49.60751298,-28.20690936,5.877510257e-08,-4.676321931e-05,0.5686015619,1.671122371e-05,-19.40042005,0.1071467488,178.7262056,-181.2737944,1.240009763,-0.1071202709,0.002381880302,40.32447347,40.32400524,0.1943248394,-8.531405431e-06,3.221641538e-07,0.00481908576,1.522099463e-06,
104000,-21.44311791,0.0846923346,-4.154343401,-4.154343401,1.185057632,0.08446980727,-0.006135405412,59.22594471,59.22142166,-0.7319449504,2.090780175e-06,-1.120121701e-06,0.01235946267,9.488780014e-07,-11.28703197,0.2726769336,54.53332598,-665.466674,1.749809668,0.1582151542,0.2220825863,67.73097418,61.0647797,29.30149389,-5.222723445e-08,4.48411307e-05,0.479842784,1.60693701e-05,-11.71701222,0.2595071863,-120.8598622,-480.8598622,1.700903997,-0.1331116213,-0.2227673136,38.75355383,34.96846671,-16.70461825,9.161155128e-08,-2.556367853e-05,0.4777051962,1.593957443e-05,-21.19467239,0.0871497971,-167.265929,-167.265929,1.190939974,-0.08500622927,-0.01921010462,42.16805262,42.13648751,-1.631282399,9.381183739e-07,-2.496410167e-06,0.03871424732,9.832494254e-07,
112000,-20.16934186,0.09806926192,-4.873411253,-4.873411253,1.217465173,0.09771472463,-0.008331429896,60.82885183,60.82024426,-1.023280687,1.38869647e-06,-1.454108745e-06,0.01682467243,1.031052148e-06,-11.61518706,0.2625673054,9.095588212,-710.9044118,1.712111918,0.2592657793,0.04150717414,84.9141425,84.57861934,7.541136933,-1.884366098e-07,1.071615374e-05,0.08916126784,1.566114669e-05,-12.08430066,0.2487625311,-166.042772,-526.042772,1.662274025,-0.2414180794,-0.06000089834,30.61272841,30.36530366,-3.88425986,3.658422271e-07,-5.51963533e-06,0.1279177018,1.55541208e-05,-19.74976905,0.1029227893,-170.7222917,-170.7222917,1.229462499,-0.1015764065,-0.01659319758,40.781324,40.75840291,-1.36710636,1.039440909e-06,-1.942694062e-06,0.03354170583,1.071393844e-06,
120000,-21.10289616,0.08807551518,-20.53587997,-20.53587997,1.193164054,0.08247855377,-0.0308963516,58.97987149,58.86583302,-3.665916549,3.617897938e-07,-4.862072831e-06,0.062275795,4.468963449e-07,-11.94195266,0.2528729453,-36.4067772,-756.4067772,1.676920863,0.203518114,-0.1500836557,74.8205832,71.24700593,-22.84696516,5.805108833e-08,-3.030172866e-05,0.3206726354,1.535137636e-05,-12.55003743,0.2357752037,149.4204938,-570.5795062,1.617031022,-0.2029845427,0.1199467469,33.33433574,32.30831025,8.206767174,-1.616094577e-07,1.088456302e-05,0.2540141254,1.528172441e-05,-20.8468445,0.09071054476,172.3673071,-187.6326929,1.199519623,-0.0899068415,0.01204835188,41.75206838,41.73975017,1.014135107,-1.307805226e-06,1.34503846e-06,0.02429662618,4.15410049e-07,
128000,-24.49664826,0.05958920439,-22.52661826,-22.52661826,1.126730158,0.05504264625,-0.02282937524,55.82166089,55.76315127,-2.555148819,4.866244907e-07,-3.177066914e-06,0.04582145667,-5.129942234e-07,-12.3567972,0.2410794212,-79.34638123,-799.3463812,1.635321872,0.04456862369,-0.2369238804,54.40545048,48.60155678,-24.45080204,5.085305548e-08,-3.040207819e-05,0.5030868076,1.507573097e-05,-12.83543445,0.2281541001,105.8943776,-614.1056224,1.591190807,-0.06248338672,0.2194313555,44.37498852,40.26885046,18.64294206,-6.6695374e-08,2.318059673e-05,0.4629618636,1.503352666e-05,-24.53246831,0.05934396836,173.4815162,-186.5184838,1.126175704,-0.05896032647,0.006736949088,44.43248351,44.42842224,0.6007396663,-2.069778413e-06,7.469584953e-07,0.01352151699,-6.244920136e-07,
136000,-24.78314008,0.05765579911,-1.763047264,-1.763047264,1.122366751,0.05762850548,-0.00177384546,56.11524359,56.1148881,-0.1997422604,5.85883494e-06,-2.337497654e-07,0.003559523456,-3.688643913e-07,-12.68382989,0.2321712852,-122.3055089,-842.3055089,1.604747597,-0.1240801398,-0.1962335969,39.33255928,36.33065081,-15.0709665,7.764976018e-08,-1.763690306e-05,0.4148278703,1.486131386e-05,-13.15662247,0.2198714683,63.1147315,-656.8852685,1.56368011,0.09942706559,0.1961064028,60.58410158,56.01344845,23.08521079,-5.069292827e-08,2.701562801e-05,0.4121369319,1.484597137e-05,-24.2160881,0.06154539951,-165.3497376,-165.3497376,1.131163297,-0.05954441528,-0.01556595034,44.38147638,44.35982122,-1.38625646,8.441850176e-07,-1.622276236e-06,0.03125027158,-3.586330057e-07,
144000,-22.75539959,0.07281653693,-6.872710789,-6.872710789,1.157070396,0.07229330998,-0.008713517218,57.79204931,57.78318178,-1.012357268,1.091751593e-06,-1.11890044e-06,0.01751992945,7.897461498e-07,-12.91736671,0.2260120863,-165.0455719,-885.0455719,1.584019679,-0.2183573689,-0.05832257394,32.13010351,31.89007124,-3.920064717,2.819450035e-07,-4.332622757e-06,0.122924301,1.485384105e-05,-13.40097744,0.2137721514,20.62732523,-699.3726748,1.543791858,0.2000675673,0.07530936995,74.82723914,73.91229662,11.66568151,-9.474308549e-08,1.289340886e-05,0.1578314034,1.469928043e-05,-22.23827228,0.07728342954,-172.8710844,-172.8710844,1.167512825,-0.07668598482,-0.009591048598,42.87820256,42.87022113,-0.8272818786,1.335992833e-06,-9.143472244e-07,0.01929735506,9.334514225e-07,
152000,-23.62391056,0.06588771887,-23.05118647,-23.05118647,1.141070234,0.06062694148,-0.02579855548,56.44939279,56.3737469,-2.921404852,3.584138615e-07,-3.058921203e-06,0.05182208053,2.420707281e-07,-13.22708112,0.218095118,152.4398986,-927.5601014,1.55785588,-0.1933469895,0.1009079885,33.94022016,33.20300638,7.03554631,-1.488259686e-07,7.366723504e-06,0.2118948577,1.465620085e-05,-13.71294117,0.2062305223,-21.7279677,-741.7279677,1.519623211,0.1915782514,-0.07634659078,73.52179435,72.60433446,-11.57863821,9.043135943e-08,-1.21236678e-05,0.1594758536,1.455796652e-05,-23.32710549,0.06817807356,170.7079227,-189.2920773,1.146332838,-0.06728344449,0.01100853358,43.69654134,43.68585513,0.9663261315,-1.083559639e-06,1.011813029e-06,0.02211988591,3.330676012e-07,
160000,-27.42085569,0.04255564876,-23.25489321,-23.25489321,1.08889425,0.03909832123,-0.01680192006,54.06772318,54.0371112,-1.819148894,5.468042762e-07,-1.809540867e-06,0.03366480653,-1.387905642e-06,-13.38206596,0.214238097,109.3856039,-970.6143961,1.54530029,-0.0711107934,0.2020921009,43.6060148,40.15176918,17.00940794,-5.848048314e-08,1.691957096e-05,0.4236278572,1.450989775e-05,-14.31524464,0.1924144873,-63.35391102,-783.353911,1.476517927,0.0862937038,-0.1719788697,59.14614146,55.69971322,-19.89492387,4.99986027e-08,-1.978984673e-05,0.3571818008,1.447904818e-05,-27.19530267,0.04367519641,172.0109856,-187.9890144,1.091339671,-0.04325131704,0.006070119869,45.85432715,45.85093546,0.5577051841,-1.783591802e-06,5.547596053e-07,0.01216344178,-1.243656492e-06,
168000,-27.54745659,0.04193987872,2.942225464,2.942225464,1.087551664,0.04188459359,0.002152730183,54.37153921,54.37103349,0.2345048128,-4.039792789e-06,2.221583341e-07,0.004313046814,-1.278988699e-06,-13.78665591,0.2044877068,69.42961092,-1010.570389,1.514103197,0.07184835861,0.1914498252,57.44551775,53.34400597,21.31676657,-4.444158304e-08,2.019445697e-05,0.3996094066,1.443395241e-05,-14.28600531,0.193063304,-104.5293683,-824.5293683,1.478509169,-0.04843499165,-0.1868889803,45.52952541,42.44289309,-16.47842562,5.749037401e-08,-1.561085054e-05,0.3882493491,1.446223345e-05,-26.54252471,0.04708404484,-162.586946,-162.586946,1.098820981,-0.04492628533,-0.01409028621,45.70134905,45.68313248,-1.290237159,7.342455183e-07,-1.222307272e-06,0.02824318494,-9.871549677e-07,
176000,-24.79719547,0.05756257674,0.116424484,0.116424484,1.122156814,0.0575624579,0.0001169665329,56.10782726,56.10782571,0.01316911088,-6.866746416e-05,1.190868803e-08,0.0002347107683,5.49353748e-07,-14.01087853,0.1992764939,27.51704443,-1052.482956,1.497741086,0.1767330281,0.09206822358,71.24158332,69.96690602,13.41623107,-6.740264421e-08,1.213215621e-05,0.1917510982,1.437270174e-05,-14.49291252,0.1885186729,-146.4702683,-866.4702683,1.464628493,-0.1571490339,-0.1041319892,36.54849961,35.72507104,-7.714410082,1.172208166e-07,-6.976059645e-06,0.2159382713,1.444400154e-05,-24.02775382,0.06289444788,-168.3149965,-168.3149965,1.134231299,-0.06159101418,-0.01273807466,44.19912517,44.18467474,-1.130125823,8.001670534e-07,-1.021960858e-06,0.02557732583,7.914137084e-07,
184000,-24.97814594,0.05637579807,-16.31940806,-16.31940806,1.119487817,0.05410442649,-0.01584113765,55.71839388,55.69027244,-1.770020075,4.886794952e-07,-1.531018719e-06,0.03178328993,4.211329681e-07,-14.25584759,0.1937347919,-14.47473634,-1094.474736,1.480573364,0.1875852519,-0.04842460995,73.02097355,72.65406703,-7.310890611,1.183128791e-07,-6.323719452e-06,0.1006260339,1.443482877e-05,-14.72054646,0.1836422804,171.5740492,-908.4259508,1.449906398,-0.1816600579,0.02690930198,34.63644312,34.58284406,1.926159117,-4.490659725e-07,1.666074699e-06,0.05569695521,1.450001288e-05,-24.49053139,0.05963118374,175.0859453,-184.9140547,1.126825098,-0.05941199819,0.005108086253,44.39212225,44.38978926,0.4551120676,-1.900570383e-06,3.936594305e-07,0.01025262961,8.956627439e-08,
192000,-28.16827437,0.03904687495,-21.53477043,-21.53477043,1.081266971,0.03632120715,-0.01433277204,53.76821159,53.74606673,-1.543012812,5.372165343e-07,-1.279052689e-06,0.02870931597,-1.462279557e-06,-14.50338191,0.188291582,-55.62912759,-1135.629128,1.463938966,0.1062995354,-0.1554159857,61.57790632,58.60976062,-18.88741662,4.388805584e-08,-1.565638394e-05,0.3222571875,1.428674387e-05,-14.95206551,0.1788120263,130.600758,-949.399242,1.435495969,-0.1163680525,0.1357653015,39.74774709,38.27068566,10.73489718,-7.721843829e-08,8.898499737e-06,0.2804992122,1.428710407e-05,-27.81196412,0.04068195304,171.7781825,-188.2218175,1.084814318,-0.04026381774,0.005817755933,46.12958704,46.12645437,0.5375946377,-1.541927574e-06,4.456293957e-07,0.01165480081,-1.67286908e-06,
