Frequency,S11_Magnitude,S11_Magnitude (linear),S11_Phase,S11_Unwrapped Phase,S11_VSWR,S11_Real,S11_Imaginary,S11_Impedance (absolute),S11_Resistance,S11_Reactance,S11_Capacitance,S11_Inductance,S11_Quality Factor,S11_Group delay,S12_Magnitude,S12_Magnitude (linear),S12_Phase,S12_Unwrapped Phase,S12_VSWR,S12_Real,S12_Imaginary,S12_Impedance (absolute),S12_Resistance,S12_Reactance,S12_Capacitance,S12_Inductance,S12_Quality Factor,S12_Group delay,S21_Magnitude,S21_Magnitude (linear),S21_Phase,S21_Unwrapped Phase,S21_VSWR,S21_Real,S21_Imaginary,S21_Impedance (absolute),S21_Resistance,S21_Reactance,S21_Capacitance,S21_Inductance,S21_Quality Factor,S21_Group delay,S22_Magnitude,S22_Magnitude (linear),S22_Phase,S22_Unwrapped Phase,S22_VSWR,S22_Real,S22_Imaginary,S22_Impedance (absolute),S22_Resistance,S22_Reactance,S22_Capacitance,S22_Inductance,S22_Quality Factor,S22_Group delay,
0,-13.83362461,0.2033849296,-134.1351049,-134.1351049,1.510622852,-0.1416276365,-0.1459693193,37.82599777,36.18524792,-11.01970692,inf,-inf,0.3045358967,1.956799636e-05,-13.96718406,0.2002814822,-133.3458962,-133.3458962,1.500879942,-0.1374734312,-0.1456493318,38.13950702,36.49596473,-11.07549339,inf,-inf,0.3034717254,-1.558361794e-06,-17.14551033,0.1389071125,-164.2289637,-164.2289637,1.322629799,-0.1336780253,-0.03775409187,38.22354193,38.11074774,-2.934291034,inf,-inf,0.0769937933,-1.637415695e-05,-17.2928405,0.1365708382,-163.672744,-163.672744,1.316345206,-0.1310631641,-0.03839323975,38.4277367,38.31063876,-2.997650029,inf,-inf,0.07824589007,-9.724442078e-06,
8000,-12.17436599,0.2461964014,72.05160057,72.05160057,1.653211,0.07586796867,0.2342151135,57.74724511,51.67847851,25.76973374,-7.720051783e-07,0.0005126725633,0.4986550393,1.956799636e-05,-27.89400464,0.04029951022,-147.4463332,-147.4463332,1.083983515,-0.03396796582,-0.02168473707,46.71629023,46.67227487,-2.027444691,9.812532977e-06,-4.033473055e-05,0.04344002294,-1.558361794e-06,-19.7762861,0.1026090567,49.59229944,49.59229944,1.228683067,0.06651347317,0.07813178864,57.07877761,56.38002826,8.90389057,-2.234345507e-06,0.0001771372746,0.1579263233,-1.637415695e-05,-13.5849702,0.2092914515,-150.9262432,-150.9262432,1.52937698,-0.1829196587,-0.1017020656,34.67518129,33.91630403,-7.214743114,2.757460324e-06,-0.0001435327537,0.2127219731,-9.724442078e-06,
16000,-0.5350028833,0.9402641024,-141.4343297,-141.4343297,32.48070557,-0.7351869913,-0.5861711951,17.55951976,1.727596286,-17.47432818,5.692455722e-07,-0.0001738203567,10.11482157,1.956799636e-05,-21.18738021,0.08722299386,144.9904947,-215.0095053,1.191115668,-0.07144059301,0.05004090654,43.34791246,43.12914412,4.349533541,-2.286954187e-06,4.32656102e-05,0.1008490577,-1.558361794e-06,-15.6461754,0.1650787722,-17.21814781,-17.21814781,1.395435561,0.1576807095,-0.04886506792,68.66556784,68.32162063,-6.864135838,1.449153131e-06,-6.827882179e-05,0.1004679891,-1.637415695e-05,-4.780574304,0.5767283293,15.31991691,15.31991691,3.725097705,0.5562346536,0.1523764284,166.6331174,151.57751,69.21599729,-1.437122101e-07,0.0006885042569,0.4566376456,-9.724442078e-06,
24000,-7.737487938,0.410322756,126.1263204,-233.8736796,2.39168591,-0.2419129483,0.3314255415,32.18392288,25.16765334,20.05976364,-3.305849501e-07,0.0001330254392,0.7970454525,2.935211745e-05,-20.61564232,0.09315751259,-72.74782957,-72.74782957,1.205454671,0.02762844566,-0.08896623597,52.81838782,51.98759152,-9.331260352,7.106709825e-07,-6.18798421e-05,0.1794901452,1.242577885e-06,-22.78419124,0.07257556707,121.3053042,121.3053042,1.156509931,-0.03771013487,0.06200934336,46.37945891,46.02314744,5.737953326,-1.155718003e-06,3.80509848e-05,0.1246753785,2.342293778e-06,-6.581974187,0.4687068392,-49.36138838,-49.36138838,2.764400048,0.3052620817,-0.3556700193,86.66707071,64.04814964,-58.38677652,1.135780455e-07,-0.0003871893373,0.9116075461,-1.89105293e-07,
32000,-6.831246856,0.4554468023,97.04838755,-262.9516125,2.672735755,-0.05588675076,0.4520049345,45.56709856,30.03960853,34.26342643,-1.451574606e-07,0.0001704123026,1.140608287,1.35990044e-05,-20.61233604,0.09319297974,-148.2547381,-148.2547381,1.205540931,-0.07925091279,-0.04903288994,42.6732838,42.46600052,-4.200946391,1.18392179e-06,-2.089379324e-05,0.09892493618,3.517313709e-05,-21.29094722,0.08618915816,35.70239403,35.70239403,1.18863676,0.06999069397,0.05029785027,57.50528912,57.21221121,5.798376115,-8.577560118e-07,2.88387569e-05,0.1013485756,1.134089285e-05,-5.870514042,0.5087147124,-74.42320546,-74.42320546,3.070954393,0.1366050124,-0.490030335,62.33807731,37.60267379,-49.71996386,1.000320914e-07,-0.0002472868131,1.322245438,1.10885628e-05,
40000,-6.656054365,0.4647263329,70.13975063,-289.8602494,2.736406483,0.1578801368,0.4370862923,65.22126916,43.54701581,48.55379867,-8.194772986e-08,0.0001931894266,1.11497419,7.381412657e-06,-14.28073074,0.1931805789,161.2831617,-198.7168383,1.478869432,-0.1829644198,0.06198997613,34.58519707,34.30190369,4.417607926,-9.006850865e-07,1.757710345e-05,0.1287860862,2.546957836e-05,-13.99741745,0.199585565,-10.59700188,-10.59700188,1.498705561,0.1961816279,-0.03670376868,74.36374877,74.14736657,-5.668788352,7.01891362e-07,-2.255539219e-05,0.07645299643,2.613349552e-05,-6.664513271,0.4642739714,-103.3315658,-103.3315658,2.7332515,-0.1070550096,-0.4517627092,41.84717084,27.43482692,-31.59930346,1.259164963e-07,-0.0001257296336,1.151795255,6.983774359e-06,
48000,-13.60094664,0.208906844,50.73329188,-309.2667081,1.528147267,0.1322236435,0.1617373722,64.78369167,61.36834795,20.75698861,-1.59740319e-07,6.882452794e-05,0.3382360664,7.351302123e-06,-10.13845027,0.3112271577,61.48182504,-298.518175,1.903714951,0.1485915187,0.2734646307,66.01620142,56.46873998,34.19678721,-9.696021913e-08,0.0001133872442,0.6055879274,2.499260565e-05,-10.17228931,0.3100170179,-114.5758519,-114.5758519,1.898622215,-0.1289353166,-0.2819330337,39.34122321,33.3789516,-20.82252227,1.592375764e-07,-6.904181974e-05,0.6238219378,2.514737876e-05,-13.25518342,0.217390634,-117.3702988,-117.3702988,1.555553366,-0.09994305989,-0.1930545843,41.21437925,38.19690009,-15.47972482,2.141981217e-07,-5.132655672e-05,0.4052612851,7.25667899e-06,
56000,-10.13509551,0.3113473865,42.99152601,-317.008474,1.904221898,0.2277364658,0.2123047273,77.78341466,70.39073384,33.09689088,-8.58706809e-08,9.406310328e-05,0.4701881777,6.411737616e-06,-10.49364557,0.2987567468,-4.378039498,-364.3780395,1.852077351,0.2978849998,-0.02280615466,92.39235041,92.2766963,-4.62144284,6.149708335e-07,-1.313438343e-05,0.05008244796,2.443983837e-05,-10.64702051,0.2935276207,-179.8779083,-179.8779083,1.830967011,-0.2935269543,-0.0006254782071,27.30802159,27.30799601,-0.03738187795,7.602754894e-05,-1.062412617e-07,0.001368898616,2.474487929e-05,-9.864891105,0.3211851406,-128.4541925,-128.4541925,1.946311461,-0.1997414253,-0.2515218828,34.21596764,29.84209348,-16.73863489,1.697899843e-07,-4.757208006e-05,0.560906858,6.105716431e-06,
64000,-11.57125319,0.2638987545,4.763749291,-355.2362507,1.717017546,0.2629871432,0.02191609259,85.65787925,85.56297151,4.031151706,-6.168946661e-07,1.002465188e-05,0.04711327382,4.352865825e-06,-9.386629798,0.339366141,-65.31765893,-425.3176589,2.027395543,0.1417149043,-0.3083606064,64.83700695,53.19156712,-37.07417777,6.707622759e-08,-9.219591645e-05,0.6969935232,2.079850906e-05,-9.610251159,0.3307405483,118.2205931,-241.7794069,1.988377669,-0.1563964532,0.2914265941,37.42066949,31.31141282,20.4915088,-1.213573881e-07,5.095820183e-05,0.6544421653,2.112460174e-05,-11.71890809,0.25945055,-166.3580696,-166.3580696,1.700697435,-0.2521311017,-0.06119228258,29.92792467,29.67355516,-3.893687087,6.386738149e-07,-9.682805418e-06,0.1312174111,4.126677169e-06,
72000,-17.18256339,0.1383158119,0.7955002492,-359.2044998,1.321035975,0.1383024807,0.001920328665,66.04993332,66.049427,0.2586209618,-8.547200911e-06,5.716778398e-07,0.003915567078,3.764541305e-06,-9.604525307,0.3309586487,-127.2507688,-487.2507688,1.989351848,-0.2003308153,-0.263441059,34.25605627,29.4818292,-17.44417205,1.267176977e-07,-3.856008624e-05,0.5916923245,1.978658423e-05,-9.86025836,0.321356495,56.67851377,-303.3214862,1.947055391,0.1765327596,0.2685259423,69.66439965,59.76570587,35.79370029,-6.175626724e-08,7.912144907e-05,0.5989003187,1.993064784e-05,-17.79310605,0.1289272436,-166.759997,-166.759997,1.29601946,-0.1255002588,-0.02952827774,38.85814937,38.78826585,-2.329421565,9.489417262e-07,-5.149152175e-06,0.06005480042,3.469525996e-06,
80000,-15.55819358,0.1667593989,9.150036878,-350.8499631,1.400267098,0.1646374371,0.02651813355,69.69146293,69.58799067,3.796256199,-5.24052299e-07,7.552411741e-06,0.05455332396,2.106153737e-06,-10.23987996,0.3076139326,-176.5803407,-536.5803407,1.888561879,-0.3070662014,-0.01834882809,26.5138981,26.49214457,-1.073810347,1.852689159e-06,-2.136277808e-06,0.04053316047,1.888274554e-05,-9.717664936,0.326675642,2.951672041,-357.048328,1.970336623,0.3262422492,0.01682170865,98.39855105,98.3288372,3.703325834,-5.37202741e-07,7.367532654e-06,0.03766266274,1.878264236e-05,-16.22700994,0.1544007847,-157.6415477,-157.6415477,1.365186679,-0.1427932613,-0.05873403476,37.5432735,37.27435932,-4.485479069,4.435282738e-07,-8.923577075e-06,0.1203368522,1.905870579e-06,
88000,-16.74194687,0.1455132887,-13.41101257,-373.4110126,1.340586429,0.141545333,-0.03374960604,66.46609352,66.30861871,-4.572600291,3.955252556e-07,-8.269908399e-06,0.06895936577,1.525618396e-06,-10.26479571,0.3067327968,126.3264885,-593.6735115,1.884890546,-0.1817041241,0.2471206587,35.40212854,31.07784503,16.95518367,-1.066681986e-07,3.066478741e-05,0.5455714081,1.795674605e-05,-10.64568227,0.2935728485,-49.24477658,-409.2447766,1.831148259,0.1916528145,-0.2223830391,72.29579092,65.00510597,-31.63886191,5.716320973e-08,-5.722137803e-05,0.4867134887,1.771752327e-05,-17.11518951,0.1393928586,177.2263722,-182.7736278,1.323940743,-0.1392295621,0.006745224839,37.77911875,37.77554392,0.5197071765,-3.479996007e-06,9.399314329e-07,0.01375776819,1.406199889e-06,
96000,-20.41421117,0.09534313794,-18.46160811,-378.4616081,1.210782987,0.09043640412,-0.03019223015,59.93279789,59.82182695,-3.645446993,4.547766005e-07,-6.043655298e-06,0.06093840958,1.90552343e-06,-10.67243813,0.2926699233,75.9821767,-644.0178233,1.827534225,0.07089159721,0.2839543369,57.01817044,48.43579647,30.08397215,-5.510788211e-08,4.987513412e-05,0.6211103015,1.752542829e-05,-11.09876321,0.2786517916,-99.28781169,-459.2878117,1.772586078,-0.04497269588,-0.2749986865,45.98722995,39.49808713,-23.55263109,7.038975749e-08,-3.904705897e-05,0.5962980185,1.714113603e-05,-21.22135326,0.08688250558,174.2042095,-185.7957905,1.190298633,-0.08643837357,0.008773673768,42.04444489,42.03787465,0.7432637747,-2.230519026e-06,1.232230248e-06,0.01768081238,1.828617386e-06,
104000,-20.39741322,0.0955277039,-7.367582155,-367.3675822,1.211234118,0.09473901533,-0.01224994642,60.46363125,60.44515745,-1.494538353,1.023952305e-06,-2.287145832e-06,0.02472552668,1.575120626e-06,-11.07038075,0.2795638177,27.89082936,-692.1091706,1.776095995,0.2470898285,0.1307766983,82.04365992,78.92821313,22.39418017,-6.833632578e-08,3.42706199e-05,0.2837284575,1.670004318e-05,-11.50868835,0.265806491,-147.3340795,-507.3340795,1.724077475,-0.2237644014,-0.1434663143,32.03283969,30.60723202,-9.449876523,1.619424325e-07,-1.446148616e-05,0.3087465249,1.662195668e-05,-20.78708098,0.09133683343,-172.932154,-172.932154,1.201035624,-0.09064277816,-0.01123850116,41.69002012,41.67931509,-0.9447072034,1.619905073e-06,-1.445719435e-06,0.02266609231,1.469747079e-06,
112000,-19.90404471,0.1011108507,-21.31121572,-381.3112157,1.224968453,0.09419690117,-0.03674708081,60.38365096,60.21787203,-4.47137469,3.178052336e-07,-6.353940931e-06,0.07425328293,7.843713721e-07,-11.41464755,0.2686999727,-19.72867856,-739.7286786,1.734855634,0.2529277407,-0.09070409736,83.46239973,81.9113478,-16.01571948,8.8726971e-08,-2.275875823e-05,0.1955250391,1.632215135e-05,-11.86842654,0.2550226022,165.1639647,-554.8360353,1.684645206,-0.246520796,0.06529950023,30.29503661,30.00374181,4.19102864,-3.390638432e-07,5.955561827e-06,0.1396835324,1.62511947e-05,-20.34419934,0.09611474835,171.105625,-188.894375,1.212670244,-0.09495897328,0.0148606273,41.32938737,41.31080369,1.239257228,-1.146675803e-06,1.761017086e-06,0.029998381,4.512664137e-07,
120000,-22.88562099,0.07173299278,-34.66794579,-394.6679458,1.154552499,0.05899768916,-0.04080312399,56.25855291,56.07023075,-4.59934766,2.883650662e-07,-6.100074293e-06,0.0820283348,1.267575587e-07,-11.90463644,0.2539616721,-66.29870567,-786.2987057,1.680827412,0.1020845826,-0.2325408972,60.71719979,54.36904058,-27.02935028,4.906855617e-08,-3.584878921e-05,0.4971459858,1.604713107e-05,-12.38773283,0.240222321,119.1731591,-600.8268409,1.632348982,-0.1170965324,0.2097502458,39.92004278,36.46928407,16.23579795,-8.168931375e-08,2.153339582e-05,0.4451910247,1.596929555e-05,-23.7645332,0.06482959974,157.6113065,-202.3886935,1.138647673,-0.05994282325,0.02469281155,44.34797469,44.29353659,2.196696349,-6.037662844e-07,2.91345902e-06,0.04959406084,-1.549232865e-07,
128000,-25.54478001,0.05281545182,-16.10637405,-376.1063741,1.111520932,0.05074235542,-0.0146521438,55.34426588,55.32038502,-1.625659203,7.648577207e-07,-2.02134139e-06,0.02938625974,-1.156936586e-07,-12.19033306,0.2457442398,-111.9620352,-831.9620352,1.651620452,-0.09190641633,-0.2279110398,41.96811908,37.75950228,-18.31783302,6.787909854e-08,-2.277635682e-05,0.4851184979,1.582623534e-05,-12.67287448,0.2324643048,73.4413653,-646.5586347,1.605742003,0.06625149507,0.2228236801,56.73556325,51.32516074,24.17957842,-5.142347693e-08,3.006483928e-05,0.4711057514,1.575276322e-05,-26.37169447,0.04801923938,-177.5657572,-177.5657572,1.100882794,-0.04797590801,-0.002039510227,45.42205915,45.42167954,-0.1857041653,6.695584833e-06,-2.309041865e-07,0.00408844779,-2.953527183e-07,
136000,-22.93299256,0.07134283645,-11.79531183,-371.7953118,1.153647308,0.06983636955,-0.01458361414,57.50624133,57.48154527,-1.685154453,6.944508455e-07,-1.972063684e-06,0.02931644313,1.031432545e-06,-12.45173303,0.238458797,-157.0711797,-877.0711797,1.626253172,-0.2196180616,-0.09290051068,32.12571708,31.519892,-6.209517418,1.884618169e-07,-7.266730818e-06,0.1970031312,1.563099658e-05,-12.92441968,0.2258286383,28.56936433,-691.4306357,1.583407368,0.1983314731,0.1079962994,74.37093402,72.51641099,16.50472553,-7.090435601e-08,1.93147695e-05,0.2275998674,1.55757214e-05,-23.32576557,0.06818859179,-176.3655676,-176.3655676,1.146357066,-0.06805145183,-0.004322494014,43.62856015,43.62691466,-0.3789159946,3.088433719e-06,-4.434290703e-07,0.008685372264,9.004021822e-07,
144000,-22.81300201,0.07233523543,-31.08154401,-391.081544,1.155951241,0.06195031341,-0.0373436066,56.59432008,56.43547977,-4.237179268,2.608439696e-07,-4.683111287e-06,0.07508006107,7.858848843e-07,-12.76278624,0.2300703684,157.7597696,-922.2402304,1.597639989,-0.2129542958,0.0870795171,32.55751692,32.02060422,5.888362515,-1.876994933e-07,6.508069451e-06,0.1838929233,1.551336838e-05,-13.23616153,0.2178672359,-16.37392826,-736.3739283,1.557110623,0.2090310531,-0.06141784214,76.29610047,75.66950859,-9.758094892,1.132641845e-07,-1.078506276e-05,0.1289567631,1.53698567e-05,-23.62206514,0.065901719,162.3471412,-197.6528588,1.141102324,-0.06279849325,0.01998463942,44.09344195,44.05795631,1.768646036,-6.249089067e-07,1.95478305e-06,0.04014362407,2.076111871e-07,
152000,-26.50579003,0.04728359607,-42.03298945,-402.0329895,1.09926059,0.03512033705,-0.03165912795,53.6360853,53.52840909,-3.39692013,3.0824157e-07,-3.556819934e-06,0.06346013617,-6.833148501e-07,-13.09838209,0.2213506978,113.7540412,-966.2459588,1.56855043,-0.08916255069,0.2025985463,42.11316944,38.74307081,16.50737728,-6.343054844e-08,1.728441244e-05,0.4260730224,1.534739046e-05,-13.58556742,0.2092770616,-60.20958235,-780.2095823,1.529330949,0.1039748768,-0.1816207959,61.18779356,57.19964043,-21.72894879,4.81878808e-08,-2.275177374e-05,0.379879115,1.526865628e-05,-28.20382234,0.03888739781,154.6890659,-205.3109341,1.080921627,-0.03515424566,0.01662554423,46.60486833,46.57904772,1.551149731,-6.750296076e-07,1.624165442e-06,0.03330144789,-1.275756413e-06,
160000,-28.91436485,0.0358328835,-12.30427758,-372.3042776,1.074329196,0.03500979024,-0.007636106788,53.62777487,53.62150579,-0.8199719289,1.213112741e-06,-8.156411605e-07,0.01529184824,-9.939826627e-07,-13.15900166,0.2198112505,69.23284972,-1010.76715,1.563482236,0.07793868064,0.2055299198,58.08030308,53.31918193,23.03012037,-4.319206232e-08,2.290848436e-05,0.4319293645,1.525108486e-05,-14.09569931,0.1973399593,-103.4950978,-823.4950978,1.491714921,-0.0460516807,-0.1918913814,45.74756876,42.48530046,-16.9658272,5.863070408e-08,-1.687622039e-05,0.3993340525,1.522634649e-05,-29.34325646,0.03410650178,-166.082675,-166.082675,1.070621661,-0.0331052644,-0.008203348845,46.79576642,46.78945479,-0.7685544634,1.294271833e-06,-7.644952618e-07,0.01642580507,-1.155160317e-06,
168000,-25.15893614,0.05521450628,-11.34421121,-371.3442112,1.116882629,0.05413578978,-0.0108608457,55.72270512,55.70948343,-1.213804663,7.804804847e-07,-1.149898881e-06,0.02178811557,8.1837519e-07,-13.58753771,0.2092295951,26.18985763,-1053.810142,1.529179124,0.1877493546,0.09234285727,72.86596296,71.54376823,13.81802391,-6.855906876e-08,1.309051672e-05,0.1931408459,1.5184928e-05,-14.05525832,0.1982609048,-147.7387014,-867.7387014,1.494577116,-0.1676538974,-0.1058279599,35.78208475,34.94405659,-7.69873353,1.230528175e-07,-7.293401767e-06,0.2203159645,1.519857213e-05,-25.17647623,0.05510311981,-173.7797671,-173.7797671,1.116633087,-0.05477871475,-0.005970445828,44.80679149,44.80357796,-0.5366240507,1.765390222e-06,-5.083712515e-07,0.01197725885,9.822810577e-07,
176000,-24.96702756,0.05644800817,-32.11258279,-392.1125828,1.119650022,0.04781175644,-0.03000689207,55.01649586,54.9170565,-3.306315545,2.735036742e-07,-2.989866263e-06,0.060205622,1.049657974e-06,-13.85147986,0.2029672685,-18.07376068,-1098.073761,1.509307235,0.1929524393,-0.06296878795,73.78706754,73.15868305,-9.60928869,9.410576356e-08,-8.689578378e-06,0.1313485739,1.50610318e-05,-14.30149192,0.1927193862,168.1312418,-911.8687582,1.477453275,-0.1885992919,0.03963671186,34.15435873,34.03918731,2.802489515,-3.226736245e-07,2.5342617e-06,0.08233126981,1.510571779e-05,-25.64588486,0.05220423754,163.2158663,-196.7841337,1.110159255,-0.04998031088,0.01507484464,45.24091374,45.22025328,1.367102326,-6.614643487e-07,1.236256209e-06,0.03023208024,6.965396289e-07,
184000,-28.75127949,0.03651203385,-43.91343958,-403.9134396,1.075791365,0.02630284725,-0.02532368145,52.6995584,52.631917,-2.669226222,3.240536563e-07,-2.308807323e-06,0.05071497247,-1.216002443e-06,-14.1264182,0.1966432712,-61.2556168,-1141.255617,1.489554053,0.09456630359,-0.1724116885,60.10950373,56.57979527,-20.29480738,4.262038563e-08,-1.755445062e-05,0.3586935457,1.523011884e-05,-14.56047707,0.1870579396,125.1178092,-954.8821908,1.46019993,-0.1076068623,0.1530079604,40.48809509,38.59406227,12.2386356,-7.067556754e-08,1.058608344e-05,0.3171118788,1.502856951e-05,-30.56840672,0.02961963236,155.894948,-204.105052,1.061047468,-0.02703674621,0.01209698209,47.36787494,47.35399334,1.146686833,-7.543232311e-07,9.918525958e-07,0.02421520873,-1.801596643e-06,
192000,-31.25947817,0.0273543306,-11.13473821,-371.1347382,1.056247268,0.02683940607,-0.005282583119,52.75788355,52.75493489,-0.5577820227,1.486121749e-06,-4.62363365e-07,0.01057307764,-1.651874805e-06,-14.31604497,0.1923967589,-103.923271,-1183.923271,1.476463563,-0.04629494777,-0.1867439173,45.71834913,42.62473548,-16.53176858,5.014176138e-08,-1.370371191e-05,0.3878444849,1.510153683e-05,-14.7404913,0.1832210783,82.55431065,-997.4456894,1.448643013,0.0237429496,0.1816761842,52.35246104,49.00343041,18.42400569,-4.499195284e-08,1.52722478e-05,0.3759737949,1.498498177e-05,-31.03766923,0.02806186547,-160.9502032,-160.9502032,1.057744139,-0.02652506475,-0.009159106604,47.4162447,47.40827874,-0.8691193618,9.537608201e-07,-7.204408467e-07,0.01833264959,-1.751895943e-06,
