Frequency,S11_Magnitude,S11_Magnitude (linear),S11_Phase,S11_Unwrapped Phase,S11_VSWR,S11_Real,S11_Imaginary,S11_Impedance (absolute),S11_Resistance,S11_Reactance,S11_Capacitance,S11_Inductance,S11_Quality Factor,S11_Group delay,S12_Magnitude,S12_Magnitude (linear),S12_Phase,S12_Unwrapped Phase,S12_VSWR,S12_Real,S12_Imaginary,S12_Impedance (absolute),S12_Resistance,S12_Reactance,S12_Capacitance,S12_Inductance,S12_Quality Factor,S12_Group delay,S21_Magnitude,S21_Magnitude (linear),S21_Phase,S21_Unwrapped Phase,S21_VSWR,S21_Real,S21_Imaginary,S21_Impedance (absolute),S21_Resistance,S21_Reactance,S21_Capacitance,S21_Inductance,S21_Quality Factor,S21_Group delay,S22_Magnitude,S22_Magnitude (linear),S22_Phase,S22_Unwrapped Phase,S22_VSWR,S22_Real,S22_Imaginary,S22_Impedance (absolute),S22_Resistance,S22_Reactance,S22_Capacitance,S22_Inductance,S22_Quality Factor,S22_Group delay,
0,-13.13758324,0.2203539489,-132.5040507,-132.5040507,1.565266633,-0.1488804555,-0.1624514474,37.33851555,35.33507699,-12.06636139,inf,-inf,0.3414839424,-2.548203842e-05,-13.41519698,0.2134224745,-131.5780006,-131.5780006,1.542661003,-0.1416354857,-0.1596513132,37.86985573,35.91347054,-12.01451651,inf,-inf,0.3345406705,1.099820603e-06,-14.88931979,0.1801084176,-168.9802164,-168.9802164,1.439346912,-0.1767874419,-0.03442735104,34.99271563,34.90444576,-2.483910904,inf,-inf,0.07116316705,1.112672215e-05,-15.1024922,0.1757419294,-168.4259366,-168.4259366,1.426424528,-0.1721684234,-0.03525988847,35.32800883,35.23484656,-2.56394143,inf,-inf,0.07276720861,-5.333319523e-06,
8000,-30.15642357,0.03105838161,-151.7117549,-151.7117549,1.064107849,-0.02734922194,-0.01471880182,47.33844627,47.31790891,-1.394270794,1.426865425e-05,-2.77381361e-05,0.02946602725,-2.548203842e-05,-24.57521393,0.05905263801,-68.2076637,-68.2076637,1.12551741,0.02192291635,-0.05483247026,52.23455802,51.9211033,-5.713850125,3.48177979e-06,-0.0001136734364,0.1100487039,1.099820603e-06,-27.54142485,0.04196901317,144.7365995,-215.2634005,1.087615148,-0.03426797406,0.02423022946,46.68862318,46.63370443,2.263878309,-8.787737313e-06,4.503842792e-05,0.04854596769,1.112672215e-05,-21.86844342,0.08064507103,-20.73409411,-20.73409411,1.175438383,0.07542197433,-0.02855088912,58.15022158,58.05441095,-3.336710824,5.962269114e-06,-6.638175265e-05,0.05747557798,-5.333319523e-06,
16000,5.812902669,1.952743197,-64.10155295,-64.10155295,nan,0.8529141091,-1.756628451,72.42101493,-45.26655909,-56.53089449,1.759601371e-07,-0.0005623232059,-1.248844525,-2.548203842e-05,-12.26968963,0.243509281,-178.3001397,-178.3001397,1.643786566,-0.2434021204,-0.007223412142,30.42537811,30.4217908,-0.4672018252,2.129097835e-05,-4.647342494e-06,0.01535747282,1.099820603e-06,-10.67237781,0.2926719558,44.16715951,-315.8328405,1.827542349,0.2099365461,0.2039203773,75.18792519,68.66667166,30.62861893,-3.247676288e-07,0.0003046685065,0.4460478161,1.112672215e-05,3.080815306,1.425741415,67.41222512,67.41222512,nan,0.5476248964,1.316375917,72.98265157,-26.65147247,67.94237592,-1.464061833e-07,0.0006758353108,-2.549291638,-5.333319523e-06,
24000,-7.432158717,0.4250030671,121.847546,121.847546,2.478279423,-0.224257494,0.361021029,33.51810069,25.14735038,22.16018599,-2.992509163e-07,0.0001469542975,0.8812135535,-1.953738192e-05,-23.58877517,0.06615478181,-63.42809163,-63.42809163,1.141682541,0.0295923992,-0.05916709446,53.03851039,52.6678128,-6.259798638,1.059372089e-06,-4.1511579e-05,0.1188543496,9.202633613e-06,-22.59721579,0.07415479016,131.7864351,-228.2135649,1.160188311,-0.04941348628,0.05529231663,45.30503464,45.02751689,5.00688396,-1.324467676e-06,3.320293049e-05,0.1111960931,1.220595753e-05,-6.554194574,0.4702082788,-51.67640512,-51.67640512,2.775068427,0.2915771678,-0.3688883038,84.0868254,61.04824556,-57.82478638,1.14681893e-07,-0.0003834625244,0.9471981684,1.224016174e-05,
32000,-6.735807082,0.4604788058,97.65765213,97.65765213,2.706990608,-0.06136050629,0.4563722371,45.16955496,29.51685099,34.19128841,-1.454637191e-07,0.0001700535175,1.158365045,-5.224198476e-06,-20.78882859,0.09131845827,-149.8052033,-149.8052033,1.200991115,-0.07892841372,-0.04592783829,42.69891841,42.51691115,-3.938261038,1.262890378e-06,-1.958730348e-05,0.092628108,1.356190473e-05,-21.0626233,0.08848483289,37.27006684,-322.7299332,1.194148899,0.07041534163,0.05358400241,57.55148464,57.21866859,6.180400401,-8.047362062e-07,3.073878982e-05,0.1080137052,1.647337509e-05,-6.198349825,0.489871878,-76.15497994,-76.15497994,2.9205837,0.1172246019,-0.4756394113,60.54588882,37.79246422,-47.30258239,1.051441955e-07,-0.000235263744,1.251640595,1.549228899e-05,
40000,-7.574981802,0.4180718343,48.74694219,48.74694219,2.436850316,0.275670689,0.3143083357,83.19704769,66.18218218,50.4149532,-7.892248877e-08,0.0002005947252,0.761760213,7.238031605e-06,-14.72560194,0.1835354255,145.0269441,-214.9730559,1.449585766,-0.1503929077,0.1052008827,37.05421501,36.2059085,7.883339346,-5.047193077e-07,3.136681062e-05,0.2177362666,2.599084089e-05,-14.80051148,0.1819593707,-27.58064264,-387.5806426,1.444866341,0.1612815174,-0.08424657089,69.06391658,68.03856088,-11.85659336,3.355832032e-07,-4.717588602e-05,0.1742628474,2.679342512e-05,-7.153003822,0.4388840611,-125.2088206,-125.2088206,2.564325768,-0.2530421637,-0.3585929203,31.78648567,23.76461692,-21.10979994,1.884846653e-07,-8.399322522e-05,0.8882869862,6.76997062e-06,
48000,-13.75567071,0.2052184789,47.67720699,47.67720699,1.516414822,0.1381749758,0.1517310125,65.60796599,62.54436972,19.81431345,-1.673400388e-07,6.569887354e-05,0.316804111,6.657416463e-06,-10.09576358,0.3127604442,62.18091425,-297.8190857,1.910193371,0.1459594433,0.2766133336,65.65923731,55.97348745,34.32352177,-9.660220775e-08,0.0001138074615,0.6132103489,2.421243287e-05,-10.07638225,0.3134591039,-113.365903,-473.365903,1.913154936,-0.1243184007,-0.2877525761,39.71144632,33.47493509,-21.36416837,1.552004236e-07,-7.083777085e-05,0.6382138848,2.449264245e-05,-13.37595796,0.2143888043,-118.9105286,-118.9105286,1.545788567,-0.1036448201,-0.1876707507,40.90223848,38.06246823,-14.97469949,2.214220047e-07,-4.96520301e-05,0.3934242887,6.297341296e-06,
56000,-10.26333656,0.3067843295,42.61011344,42.61011344,1.885105004,0.225786394,0.2076947979,77.54963165,70.49195116,32.32383318,-8.792436649e-08,9.186603269e-05,0.458546439,4.995134082e-06,-10.52870712,0.2975532127,-3.689259268,-363.6892593,1.847190757,0.2969365926,-0.01914613191,92.21054613,92.12927786,-3.870527001,7.342805138e-07,-1.100024115e-05,0.04201191078,2.320063153e-05,-10.60607613,0.2949145459,-178.7209018,-538.7209018,1.836535612,-0.2948410588,-0.006583265739,27.23039062,27.22755967,-0.3926424361,7.238271501e-06,-1.115910439e-06,0.01442077222,2.340374237e-05,-9.94233187,0.3183342786,-127.7862077,-127.7862077,1.933989399,-0.1950487699,-0.2515803854,34.52834656,30.12748585,-16.86835239,1.684843007e-07,-4.7940744e-05,0.5598991057,4.603873167e-06,
64000,-11.54836568,0.2645950505,4.859269438,4.859269438,1.719590073,0.2636440339,0.02241348086,85.77765286,85.67817859,4.129823616,-6.021554954e-07,1.027002879e-05,0.04820158043,4.885603306e-06,-9.456891747,0.3366320119,-64.10613506,-424.1061351,2.014917867,0.1470090389,-0.302835688,65.53104802,54.11177868,-36.96259815,6.727871173e-08,-9.191844071e-05,0.6830786023,2.202969549e-05,-9.641335237,0.3295590469,120.1461452,-599.8538548,1.983111325,-0.165506977,0.2849852732,36.74704209,30.95917336,19.79582499,-1.256222455e-07,4.922817811e-05,0.6394171044,2.174960414e-05,-11.63333601,0.2620192503,-165.548001,-165.548001,1.710097792,-0.2537281917,-0.06539183654,29.83558929,29.54570538,-4.148937384,5.993814212e-07,-1.031756083e-05,0.1404243808,4.86172835e-06,
72000,-17.10518113,0.1395535677,-1.774019808,-1.774019808,1.324374795,0.1394866797,-0.004320235114,66.2093475,66.20677697,-0.5834199036,3.788841119e-06,-1.289641133e-06,0.008812087377,4.092397441e-06,-9.594899023,0.3313256425,-125.9186254,-485.9186254,1.990992518,-0.1943674334,-0.2683243974,34.68328166,29.70358553,-17.90606137,1.234489973e-07,-3.958108581e-05,0.6028249133,2.035355667e-05,-9.827992578,0.3225524694,58.64944324,-661.3505568,1.95225816,0.1678152985,0.2754598357,68.43924721,58.29963752,35.84805189,-6.166263449e-08,7.924159247e-05,0.6148932209,2.02124988e-05,-17.686919,0.1305130834,-168.185858,-168.185858,1.300207124,-0.1277484096,-0.02672094258,38.67954595,38.62250639,-2.099827306,1.052698627e-06,-4.641637435e-06,0.05436797096,3.846333064e-06,
80000,-15.80942718,0.1620050829,-0.48341399,-0.48341399,1.386649321,0.1619993167,-0.001366847524,69.33160068,69.33132747,-0.1946391367,1.022115502e-05,-3.87222259e-07,0.00280737646,2.128960687e-06,-8.877285488,0.3598617815,166.0679822,-553.9320178,2.124325251,-0.3492753988,0.08664408551,24.27666963,23.80949316,4.739696612,-4.197392684e-07,9.429326807e-06,0.199067514,1.880857624e-05,-9.719110863,0.3266212653,-5.245375071,-725.2453751,1.970096763,0.3252534768,-0.02986012002,98.13268182,97.91412653,-6.545767069,3.039272201e-07,-1.302238982e-05,0.06685212135,1.875224892e-05,-15.3591396,0.1706251397,-168.7195917,-168.7195917,1.411454815,-0.1673289355,-0.0333761238,35.67971566,35.59568276,-2.44734112,8.128972182e-07,-4.868830459e-06,0.06875387492,1.880884652e-06,
88000,-16.84477503,0.1438007822,-13.649068,-13.649068,1.335904961,0.139739743,-0.03393330508,66.22174659,66.06330409,-4.578162799,3.950446889e-07,-8.279968633e-06,0.06929963407,1.19125906e-06,-10.27822687,0.3062588563,128.1324661,-591.8675339,1.882919686,-0.1891092345,0.2408987017,34.86117947,30.78116634,16.36525689,-1.105133217e-07,2.959785828e-05,0.531664613,1.722976338e-05,-10.62925096,0.2941287329,-47.0851244,-767.0851244,1.833377831,0.2002754999,-0.2154099247,73.61817126,66.58459244,-31.40266214,5.759317127e-08,-5.679419211e-05,0.4716205504,1.731075254e-05,-17.00310567,0.1412032577,178.4123915,-181.5876085,1.328839761,-0.141149054,0.003912099862,37.63114055,37.62994142,0.3004139385,-6.020289564e-06,5.433223101e-07,0.007983375132,9.584496208e-07,
96000,-20.3566738,0.0959768098,-19.86024036,-19.86024036,1.212332628,0.09026850289,-0.03260591059,59.91086618,59.78151865,-3.934706441,4.213437559e-07,-6.523208123e-06,0.06581810784,1.3256754e-06,-10.68582918,0.2922190611,78.02482137,-641.9751786,1.825733063,0.0606319262,0.285859667,55.93637729,47.43187106,29.64955164,-5.591531402e-08,4.9154924e-05,0.6250976608,1.613551496e-05,-11.08825402,0.2789891404,-97.01895545,-817.0189554,1.773883324,-0.03409183288,-0.2768983341,46.93100656,40.23342442,-24.16176601,6.861518276e-08,-4.005692181e-05,0.6005396349,1.634869074e-05,-20.91709525,0.08997984436,174.0681353,-185.9318647,1.19775352,-0.08949804691,0.009299031744,41.78604431,41.77870115,0.7833451908,-2.116390079e-06,1.298679784e-06,0.01874986941,1.031929245e-06,
104000,-20.59465885,0.09338283561,-9.239737086,-9.239737086,1.206002797,0.09217120669,-0.01499408696,60.15039306,60.12288765,-1.81883651,8.413818301e-07,-2.783430973e-06,0.03025198192,1.498565359e-06,-11.0776838,0.2793288607,29.99436238,-690.0056376,1.775190917,0.2419196305,0.1396406273,81.0644842,77.58314686,23.50118983,-6.511738353e-08,3.596471663e-05,0.3029161716,1.664775452e-05,-11.50752256,0.2658421693,-144.7386031,-864.7386031,1.724209858,-0.2170672392,-0.1534727098,32.51933787,30.87865177,-10.19883327,1.500501038e-07,-1.560764162e-05,0.3302875186,1.650363778e-05,-20.76249024,0.09159578473,-173.381396,-173.381396,1.201663055,-0.09098533482,-0.0105573021,41.66111953,41.65167811,-0.8868995974,1.725489555e-06,-1.357254375e-06,0.02129325006,1.415180025e-06,
112000,-20.08902573,0.09898028804,-21.77780521,-21.77780521,1.219707264,0.09191602675,-0.03672249237,60.10683757,59.94217975,-4.446010475,3.196182928e-07,-6.317897716e-06,0.07417165164,7.378624922e-07,-11.40851364,0.2688897939,-17.21438138,-737.2143814,1.735565696,0.2568446358,-0.07957734777,84.24905873,83.03594733,-14.24553782,9.975237829e-08,-2.024328358e-05,0.1715586837,1.626391801e-05,-11.84727682,0.2556443265,168.1602176,-911.8397824,1.686887561,-0.2502055354,0.05245199426,30.03371104,29.84630271,3.349927426,-4.241961383e-07,4.7603349e-06,0.1122392766,1.614278498e-05,-20.23746957,0.09730306519,172.3175209,-187.6824791,1.215583019,-0.09642968513,0.01300777919,41.20648884,41.19228388,1.081883416,-1.313474499e-06,1.537384763e-06,0.02626422509,5.422081151e-07,
120000,-22.91991034,0.07145037018,-34.26962674,-34.26962674,1.153896718,0.05904636522,-0.04023284919,56.2643481,56.0812237,-4.535770645,2.924070232e-07,-6.015752658e-06,0.08087859618,9.442841658e-08,-11.8501469,0.2555598678,-63.97559764,-783.9755976,1.686582727,0.1121278899,-0.2296479531,61.91269107,55.56646595,-27.30474642,4.857364987e-08,-3.621404469e-05,0.4913889331,1.597459316e-05,-12.40828872,0.2396544867,122.6729051,-957.3270949,1.630383115,-0.1293756326,0.2017330382,38.94921144,35.80671948,15.32709731,-8.65324442e-08,2.032819416e-05,0.4280508667,1.588689553e-05,-23.46165969,0.06713005696,158.9091063,-201.0908937,1.143921578,-0.06263306406,0.02415665196,44.10910925,44.05725451,2.138187149,-6.202877016e-07,2.835858784e-06,0.04853201074,-4.83841883e-08,
128000,-25.55311082,0.05276481974,-17.97051542,-17.97051542,1.111408066,0.05019070972,-0.01627939988,55.28281566,55.25337337,-1.8040061,6.892426766e-07,-2.243097564e-06,0.03264970064,-1.283004906e-07,-12.15530495,0.2467372685,-109.190618,-829.190618,1.655116092,-0.08110550189,-0.2330261299,42.85884388,38.39130819,-19.05224275,6.52625525e-08,-2.36895204e-05,0.4962644841,1.575033171e-05,-12.61239158,0.2340886844,76.81918679,-1003.180813,1.611268379,0.05337803303,0.2279216921,55.34469084,49.85027246,24.04132151,-5.171920322e-08,2.989293091e-05,0.4822706141,1.569701783e-05,-25.98346706,0.05021421143,-179.8849127,-179.8849127,1.105737972,-0.05021411013,-0.0001008627967,45.21867882,45.2186779,-0.009144823004,0.0001359674203,-1.137065457e-08,0.0002022355236,-2.659559491e-07,
136000,-23.1434255,0.06963518356,-12.50315118,-12.50315118,1.149694361,0.06798372264,-0.01507555127,57.29247692,57.26619862,-1.735052397,6.744793046e-07,-2.0304571e-06,0.03029801941,9.978445524e-07,-12.42120228,0.2392984502,-154.0516609,-874.0516609,1.629151999,-0.2151745196,-0.1047075661,32.45856254,31.68621094,-7.038630411,1.662620235e-07,-8.237006048e-06,0.22213544,1.554354116e-05,-12.87161302,0.2272057662,32.16061667,-1047.839383,1.588011029,0.1923431427,0.1209403805,73.37561759,71.09957262,18.1337263,-6.453482947e-08,2.122111895e-05,0.25504691,1.553737657e-05,-23.23118988,0.06893511524,-176.5834469,-176.5834469,1.148078005,-0.06881259357,-0.004108172295,43.56187397,43.56038957,-0.3596160848,3.25418407e-06,-4.20843217e-07,0.008255575498,8.220444988e-07,
144000,-22.9226848,0.07142755102,-30.81351592,-30.81351592,1.153843787,0.06134477245,-0.03658843995,56.52604662,56.37376363,-4.146410682,2.665540741e-07,-4.582789973e-06,0.07355213517,8.314828583e-07,-12.73068646,0.230922195,161.0188736,-918.9811264,1.600517122,-0.2183659781,0.07510898582,32.16383996,31.76639986,5.040678644,-2.192646543e-07,5.571173075e-06,0.1586795692,1.53838488e-05,-13.18781749,0.219083225,-12.620695,-1092.620695,1.561092378,0.2137897155,-0.04786874794,77.10964828,76.72266898,-7.71556366,1.432484662e-07,-8.527570106e-06,0.1005643281,1.531158277e-05,-23.30350146,0.06836360038,163.8935631,-196.1064369,1.146760261,-0.06568019189,0.01896560705,43.83887069,43.80707128,1.669457748,-6.620369171e-07,1.845155922e-06,0.03810932114,3.885430016e-07,
152000,-26.36597963,0.0480508438,-42.21708804,-42.21708804,1.100952542,0.03558665806,-0.03228735601,53.68599047,53.57389145,-3.467524723,3.01965257e-07,-3.630748026e-06,0.06472415255,-6.132832908e-07,-13.0491964,0.2226076986,117.0926639,-962.9073361,1.572703635,-0.1013824293,0.1981812062,41.11499102,37.94743103,15.82513712,-6.616511352e-08,1.657005788e-05,0.4170278907,1.52475455e-05,-13.52736539,0.2106840851,-56.34537661,-1136.345377,1.533839699,0.1167580376,-0.1753720171,62.76868367,58.92499432,-21.62759105,4.841371336e-08,-2.264564489e-05,0.3670359464,1.520248513e-05,-27.31563732,0.04307429064,155.1824276,-204.8175724,1.090026405,-0.03909632783,0.01807959247,46.23865342,46.20834255,1.673961864,-6.255052857e-07,1.752758587e-06,0.03622639921,-1.036288264e-06,
160000,-28.55415178,0.03735015521,-15.08690015,-15.08690015,1.077598631,0.03606277627,-0.009721638853,53.74082827,53.73064465,-1.046159273,9.508288269e-07,-1.040633872e-06,0.01947043963,-1.051357278e-06,-13.40948419,0.2135628906,73.70979684,-1006.290203,1.543114988,0.05990494404,0.2049890386,56.09868039,51.54416157,22.1418461,-4.492481746e-08,2.20249016e-05,0.4295704,1.516921146e-05,-13.8863462,0.2021541632,-99.41460846,-1179.414608,1.506749936,-0.03306787244,-0.1994312451,46.9178479,43.32122482,-18.01543592,5.521478351e-08,-1.79202855e-05,0.4158570308,1.514073368e-05,-28.46090939,0.03775326624,-171.3628692,-171.3628692,1.078468993,-0.0373251165,-0.005669637558,46.40190354,46.39891215,-0.5268809983,1.887937499e-06,-5.240982206e-07,0.01135546016,-1.132005145e-06,
168000,-25.43796517,0.05346896056,-11.53517968,-11.53517968,1.112978779,0.05238900025,-0.01069216514,55.52786568,55.51510102,-1.190556975,7.957207188e-07,-1.127875164e-06,0.02144564187,6.627678558e-07,-13.5276365,0.2106775092,30.03822231,-1049.961778,1.533818589,0.1823817623,0.1054604458,71.99707295,70.30494207,15.51752669,-6.105037681e-08,1.470054213e-05,0.220717438,1.512570027e-05,-13.98366205,0.1999018886,-143.3582124,-1223.358212,1.49969344,-0.1603977604,-0.1193034934,36.34914292,35.27594342,-8.76744018,1.080533009e-07,-8.305841922e-06,0.2485387868,1.511205581e-05,-25.04364635,0.05595226634,-174.0326797,-174.0326797,1.118536943,-0.05564908078,-0.005816864889,44.72861838,44.72557278,-0.521959303,1.814989878e-06,-4.944785902e-07,0.01167026537,8.158055747e-07,
176000,-25.02782711,0.05605426273,-31.0149253,-31.0149253,1.118765858,0.04804035891,-0.02888259485,55.04204156,54.94986121,-3.184194151,2.839931884e-07,-2.879433175e-06,0.05794726466,1.075176733e-06,-13.77331753,0.204801967,-13.89055069,-1093.890551,1.515096765,0.1988127562,-0.0491663878,74.73706813,74.34649184,-7.630760333,1.18505812e-07,-6.90041606e-06,0.1026377996,1.504866689e-05,-14.21440677,0.1946613188,172.8591579,-1267.140842,1.483427217,-0.1931514437,0.02419811668,33.81990542,33.77719876,1.699072185,-5.322254448e-07,1.536453051e-06,0.05030234144,1.503007108e-05,-25.09653092,0.05561263257,164.8019909,-195.1980091,1.117775045,-0.05366761435,0.01457916566,44.90761997,44.88842324,1.312932108,-6.887556821e-07,1.187270653e-06,0.02924879096,9.100762201e-07,
184000,-28.48738317,0.03763837297,-43.79693259,-43.79693259,1.078220852,0.02716727531,-0.02604968853,52.79064671,52.71894361,-2.750520639,3.144759231e-07,-2.379124759e-06,0.0521732882,-1.036733786e-06,-14.04087816,0.198589413,-56.91724618,-1136.917246,1.495599675,0.1083999876,-0.1663947044,61.78763828,58.38306169,-20.22697091,4.276332431e-08,-1.749577394e-05,0.3464527266,1.523209815e-05,-14.47152767,0.1889833819,129.9041366,-1310.095863,1.466040714,-0.1212337877,0.1449727125,39.38926383,37.72096069,11.34209988,-7.626211421e-08,9.810604683e-06,0.3006842794,1.514123089e-05,-29.13194583,0.03494642133,155.3523973,-204.6476027,1.072423795,-0.03176245075,0.014573918,46.92216878,46.9022003,1.368769255,-6.319345014e-07,1.183947788e-06,0.02918347639,-1.320154626e-06,
192000,-31.41353306,0.02687344522,-14.43856865,-14.43856865,1.055231141,0.02602466186,-0.006700674074,52.67188094,52.6671449,-0.7063208371,1.173591308e-06,-5.854919408e-07,0.01341103336,-1.679083448e-06,-14.25121771,0.1938380867,-99.51327211,-1179.513272,1.480891204,-0.03203679655,-0.191172298,47.00203996,43.68127783,-17.35332037,4.776791863e-08,-1.438472248e-05,0.3972713536,1.507891041e-05,-14.67010143,0.1847119225,87.52119348,-1352.478807,1.453120627,0.007988761172,0.1845390853,50.77858008,47.43358397,18.12510157,-4.573392277e-08,1.502447661e-05,0.3821153717,1.50104366e-05,-30.79188906,0.02886725887,-169.1605052,-169.1605052,1.059450696,-0.02835220499,-0.00542872977,47.24302708,47.24023807,-0.5133367466,1.614791851e-06,-4.255212536e-07,0.01086651481,-1.636471632e-06,
