Frequency,S11_Magnitude,S11_Magnitude (linear),S11_Phase,S11_Unwrapped Phase,S11_VSWR,S11_Real,S11_Imaginary,S11_Impedance (absolute),S11_Resistance,S11_Reactance,S11_Capacitance,S11_Inductance,S11_Quality Factor,S11_Group delay,S12_Magnitude,S12_Magnitude (linear),S12_Phase,S12_Unwrapped Phase,S12_VSWR,S12_Real,S12_Imaginary,S12_Impedance (absolute),S12_Resistance,S12_Reactance,S12_Capacitance,S12_Inductance,S12_Quality Factor,S12_Group delay,S21_Magnitude,S21_Magnitude (linear),S21_Phase,S21_Unwrapped Phase,S21_VSWR,S21_Real,S21_Imaginary,S21_Impedance (absolute),S21_Resistance,S21_Reactance,S21_Capacitance,S21_Inductance,S21_Quality Factor,S21_Group delay,S22_Magnitude,S22_Magnitude (linear),S22_Phase,S22_Unwrapped Phase,S22_VSWR,S22_Real,S22_Imaginary,S22_Impedance (absolute),S22_Resistance,S22_Reactance,S22_Capacitance,S22_Inductance,S22_Quality Factor,S22_Group delay,
0,-13.32132285,0.2157415813,-133.5889657,-133.5889657,1.550179829,-0.1487495198,-0.1562626324,37.3265125,35.46967013,-11.62630793,inf,-inf,0.3277816761,-2.551459226e-05,-13.49339814,0.2115096044,-132.6185327,-132.6185327,1.536492532,-0.1432161205,-0.1556452877,37.73767791,35.88064353,-11.69238014,inf,-inf,0.3258687412,1.413346717e-06,-15.8176963,0.1618509247,-160.5057044,-160.5057044,1.386210352,-0.1525727752,-0.05401175877,36.79663025,36.57230113,-4.056943167,inf,-inf,0.1109293931,1.159029552e-05,-16.05519377,0.157485405,-160.0743763,-160.0743763,1.373846117,-0.1480576686,-0.05367103076,37.13663491,36.91368779,-4.063164541,inf,-inf,0.1100720298,-4.497504932e-06,
8000,-30.29509774,0.03056645778,-146.1701066,-146.1701066,1.06306045,-0.02539137662,-0.01701723639,47.52443763,47.49688524,-1.618043199,1.229532555e-05,-3.218994667e-05,0.03406630121,-2.551459226e-05,-24.0021025,0.06308046336,-65.12608912,-65.12608912,1.134655028,0.02653307831,-0.05722884424,52.71648134,52.37181884,-6.018305035,3.305642996e-06,-0.0001197303744,0.1149149517,1.413346717e-06,-29.11428982,0.03501752996,139.9292188,-220.0707812,1.07257651,-0.02679715716,0.02254195583,47.39151081,47.34330311,2.137041794,-9.309302206e-06,4.251509564e-05,0.04513926266,1.159029552e-05,-24.57771584,0.05903563082,-12.69191301,-12.69191301,1.125478993,0.05759312849,-0.01297063052,56.11018621,56.09118393,-1.46016502,1.36247394e-05,-2.904906009e-05,0.02603198788,-4.497504932e-06,
16000,4.392203681,1.658097956,81.53508889,81.53508889,nan,0.2440781438,1.640034967,56.99513968,-26.82026579,50.29034987,-1.977950833e-07,0.0005002473608,-1.875087677,-2.551459226e-05,-14.59868678,0.1862368687,-159.8746283,-159.8746283,1.457717637,-0.1748656144,-0.06407954556,35.16957833,34.86366262,-4.628635708,2.149053106e-06,-4.604189079e-05,0.1327638968,1.413346717e-06,-16.60586199,0.1478110494,89.06735503,-270.932645,1.346897362,0.002405921436,0.1477914675,50.23600503,48.0883489,14.53158287,-6.84521709e-07,0.0001445483278,0.3021851073,1.159029552e-05,8.856876045,2.772322835,161.0275588,161.0275588,nan,-2.621716568,0.9013191108,24.85614293,-23.99911885,6.470713718,-1.537262252e-06,6.43653796e-05,-0.2696229707,-4.497504932e-06,
24000,-7.506332854,0.4213891579,123.0031528,123.0031528,2.456554656,-0.2295244307,0.353394055,33.12957034,25.12594071,21.59295103,-3.071120734e-07,0.0001431927039,0.8593887602,-1.544401903e-05,-23.20337651,0.06915620843,-73.56081361,-73.56081361,1.148588214,0.01957103381,-0.06632914744,51.98724956,51.53146564,-6.868927568,9.654281395e-07,-4.555099067e-05,0.1332957928,9.255827477e-06,-23.16730527,0.06944400131,127.5623848,-232.4376152,1.149252708,-0.04233479145,0.05504756807,45.95025941,45.67162875,5.052590146,-1.312486422e-06,3.350602905e-05,0.1106286394,1.248538124e-05,-6.549471294,0.4704640418,-51.83325411,-51.83325411,2.776891765,0.2907242825,-0.369886207,83.92474647,60.84375457,-57.80484928,1.147214472e-07,-0.0003833303124,0.9500539488,1.478162464e-05,
32000,-6.535390255,0.4712273482,99.23453316,99.23453316,2.782343873,-0.07562073778,0.465120111,44.15143109,28.32398827,33.86887296,-1.46848464e-07,0.0001684499546,1.195766381,4.264096702e-06,-20.848603,0.0906921818,-148.7533632,-148.7533632,1.199475205,-0.07753658434,-0.04704412745,42.81911143,42.62771547,-4.044029795,1.229860368e-06,-2.011335412e-05,0.09486855559,1.425618107e-05,-20.68129938,0.09245598526,38.77745708,-321.2225429,1.203749865,0.07207724757,0.05790491856,57.73947978,57.34956128,6.698906334,-7.424483526e-07,3.331762676e-05,0.1168083275,1.919753826e-05,-6.385845649,0.4794106942,-75.73963471,-75.73963471,2.841800009,0.11809258,-0.4646383069,60.73280213,38.75438081,-46.76078724,1.063624517e-07,-0.000232569076,1.206593584,2.134183162e-05,
40000,-6.940636288,0.4497469073,67.37404531,67.37404531,2.634691066,0.1730237035,0.4151326037,67.23670192,46.58400754,48.4840626,-8.206559773e-08,0.0001929119556,1.040787711,7.4470553e-06,-14.43987973,0.1896732184,156.0293626,-203.9706374,1.468140071,-0.1733146203,0.07705823889,35.30528837,34.86259458,5.573408848,-7.139030503e-07,2.21758892e-05,0.1598678732,2.550632959e-05,-14.23040359,0.1943031406,-14.715322,-374.715322,1.482323192,0.1879299701,-0.04935622346,73.07035591,72.68887642,-7.456819458,5.335885627e-07,-2.966974191e-05,0.1025854274,2.678056221e-05,-6.842640986,0.4548497399,-107.1637111,-107.1637111,2.668713282,-0.1342275023,-0.4345932161,39.87724643,26.87888708,-29.45709103,1.350735405e-07,-0.0001172060412,1.095919297,6.852841686e-06,
48000,-13.66348868,0.2074080297,47.94665011,47.94665011,1.523366467,0.1389265197,0.154004912,65.69354007,62.5343452,20.12701857,-1.647401461e-07,6.673571866e-05,0.3218554302,7.494168778e-06,-10.12542387,0.3116942614,60.04127613,-299.9587239,1.905685494,0.1556526278,0.2700473515,66.93800283,57.4441,34.36381233,-9.64889445e-08,0.0001139410541,0.598213086,2.488648474e-05,-10.21034179,0.3086618185,-116.2383425,-476.2383425,1.892940175,-0.1364613041,-0.2768581418,38.76361462,33.06283325,-20.23528789,1.638587006e-07,-6.709471027e-05,0.612025223,2.522376402e-05,-13.23114171,0.2179931839,-118.6295881,-118.6295881,1.557522465,-0.1044503862,-0.1913403905,40.84933084,37.90442713,-15.22899319,2.177247004e-07,-5.049519886e-05,0.4017734694,7.102140129e-06,
56000,-10.17341467,0.3099768541,41.40949799,41.40949799,1.898453497,0.2324830847,0.2050299134,78.63626389,71.61198297,32.48670334,-8.748356291e-08,9.232891823e-05,0.4536489843,6.22504326e-06,-10.52745926,0.2975959639,-5.249279351,-365.2492794,1.847364048,0.2963478697,-0.02722678503,92.06709791,91.90322262,-5.490736645,5.176086086e-07,-1.560496211e-05,0.05974476725,2.409577622e-05,-10.62243398,0.2943596656,179.4301887,-540.5698113,1.834305102,-0.2943451089,0.002927383095,27.25931259,27.25875255,0.1747338979,-1.626503265e-05,4.966029211e-07,0.006410194215,2.439442311e-05,-9.906432787,0.3196526879,-129.0691977,-129.0691977,1.939675022,-0.2014638276,-0.2481736631,34.08025446,29.825888,-16.48878858,1.723627265e-07,-4.686200371e-05,0.5528347916,5.86122114e-06,
64000,-11.64350716,0.2617126062,4.300776418,4.300776418,1.708972165,0.2609756542,0.0196264145,85.29379967,85.21817218,3.59101552,-6.925049396e-07,8.93012298e-06,0.0421390817,4.060205721e-06,-9.469573104,0.3361408894,-66.47942245,-426.4794225,2.012687433,0.1341465688,-0.3082132307,63.93826529,52.50454983,-36.48799823,6.81538069e-08,-9.073820753e-05,0.6949492634,2.071550729e-05,-9.65589316,0.3290071544,118.4824998,-601.5175002,1.980657712,-0.1569003256,0.289185054,37.37188988,31.35461396,20.33583872,-1.222863743e-07,5.057108209e-05,0.6485756369,2.053004953e-05,-11.78563578,0.2574650072,-167.0577093,-167.0577093,1.693475754,-0.2509244035,-0.05766431882,29.99761092,29.77137036,-3.677249976,6.762651443e-07,-9.14457048e-06,0.1235163156,4.04154716e-06,
72000,-17.16269069,0.138632631,-0.4436407869,-0.4436407869,1.321889674,0.1386284752,-0.001073420686,66.09390166,66.09374332,-0.1446732588,1.527915621e-05,-3.19798115e-07,0.002188910048,3.674752693e-06,-9.662241927,0.3287667615,-127.6894657,-487.6894657,1.979590231,-0.2010019345,-0.2601649588,34.18979345,29.53173515,-17.22842404,1.283045574e-07,-3.808317844e-05,0.5833867855,1.975635332e-05,-9.88736227,0.3203552802,56.64456407,-663.3554359,1.942713953,0.1761413401,0.267585003,69.6237884,59.79734012,35.66160437,-6.19850217e-08,7.882945297e-05,0.5963744257,1.968941009e-05,-17.78013242,0.1291199589,-167.3512349,-167.3512349,1.296527542,-0.1259863136,-0.02827388493,38.81909219,38.7550636,-2.228668701,9.918411471e-07,-4.926439448e-06,0.05750651641,3.426117738e-06,
80000,-17.00055601,0.1412447127,10.40625711,10.40625711,1.328952182,0.1389214845,0.02551254618,66.12100273,66.03156952,3.437852324,-5.786859356e-07,6.839389888e-06,0.05206376812,2.116883072e-06,-10.84619266,0.286873457,-177.0419356,-537.0419356,1.804551337,-0.2864912189,-0.01480411347,27.73493856,27.7205148,-0.894357694,2.224430786e-06,-1.779268099e-06,0.03226338689,1.885293147e-05,-11.28679894,0.2726842491,9.521756621,-710.4782434,1.749837327,0.2689274394,0.04510800411,86.67531369,86.2665572,8.407800748,-2.366179752e-07,1.672678812e-05,0.09746303807,1.883780917e-05,-16.9424192,0.1421932695,-157.6868486,-157.6868486,1.331527521,-0.1315462065,-0.05398630786,38.40503947,38.17394285,-4.206797386,4.729100563e-07,-8.369157482e-06,0.1102007567,1.849006924e-06,
88000,-16.87032493,0.1433784079,-14.55968114,-14.55968114,1.334753196,0.1387739983,-0.03604365737,66.08879463,65.91051675,-4.851036711,3.72823173e-07,-8.773482633e-06,0.07360034408,1.640856808e-06,-10.32800501,0.3045087312,125.5404895,-594.4595105,1.875665144,-0.1770042644,0.247780261,35.72849346,31.35594976,17.12686953,-1.055989185e-07,3.097529483e-05,0.5462079656,1.797505857e-05,-10.67035902,0.2927399869,-49.61694496,-769.616945,1.82781433,0.1896646717,-0.2229888164,72.00743921,64.71868297,-31.56839205,5.729081468e-08,-5.709392773e-05,0.4877786537,1.797648635e-05,-17.19190152,0.1381671896,176.9092765,-183.0907235,1.320635715,-0.1379662134,0.007449580112,37.87667391,37.87230541,0.5752471129,-3.144003435e-06,1.04037979e-06,0.0151891232,1.446624282e-06,
96000,-20.39749025,0.09552685668,-19.12431964,-19.12431964,1.211232047,0.09025472342,-0.03129640948,59.91012134,59.79094654,-3.776949998,4.389425307e-07,-6.261669395e-06,0.06316926251,2.112638641e-06,-10.73901086,0.290435338,75.42338682,-644.5766132,1.818629657,0.07309512221,0.2810867992,57.26369501,48.80004114,29.96142106,-5.533328968e-08,4.967196108e-05,0.6139630287,1.7533156e-05,-11.1423786,0.2772560744,-99.65119773,-819.6511977,1.767231836,-0.04648190753,-0.273331965,45.85479929,39.45553303,-23.36500655,7.09549979e-08,-3.873600299e-05,0.5921858039,1.75987693e-05,-21.16032164,0.08749513754,174.1863353,-185.8136647,1.191769143,-0.08704511322,0.008862694654,41.99308521,41.98638774,0.7499663601,-2.210584473e-06,1.243342223e-06,0.01786213105,1.90298882e-06,
104000,-20.43115427,0.09515733848,-9.306690446,-9.306690446,1.210329027,0.09390476712,-0.0153887549,60.36094324,60.33185082,-1.873831523,8.166881456e-07,-2.86759182e-06,0.03105874421,1.53566188e-06,-11.1286105,0.2776959046,27.23702961,-692.7629704,1.768916877,0.2469051966,0.1270938209,82.05406055,79.10832089,21.78858457,-7.023567713e-08,3.334385517e-05,0.2754272159,1.666933138e-05,-11.55310155,0.2644508226,-147.6303622,-867.6303622,1.71905681,-0.2233582728,-0.1415814944,32.05140665,30.66182976,-9.335141353,1.63932814e-07,-1.42859028e-05,0.3044548034,1.660533442e-05,-20.79629407,0.09124000419,-174.1192165,-174.1192165,1.200801102,-0.09075982967,-0.009348351913,41.67988262,41.67247682,-0.7856785249,1.947789004e-06,-1.202352124e-06,0.01885365558,1.425235397e-06,
112000,-20.08175047,0.09906322819,-22.64223467,-22.64223467,1.21991161,0.09142809721,-0.03813694036,60.04661782,59.86926063,-4.611718046,3.081338155e-07,-6.553372528e-06,0.07702981459,7.141430744e-07,-11.44226304,0.2678470379,-20.3676521,-740.3676521,1.731669615,0.2511008758,-0.09322223937,83.11939804,81.49186195,-16.36797992,8.681744994e-08,-2.325932958e-05,0.2008541655,1.630758625e-05,-11.90082173,0.2540732327,165.1061874,-914.8938126,1.681228356,-0.2455373481,0.06530404474,30.35817895,30.06653423,4.197921918,-3.385070769e-07,5.965357357e-06,0.1396210779,1.622842015e-05,-20.45858082,0.09485734374,170.4243589,-189.5756411,1.20959645,-0.09353568202,0.01577947566,41.44845449,41.42745329,1.319277731,-1.077124433e-06,1.874728324e-06,0.03184549439,4.108616182e-07,
120000,-23.04605413,0.07042020635,-34.9142547,-34.9142547,1.151509761,0.05774523859,-0.04030499824,56.11782772,55.93458132,-4.531357429,2.926918066e-07,-6.009899448e-06,0.0810117341,8.793297321e-08,-11.99202079,0.2514195012,-66.60236298,-786.602363,1.671723353,0.09984120831,-0.2307455281,60.46651439,54.2418295,-26.72121432,4.963439073e-08,-3.544011121e-05,0.4926311403,1.603434387e-05,-12.34865908,0.241305403,118.8875469,-961.1124531,1.636106818,-0.1165727317,0.2112796624,39.96619484,36.46394758,16.36084523,-8.106495562e-08,2.169924493e-05,0.4486855186,1.595236973e-05,-23.9006201,0.06382179211,158.266875,-201.733125,1.136345391,-0.05928525301,0.02363217983,44.40623735,44.35631513,2.105047154,-6.30052961e-07,2.7919055e-06,0.04745766522,-1.600313324e-07,
128000,-25.37346456,0.05386749399,-16.60419779,-16.60419779,1.113868816,0.05162130788,-0.0153930985,55.44174809,55.41534026,-1.710992381,7.267115896e-07,-2.127444492e-06,0.0308757895,-9.568379692e-08,-12.21695819,0.2449921058,-112.4861588,-832.4861588,1.648978925,-0.09369973858,-0.2263658342,41.8192789,37.67690149,-18.14671271,6.851918653e-08,-2.256358616e-05,0.4816402621,1.582304354e-05,-12.6804991,0.2322603333,73.40059751,-1006.599402,1.605049715,0.06635175425,0.2225810125,56.74718405,51.34675802,24.16098795,-5.146304428e-08,3.004172393e-05,0.4705455395,1.574221883e-05,-26.15952304,0.0492066555,-177.9231178,-177.9231178,1.103506521,-0.04917433153,-0.00178327356,45.31305898,45.31276938,-0.1620023827,7.675183365e-06,-2.014334375e-07,0.003575203743,-2.599963821e-07,
136000,-22.97072984,0.07103354805,-13.5919437,-13.5919437,1.152930276,0.06904418634,-0.01669327052,57.41425376,57.38195694,-1.925500685,6.077676024e-07,-2.253330529e-06,0.03355585601,9.693960081e-07,-12.4825373,0.237614607,-157.5982687,-877.5982687,1.62334512,-0.2196829063,-0.0905545258,32.11481063,31.53906184,-6.053812053,1.933090959e-07,-7.084515535e-06,0.1919464848,1.564436323e-05,-12.94035379,0.2254147395,28.50830865,-1051.491691,1.582026927,0.198082731,0.1075873434,74.33570855,72.49625739,16.43442213,-7.120767164e-08,1.923249646e-05,0.226693387,1.555995761e-05,-23.34392344,0.06804619227,-177.641027,-177.641027,1.146029109,-0.06798852716,-0.00280079592,43.63401163,43.63332069,-0.2455530335,4.76580117e-06,-2.873601402e-07,0.005627649457,8.352316278e-07,
144000,-23.0229294,0.07060793817,-31.92554349,-31.92554349,1.151944354,0.05992750014,-0.03733866174,56.36530026,56.2072226,-4.218435875,2.62002954e-07,-4.662395289e-06,0.07505149125,7.981168531e-07,-12.80097947,0.2290609337,157.2784738,-922.7215262,1.59423875,-0.2112842106,0.08847538472,32.67416301,32.11888499,5.998179353,-1.842630231e-07,6.629443705e-06,0.186749302,1.535178738e-05,-13.2685209,0.2170570794,-16.39214473,-1096.392145,1.554464633,0.2082342897,-0.06125566359,76.17036572,75.54851998,-9.713173738,1.137880048e-07,-1.073541398e-05,0.1285686833,1.541017197e-05,-23.77925744,0.06471979427,162.1222578,-197.8777422,1.138396587,-0.06159471692,0.01986813073,44.20007146,44.16492395,1.762330755,-6.271482565e-07,1.947803132e-06,0.03990340292,2.52270207e-07,
152000,-26.64516674,0.04653092251,-41.21288436,-41.21288436,1.097603422,0.03500366666,-0.03065730044,53.62380298,53.52285205,-3.288853095,3.183699496e-07,-3.443665968e-06,0.06144764281,-6.492762843e-07,-13.11949035,0.2208134293,113.2364902,-966.7635098,1.566779351,-0.08711690469,0.2029019849,42.28089619,38.88991645,16.59061726,-6.31122988e-08,1.73715707e-05,0.4266046003,1.526760984e-05,-13.59862945,0.2089625827,-60.27947162,-1140.279472,1.528325407,0.1035973497,-0.1814743786,61.14331916,57.16486441,-21.6952473,4.826273605e-08,-2.271648585e-05,0.3795206641,1.528970041e-05,-28.24452313,0.0387056035,156.2168517,-203.7831483,1.080528096,-0.03541865856,0.01560904763,46.58009681,46.55734755,1.455612399,-7.193343469e-07,1.524130977e-06,0.031264934,-1.206258423e-06,
160000,-28.44857876,0.03780689943,-14.28661014,-14.28661014,1.078584848,0.03663766163,-0.009329704974,53.80275891,53.79336818,-1.005189288,9.895831619e-07,-9.99880275e-07,0.01868611917,-9.26389368e-07,-13.41321158,0.2134712637,71.03072344,-1008.969277,1.542818727,0.06939120311,0.2018782835,57.14229698,52.62699042,22.2630183,-4.46803026e-08,2.214543381e-05,0.4230342286,1.523828939e-05,-13.45152057,0.212531825,-104.1119888,-1184.111989,1.539785179,-0.05181907304,-0.2061178311,45.26512778,41.55743551,-17.94188803,5.544112152e-08,-1.784712605e-05,0.4317371321,1.52153943e-05,-29.02432983,0.03538209208,-168.4847481,-168.4847481,1.073359808,-0.03466990715,-0.007063283831,46.6493436,46.64467795,-0.6597551416,1.507708438e-06,-6.562705751e-07,0.01414427477,-1.073830086e-06,
168000,-25.18047303,0.05507777007,-13.06183188,-13.06183188,1.116576303,0.05365272845,-0.0124477101,55.66852376,55.65117556,-1.389675063,6.817067361e-07,-1.316509855e-06,0.02497117176,7.269224263e-07,-13.59759866,0.2089873828,25.67202482,-1054.327975,1.528404676,0.1883579565,0.09053732044,72.96661923,71.6927958,13.57462903,-6.978834187e-08,1.285993638e-05,0.1893443948,1.524217247e-05,-14.05681478,0.1982253809,-147.8034552,-1227.803455,1.49446659,-0.1677433323,-0.1056194873,35.77503653,34.94038035,-7.682646673,1.233104804e-07,-7.278161869e-06,0.2198787362,1.515806002e-05,-25.2133911,0.05486942955,-174.9674027,-174.9674027,1.116109734,-0.05465790523,-0.004813283179,44.8175896,44.81550054,-0.4327221667,2.189282003e-06,-4.099397132e-07,0.009655636141,8.527034498e-07,
176000,-25.1250293,0.05543046669,-32.66106283,-32.66106283,1.11736662,0.04666567519,-0.02991406685,54.8903954,54.79181763,-3.288195292,2.750108704e-07,-2.97348031e-06,0.06001252439,8.53684148e-07,-13.84597919,0.2030958459,-18.37066069,-1098.370661,1.509712102,0.1927455781,-0.0640083178,73.75150592,73.10272089,-9.760984725,9.264326038e-08,-8.826755502e-06,0.1335242328,1.521019298e-05,-14.28399719,0.1931079443,168.2681692,-1271.731831,1.47864629,-0.1890739195,0.03926488425,34.12041217,34.00745812,2.774043788,-3.259823992e-07,2.508538529e-06,0.0815716299,1.505443068e-05,-25.76614813,0.05148640798,163.1775383,-196.8224617,1.108562299,-0.04928310454,0.01490053065,45.30416024,45.28394931,1.353096606,-6.683110767e-07,1.223590984e-06,0.02988026942,5.182777106e-07,
184000,-28.81567479,0.03624234252,-42.49334096,-42.49334096,1.075210489,0.02672350329,-0.02448186601,52.74403471,52.68075682,-2.582839038,3.348921494e-07,-2.234084783e-06,0.04902813083,-8.388294168e-07,-14.12459401,0.196684574,-61.5501013,-1141.550101,1.489682054,0.09369858614,-0.1729317686,60.00557411,56.46241779,-20.31414044,4.257982362e-08,-1.757117318e-05,0.3597816252,1.505639021e-05,-14.55087744,0.1872647901,125.2543852,-1314.745615,1.460826079,-0.108090677,0.1529199371,40.44920357,38.55873399,12.22137891,-7.0775362e-08,1.057115688e-05,0.3169548802,1.511813536e-05,-30.52766968,0.02975887547,158.1067788,-201.8932212,1.061343257,-0.02761267658,0.01109643011,47.31325173,47.30158395,1.05068792,-8.232439914e-07,9.088161743e-07,0.02221253142,-1.64024113e-06,
192000,-30.85609651,0.02865465439,-11.86390734,-11.86390734,1.058999931,0.02804255333,-0.005891045827,52.88505957,52.88138322,-0.6235653067,1.329342711e-06,-5.168932339e-07,0.01179177375,-1.359826545e-06,-14.32191536,0.1922667708,-104.3849923,-1184.384992,1.476065027,-0.04776602105,-0.1862388745,45.58754699,42.51808915,-16.44495474,5.040646256e-08,-1.363174914e-05,0.3867754894,1.50333478e-05,-14.73937297,0.1832446702,82.57528922,-1357.424711,1.448713742,0.02367947676,0.1817082594,52.34599771,48.99625481,18.42472499,-4.499019636e-08,1.527284405e-05,0.3760435377,1.504264094e-05,-30.73598901,0.02905363991,-162.4850379,-162.4850379,1.059846025,-0.02770666647,-0.008743833555,47.3042304,47.29698659,-0.8278127251,1.001352081e-06,-6.862004539e-07,0.01750244117,-1.581487585e-06,
