Frequency,S11_Magnitude,S11_Magnitude (linear),S11_Phase,S11_Unwrapped Phase,S11_VSWR,S11_Real,S11_Imaginary,S11_Impedance (absolute),S11_Resistance,S11_Reactance,S11_Capacitance,S11_Inductance,S11_Quality Factor,S11_Group delay,S12_Magnitude,S12_Magnitude (linear),S12_Phase,S12_Unwrapped Phase,S12_VSWR,S12_Real,S12_Imaginary,S12_Impedance (absolute),S12_Resistance,S12_Reactance,S12_Capacitance,S12_Inductance,S12_Quality Factor,S12_Group delay,S21_Magnitude,S21_Magnitude (linear),S21_Phase,S21_Unwrapped Phase,S21_VSWR,S21_Real,S21_Imaginary,S21_Impedance (absolute),S21_Resistance,S21_Reactance,S21_Capacitance,S21_Inductance,S21_Quality Factor,S21_Group delay,S22_Magnitude,S22_Magnitude (linear),S22_Phase,S22_Unwrapped Phase,S22_VSWR,S22_Real,S22_Imaginary,S22_Impedance (absolute),S22_Resistance,S22_Reactance,S22_Capacitance,S22_Inductance,S22_Quality Factor,S22_Group delay,
0,-13.28195322,0.2167216702,-133.9250559,-133.9250559,1.55337078,-0.1503434776,-0.1560933089,37.20761992,35.3588845,-11.58258467,inf,-inf,0.3275721175,-2.052830869e-05,-13.46973676,0.212086567,-133.3533414,-133.3533414,1.53834992,-0.1455964951,-0.1542153446,37.55459423,35.73709341,-11.54156412,inf,-inf,0.3229575496,7.81775536e-09,-15.81026709,0.1619894182,-162.2959673,-162.2959673,1.386604708,-0.1543176123,-0.04926100031,36.65999557,36.47378397,-3.690305903,inf,-inf,0.1011769414,1.06696307e-05,-16.00820928,0.1583395972,-161.879615,-161.879615,1.376255308,-0.1504867666,-0.04924592496,36.94787979,36.76076605,-3.713744737,inf,-inf,0.101024683,-1.159463846e-05,
8000,-14.30346356,0.1926756452,-4.900701732,-4.900701732,1.477319045,0.1919712712,-0.01646011195,73.74970798,73.70664198,-2.519991064,7.894618425e-06,-5.01336293e-05,0.03418947053,-2.052830869e-05,-16.16765924,0.1554594181,-86.48520713,-86.48520713,1.368151446,0.009530632429,-0.1551669995,50.93939662,48.54373639,-15.43786854,1.288673228e-06,-0.0003071266362,0.3180197837,7.81775536e-09,-21.25683463,0.08652831936,103.9044748,-256.0955252,1.189449375,-0.02079308873,0.08399284203,47.97703262,47.30426482,8.006384285,-2.484813016e-06,0.0001592819544,0.169252906,1.06696307e-05,-13.23753385,0.2178328168,158.5676129,-201.4323871,1.556998098,-0.2027695503,0.07959676829,33.23352555,32.77891482,5.478135109,-3.631594966e-06,0.0001089840352,0.1671237483,-1.159463846e-05,
16000,1.351356147,1.16833613,101.1678692,101.1678692,nan,-0.2262882644,1.14621243,41.1931038,-6.477341493,40.68065692,-2.445187638e-07,0.0004046579774,-6.280455797,-2.052830869e-05,-10.87440016,0.2859433442,-151.3562974,-151.3562974,1.800898197,-0.2509489102,-0.1370702031,30.25537742,28.99093185,-8.655271994,1.14926301e-06,-8.60955826e-05,0.2985510103,7.81775536e-09,-19.68989582,0.1036347035,97.06581223,-262.9341878,1.23123319,-0.01274803659,0.102847651,48.75425627,47.73331719,9.925116355,-1.002223409e-06,9.872695804e-05,0.2079284856,1.06696307e-05,12.39561264,4.166588705,-164.7257689,-164.7257689,nan,-4.01940812,-1.09764284,31.264281,-30.98657023,-4.157851793,2.392385404e-06,-4.135891659e-05,-0.1341823816,-1.159463846e-05,
24000,-7.889716137,0.403194123,120.855703,120.855703,2.351173433,-0.2067892761,0.3461267053,34.46745169,26.56592516,21.96034713,-3.019740956e-07,0.0001456290749,0.8266358875,-4.934035754e-06,-19.68722305,0.1036665982,-62.82156513,-62.82156513,1.231312585,0.0473510803,-0.09222059849,54.92638729,53.99590987,-10.06726072,6.587150315e-07,-6.676059612e-05,0.186444876,7.980782029e-06,-22.18739411,0.07773745075,117.8281926,-242.1718074,1.168579871,-0.03628954026,0.06874722189,46.51404649,46.07530312,6.373614636,-1.040454489e-06,4.226634478e-05,0.1383303897,1.036491179e-05,-6.349523688,0.4814196531,-48.44300515,-48.44300515,2.856682984,0.3193568241,-0.3602445021,88.79740234,64.76970904,-60.74424625,1.091701086e-07,-0.000402822794,0.9378496083,-9.788820617e-06,
32000,-6.165010438,0.4917557855,98.80438689,98.80438689,2.935116117,-0.07526887826,0.4859612624,44.26528767,27.22627143,34.90194603,-1.425018527e-07,0.0001735880385,1.281921622,5.454508287e-06,-20.0312222,0.09964118641,-145.2977381,-145.2977381,1.221336616,-0.08191716829,-0.05672692102,42.45112137,42.17511903,-4.832912214,1.029108693e-06,-2.403693339e-05,0.1145915489,1.524235175e-05,-20.57226089,0.09362394899,37.09949174,-322.9005083,1.206589635,0.07467345804,0.05647405147,58.04208389,57.66890777,6.571193155,-7.568780668e-07,3.268243352e-05,0.1139468981,1.937379812e-05,-5.627635858,0.5231403362,-71.41151206,-71.41151206,3.194106048,0.1667608559,-0.4958494008,65.37400765,38.62793286,-52.74129008,9.430167454e-08,-0.0002623136569,1.365366619,-1.166387636e-06,
40000,-6.963487612,0.4485652431,67.3311543,67.3311543,2.626902321,0.1728790003,0.4139125857,67.23768596,46.68809573,48.38520569,-8.22332678e-08,0.0001925186165,1.03634995,7.266791324e-06,-14.45114688,0.189427338,155.562252,-204.437748,1.467391381,-0.1724567889,0.07836690854,35.3699563,34.91164076,5.675486593,-7.010629859e-07,2.258204364e-05,0.1625671687,2.639044257e-05,-14.2707653,0.1934023447,-15.36709468,-375.3670947,1.479550972,0.1864877768,-0.05125208314,72.84735982,72.43781192,-7.713704524,5.158187697e-07,-3.069185512e-05,0.1064872657,2.604350741e-05,-6.863982781,0.4537335164,-107.1304987,-107.1304987,2.661216751,-0.1336467782,-0.4336042465,39.90981279,26.95300465,-29.43346221,1.351819759e-07,-0.0001171120251,1.092028981,7.274660679e-06,
48000,-13.43715887,0.2128835268,49.38522427,49.38522427,1.540920014,0.1385807896,0.1616006212,65.60538579,62.14091577,21.03742455,-1.576109268e-07,6.975437723e-05,0.3385438449,7.504674331e-06,-10.29924491,0.3055186696,59.96192893,-300.0380711,1.879847035,0.15293511,0.2644853675,66.64910789,57.56769702,33.58666168,-9.872157028e-08,0.0001113642339,0.5834289614,2.512233061e-05,-10.27739775,0.3062880921,-115.319237,-475.319237,1.883041183,-0.1309875895,-0.2768657558,39.16456914,33.41923255,-20.42102768,1.623683212e-07,-6.771057288e-05,0.611056153,2.517564847e-05,-13.06573142,0.2221843313,-118.5860402,-118.5860402,1.571303306,-0.1063102986,-0.195099968,40.71357978,37.66419618,-15.45975111,2.144748617e-07,-5.126032934e-05,0.4104627917,7.397983068e-06,
56000,-10.1552659,0.3106252136,40.92348923,40.92348923,1.901179503,0.2347037474,0.2034752424,79.01139635,72.04114429,32.44802433,-8.758784592e-08,9.221899045e-05,0.4504096187,6.265998493e-06,-10.58131303,0.2957565344,-5.473771614,-365.4737716,1.839926954,0.2944078756,-0.02821223897,91.67347189,91.49872351,-5.657653569,5.023376777e-07,-1.607934878e-05,0.06183314206,2.412138887e-05,-10.69284411,0.2919831533,179.0110503,-540.9889497,1.824791542,-0.2919396602,0.005039504139,27.40348131,27.40181801,0.3019233748,-9.413158412e-06,8.580820988e-07,0.01101837019,2.447684968e-05,-9.872169552,0.3209161123,-129.6108548,-129.6108548,1.94514424,-0.204606471,-0.2472313556,33.86682235,29.65919831,-16.34911654,1.738352374e-07,-4.646504844e-05,0.5512325846,5.850237177e-06,
64000,-11.67663107,0.2607164575,3.940909064,3.940909064,1.705321957,0.2600999834,0.01791842102,85.13704288,85.07417774,3.271139251,-7.602232114e-07,8.134655957e-06,0.03845043628,4.603399843e-06,-9.566960329,0.3323930875,-66.54128703,-426.541287,1.995774853,0.1323217449,-0.304919859,63.7524869,52.58163921,-36.049283,6.898323016e-08,-8.964721224e-05,0.6855868995,2.092267508e-05,-9.728945852,0.326251643,117.3810813,-602.6189187,1.96846735,-0.1500452867,0.2897007878,37.85794816,31.76467675,20.59683349,-1.207368107e-07,5.122012284e-05,0.6484194267,2.14297542e-05,-11.81257188,0.2566678107,-166.7022902,-166.7022902,1.690587101,-0.2497860506,-0.05903637833,30.07294928,29.83555389,-3.771207049,6.594164557e-07,-9.378222551e-06,0.1263997666,4.20600725e-06,
72000,-17.03631017,0.1406644951,-0.1770663884,-0.1770663884,1.327379689,0.1406638234,-0.0004347076642,66.36888981,66.3688637,-0.05886687689,3.755057916e-05,-1.301243673e-07,0.0008869652667,3.8555236e-06,-9.734284094,0.3260511943,-128.5341398,-488.5341398,1.967584456,-0.2031236482,-0.255049338,34.01593823,29.54238449,-16.86213428,1.310916687e-07,-3.72735003e-05,0.5707777002,1.985571231e-05,-9.982314451,0.3168723009,55.81611071,-664.1838893,1.927710299,0.1780349536,0.2621289957,69.94180314,60.42898294,35.21638605,-6.276865881e-08,7.784530442e-05,0.5827731056,2.007420973e-05,-17.54934046,0.1325967798,-167.3157891,-167.3157891,1.305732736,-0.1293607673,-0.02911525177,38.554402,38.48685441,-2.281217056,9.689938603e-07,-5.042596815e-06,0.05927262934,3.495052207e-06,
80000,-15.19842121,0.1738116728,3.64654434,3.64654434,1.420755576,0.1734597721,0.01105463926,70.9830482,70.96460868,1.617852425,-1.229677539e-06,3.218615133e-06,0.02279801798,2.0670995e-06,-9.94380447,0.318280313,-179.7944082,-539.7944082,1.933757141,-0.318278264,-0.001142068197,25.85654544,25.85646193,-0.0657169697,3.027280165e-05,-1.307397572e-07,0.002541607196,1.885690138e-05,-9.373675515,0.3398726551,-2.310227674,-722.3102277,2.029718456,0.3395964118,-0.0137003193,101.4060423,101.3574173,-3.139966199,6.335854154e-07,-6.246764272e-06,0.03097914572,1.878140207e-05,-15.88343903,0.1606305137,-160.3000775,-160.3000775,1.382740894,-0.1512289705,-0.05414757992,36.89784043,36.67195287,-4.076579565,4.880161805e-07,-8.110097358e-06,0.1111634163,1.85271678e-06,
88000,-16.84643551,0.1437732945,-14.44886825,-14.44886825,1.33582997,0.1392258455,-0.03587372479,66.14986991,65.9730584,-4.833306806,3.741907914e-07,-8.741416701e-06,0.07326182723,1.409115596e-06,-10.41848285,0.3013532346,125.2305317,-594.7694683,1.862676962,-0.1738409395,0.2461566569,35.93756751,31.60198042,17.11208906,-1.056901289e-07,3.094856319e-05,0.5414878698,1.785423801e-05,-10.78189235,0.2890050174,-50.21191531,-770.2119153,1.812959372,0.1849487356,-0.2220762601,71.3559697,64.21259518,-31.11939961,5.811740977e-08,-5.628188947e-05,0.4846307725,1.755336324e-05,-17.13476599,0.1390790452,176.8592871,-183.1407129,1.323093646,-0.1388701473,0.007619909229,37.80695686,37.80239241,0.5874649202,-3.078615993e-06,1.062476658e-06,0.01554041643,1.377862206e-06,
96000,-20.35663798,0.09597720561,-18.6894228,-18.6894228,1.212333596,0.09091627468,-0.03075475566,59.9903882,59.87511688,-3.717129984,4.460064613e-07,-6.162495949e-06,0.06208138168,1.639729531e-06,-10.82859944,0.2874551064,75.0369974,-644.9630026,1.806840689,0.07421954804,0.2777082946,57.39755293,49.09966087,29.72713213,-5.576938883e-08,4.92835419e-05,0.6054447546,1.73651921e-05,-11.26598205,0.2733385571,-100.0570955,-820.0570955,1.752313364,-0.04773296381,-0.2691384978,45.7393558,39.53605927,-22.99975406,7.208181384e-08,-3.813046405e-05,0.5817411873,1.68078819e-05,-20.975594,0.08937587363,174.5310502,-185.4689498,1.196295861,-0.08896903408,0.008518084358,41.83052443,41.82435738,0.7182643379,-2.308153006e-06,1.190784582e-06,0.01717335024,1.760216573e-06,
104000,-20.33173269,0.09625279859,-9.300347403,-9.300347403,1.213008236,0.09498753019,-0.01555539599,60.49288409,60.46308108,-1.898644522,8.060150142e-07,-2.905564046e-06,0.03140171635,1.536338806e-06,-11.22035799,0.2747780902,26.94913009,-693.0508699,1.757776583,0.2449397306,0.1245292225,81.74684008,78.93270519,21.26438138,-7.196710612e-08,3.254164816e-05,0.2693988674,1.66631452e-05,-11.65872766,0.2612544021,-148.078886,-868.078886,1.707291936,-0.2217467004,-0.1381385663,32.14305693,30.81686205,-9.137675965,1.674754059e-07,-1.398371441e-05,0.296515458,1.663209219e-05,-20.60312304,0.09329188068,-174.5725687,-174.5725687,1.205781505,-0.09287363401,-0.008824007402,41.5024979,41.49592245,-0.7387502743,2.071520031e-06,-1.130536133e-06,0.01780296065,1.42479378e-06,
112000,-20.02089742,0.0997596988,-22.53982134,-22.53982134,1.221629044,0.09213938853,-0.03824043129,60.13260718,59.9539853,-4.631424436,3.068227275e-07,-6.581375826e-06,0.07724965091,7.169045319e-07,-11.54014832,0.2648454913,-20.71247354,-740.7124735,1.720516539,0.2477277474,-0.09367015227,82.52666448,80.90106711,-16.29931563,8.718318667e-08,-2.316175582e-05,0.2014721958,1.630699639e-05,-12.00295294,0.2511032611,164.5897582,-915.4102418,1.670595152,-0.2420755766,0.06672527979,30.58430562,30.27872057,4.312636197,-3.295029334e-07,6.128369362e-06,0.1424312559,1.625444358e-05,-20.33233347,0.09624614126,170.0687317,-189.9312683,1.212991934,-0.09480392668,0.01659925276,41.34275514,41.31956388,1.384573516,-1.02632779e-06,1.96751535e-06,0.03350890926,4.512358487e-07,
120000,-22.98747456,0.07089674101,-34.6469478,-34.6469478,1.152613265,0.05832467898,-0.04030607532,56.18301101,55.99951729,-4.537046297,2.923248091e-07,-6.017444543e-06,0.08101938224,9.351470567e-08,-12.04059001,0.2500175527,-66.84402374,-786.8440237,1.666729078,0.09831579417,-0.2298755778,60.29467083,54.13534598,-26.54828894,4.995769014e-08,-3.521076179e-05,0.4904058237,1.603984967e-05,-12.41116508,0.2395751374,117.9625303,-962.0374697,1.630108639,-0.1123353546,0.2116058,40.29633912,36.76109697,16.50505062,-8.035668736e-08,2.189050327e-05,0.4489814499,1.59577524e-05,-23.79244069,0.06462163851,158.5734159,-201.4265841,1.13817219,-0.06015540571,0.02360684916,44.32878558,44.27904679,2.099344326,-6.317644875e-07,2.78434189e-06,0.04741168744,-1.357982654e-07,
128000,-25.21583146,0.05485401574,-16.33954786,-16.33954786,1.116075224,0.05263853532,-0.01543203299,55.55493036,55.52832897,-1.719002423,7.233253287e-07,-2.137404163e-06,0.03095721509,-8.570077311e-08,-12.32020086,0.242097306,-112.8871737,-832.8871737,1.638861183,-0.09415593301,-0.2230375884,41.77192537,37.74847829,-17.88703822,6.951391158e-08,-2.224070742e-05,0.4738479278,1.582404598e-05,-12.79532084,0.2292102095,72.85820875,-1007.141791,1.594741166,0.06755682064,0.2190282999,56.8891499,51.63713896,23.87428021,-5.208106723e-08,2.96852321e-05,0.4623470761,1.572745095e-05,-25.87401055,0.05085099703,-178.5397383,-178.5397383,1.107150715,-0.05083448265,-0.00129586724,45.16247306,45.16232059,-0.1173521956,1.059543868e-05,-1.459154845e-07,0.002598453624,-2.334471861e-07,
136000,-22.87492295,0.07182139767,-13.7470959,-13.7470959,1.15475771,0.06976401024,-0.01706739695,57.49724425,57.4634284,-1.971672791,5.935350631e-07,-2.307363756e-06,0.03431178484,9.295517864e-07,-12.58384177,0.2348593808,-157.937355,-877.937355,1.613898609,-0.2176615021,-0.08821790784,32.24371086,31.69582436,-5.918750566,1.977202657e-07,-6.926458894e-06,0.1867359719,1.564344427e-05,-13.05200328,0.2225357739,27.99525419,-1052.004746,1.57246563,0.1964960788,0.1044579421,74.1144312,72.38647209,15.91061186,-7.355197554e-08,1.861950386e-05,0.219800902,1.552816621e-05,-23.17660396,0.06936969769,-178.3128386,-178.3128386,1.149081107,-0.06933962472,-0.002042401065,43.5156847,43.51531814,-0.1786109679,6.551988091e-06,-2.090207237e-07,0.004104553879,8.138673492e-07,
144000,-22.96667855,0.07106668739,-31.75565615,-31.75565615,1.153007081,0.06042802375,-0.03740224595,56.42184521,56.26305121,-4.230092933,2.612809406e-07,-4.675279167e-06,0.0751842078,6.667593942e-07,-12.89994007,0.2264659933,156.96793,-923.03207,1.585535972,-0.2084134845,0.08860398177,32.86943379,32.31061325,6.035225665,-1.831319526e-07,6.67038887e-06,0.1867877164,1.539425371e-05,-13.37919562,0.2143089058,-16.90189739,-1096.901897,1.54552968,0.205051609,-0.06230685948,75.66352374,75.02626975,-9.799371014,1.127871022e-07,-1.083068289e-05,0.1306125314,1.528024886e-05,-23.62823678,0.06585491004,161.8734984,-198.1265016,1.140995035,-0.06258665793,0.02048851935,44.11230651,44.07499569,1.813929579,-6.09308472e-07,2.004832354e-06,0.04115552482,2.583884981e-07,
152000,-26.56465467,0.04696423653,-40.32443938,-40.32443938,1.098557134,0.03580517577,-0.03039126357,53.70992096,53.61054227,-3.26578739,3.206185428e-07,-3.419514515e-06,0.06091688783,-7.034949643e-07,-13.21960764,0.2182828514,112.962827,-967.037173,1.558470162,-0.08515952496,0.2009857172,42.43590061,39.09601099,16.50174491,-6.345219852e-08,1.727851495e-05,0.4220825729,1.529126241e-05,-13.71395136,0.2062065385,-60.76300999,-1140.76301,1.519547082,0.1007160396,-0.1799372554,60.80664424,56.9189942,-21.39336541,4.894377178e-08,-2.240039378e-05,0.37585635,1.52246346e-05,-27.96819979,0.03995673657,156.6471077,-203.3528923,1.08323945,-0.03668351444,0.01583857841,46.46231205,46.43894395,1.473406063,-7.106472683e-07,1.542762225e-06,0.03172781157,-1.146438894e-06,
160000,-28.29057532,0.03850093124,-12.6522114,-12.6522114,1.080085218,0.03756603512,-0.008432953891,53.90294368,53.89525596,-0.9103418364,1.092686675e-06,-9.055337698e-07,0.0168909456,-9.016197309e-07,-13.823296,0.2036269236,69.98548184,-1010.014518,1.511385755,0.06969299264,0.1913290641,57.2064929,53.1293381,21.20981524,-4.689896556e-08,2.109779336e-05,0.399210982,1.524443087e-05,-14.38877776,0.1907924179,-102.7982428,-1182.798243,1.471553708,-0.04226406745,-0.1860523995,46.07553903,42.98209322,-16.59804083,5.992986789e-08,-1.651037653e-05,0.3861617616,1.522065119e-05,-28.28361619,0.03853179053,-169.7405058,-169.7405058,1.08015198,-0.03791571337,-0.006862766315,46.34710314,46.3427251,-0.6370243749,1.561507587e-06,-6.336598633e-07,0.01374594121,-1.007540817e-06,
168000,-25.0647909,0.05581622427,-13.16849079,-13.16849079,1.118231695,0.05434849952,-0.01271579692,55.74621632,55.72808494,-1.421683206,6.663586149e-07,-1.346832796e-06,0.02551107233,7.632310518e-07,-13.70475315,0.2064250233,25.3596903,-1054.64031,1.520240757,0.186533256,0.08841173376,72.70468578,71.49549521,13.20475293,-7.17431713e-08,1.250953394e-05,0.1846934957,1.522856965e-05,-14.17424323,0.1955635169,-148.2913114,-1228.291311,1.48621245,-0.1663720273,-0.1027883147,35.86755921,35.07521979,-7.497383563,1.263575278e-07,-7.102652704e-06,0.2137515776,1.52302237e-05,-25.05570648,0.05587463203,-175.9971164,-175.9971164,1.118362739,-0.05573832801,-0.003900422491,44.72051731,44.71914814,-0.3499396451,2.707183553e-06,-3.315156208e-07,0.007825275293,8.705410795e-07,
176000,-25.06887226,0.05579000331,-32.35030632,-32.35030632,1.118172872,0.04713096746,-0.02985291234,54.9415847,54.84330907,-3.28468867,2.753044627e-07,-2.970309309e-06,0.05989224075,9.216496529e-07,-13.95355388,0.2005960173,-18.75030626,-1098.750306,1.501863943,0.189950068,-0.06448049188,73.32499887,72.67189892,-9.764761492,9.260742826e-08,-8.830170793e-06,0.1343677768,1.51662249e-05,-14.41038481,0.1903183918,167.6848761,-1272.315124,1.470106743,-0.1859390341,0.04059268265,34.34389706,34.2226932,2.882800008,-3.136844203e-07,2.606885632e-06,0.08423650329,1.51862123e-05,-25.60974784,0.05242188191,162.7041982,-197.2958018,1.110643927,-0.05005149999,0.01558528317,45.2345294,45.21244927,1.413181147,-6.398963442e-07,1.277924801e-06,0.03125646076,5.31246711e-07,
184000,-28.73383632,0.03658543172,-41.46591906,-41.46591906,1.075949509,0.02741528342,-0.02422593753,52.8171055,52.75505243,-2.559507094,3.379449578e-07,-2.213903293e-06,0.04851681452,-1.100550936e-06,-14.22452215,0.1944347529,-61.96068194,-1141.960682,1.482728751,0.09139937473,-0.1716130165,59.74103178,56.26831787,-20.07155407,4.309444668e-08,-1.736134264e-05,0.3567114646,1.532703095e-05,-14.66983165,0.1847176597,124.6802093,-1315.319791,1.45313789,-0.1051035191,0.1519008363,40.68585599,38.81129639,12.20746288,-7.085604316e-08,1.055911989e-05,0.3145337574,1.519863311e-05,-30.22164972,0.03082602412,157.8889641,-202.1110359,1.063612984,-0.02855895957,0.01160299925,47.22376451,47.21103003,1.09662115,-7.887614761e-07,9.485471559e-07,0.02322807084,-1.750413712e-06,
192000,-30.55260526,0.02967356577,-11.77525227,-11.77525227,1.061162027,0.02904910414,-0.006055580447,52.99170702,52.98781418,-0.6423095097,1.290549155e-06,-5.324309034e-07,0.01212183442,-1.438739819e-06,-14.42466537,0.1900057447,-104.7479706,-1184.747971,1.469153314,-0.04836932459,-0.1837459971,45.53049853,42.54339134,-16.21993063,5.110576699e-08,-1.344521946e-05,0.3812561744,1.516647617e-05,-14.8553436,0.180814319,82.03453979,-1357.96546,1.441448925,0.02505654485,0.179069784,52.48816527,49.22273327,18.22443478,-4.548464769e-08,1.510681708e-05,0.3702442666,1.507723613e-05,-30.47466411,0.029941034,-164.3334987,-164.3334987,1.061730338,-0.02882871836,-0.008085203443,47.19808704,47.19190645,-0.7637970467,1.085277822e-06,-6.331358099e-07,0.01618491611,-1.612775369e-06,
