Frequency,S11_Magnitude,S11_Magnitude (linear),S11_Phase,S11_Unwrapped Phase,S11_VSWR,S11_Real,S11_Imaginary,S11_Impedance (absolute),S11_Resistance,S11_Reactance,S11_Capacitance,S11_Inductance,S11_Quality Factor,S11_Group delay,S12_Magnitude,S12_Magnitude (linear),S12_Phase,S12_Unwrapped Phase,S12_VSWR,S12_Real,S12_Imaginary,S12_Impedance (absolute),S12_Resistance,S12_Reactance,S12_Capacitance,S12_Inductance,S12_Quality Factor,S12_Group delay,S21_Magnitude,S21_Magnitude (linear),S21_Phase,S21_Unwrapped Phase,S21_VSWR,S21_Real,S21_Imaginary,S21_Impedance (absolute),S21_Resistance,S21_Reactance,S21_Capacitance,S21_Inductance,S21_Quality Factor,S21_Group delay,S22_Magnitude,S22_Magnitude (linear),S22_Phase,S22_Unwrapped Phase,S22_VSWR,S22_Real,S22_Imaginary,S22_Impedance (absolute),S22_Resistance,S22_Reactance,S22_Capacitance,S22_Inductance,S22_Quality Factor,S22_Group delay,
0,-13.66409091,0.2073936497,-134.0042097,-134.0042097,1.523320687,-0.1440786956,-0.149175921,37.65173679,35.94537967,-11.20638049,inf,-inf,0.311761361,1.331502971e-05,-13.81676554,0.2037800775,-133.2172107,-133.2172107,1.511868824,-0.1395416778,-0.1485073741,37.99150058,36.28906019,-11.24536469,inf,-inf,0.3098830509,-5.58801379e-06,-16.35092304,0.1522137369,-163.3193055,-163.3193055,1.359085169,-0.145808471,-0.04369109161,37.29624417,37.14790868,-3.32305735,inf,-inf,0.08945476255,-2.215851412e-05,-16.64571277,0.1471344471,-163.1410619,-163.1410619,1.345035502,-0.140810855,-0.04267140316,37.67701578,37.53448106,-3.274179164,inf,-inf,0.08723123569,-2.596346131e-06,
8000,-21.21538297,0.08694224522,-116.5622972,-116.5622972,1.19044194,-0.03887801622,-0.07776537699,46.27938271,45.72133705,-7.165235711,2.776512691e-06,-0.0001425478352,0.1567153582,1.331502971e-05,-30.68342518,0.02922999501,133.8070682,-226.1929318,1.060220227,-0.02023394397,0.0210945519,48.01759987,47.97485015,2.025746716,-9.820757813e-06,4.030095041e-05,0.04222518068,-5.58801379e-06,-29.51123796,0.03345323352,-104.1720302,-104.1720302,1.069222173,-0.008190492559,-0.03243508385,49.18845156,49.08505057,-3.187722903,6.240933887e-06,-6.341773215e-05,0.06494284646,-2.215851412e-05,-30.9236969,0.02843250702,56.66495391,56.66495391,1.058529144,0.01562462798,0.023754546,51.58635362,51.52813993,2.450035768,-8.120031613e-06,4.87419129e-05,0.04754752978,-2.596346131e-06,
16000,-14.5285894,0.1877459296,139.7325329,-220.2674671,1.462283752,-0.1432568014,0.1213508259,37.63200852,36.49489719,9.180988203,-1.083454605e-06,9.132497844e-05,0.2515690935,1.331502971e-05,-25.33379202,0.05411409492,90.39893027,-269.6010697,1.11441992,-0.0003767742783,0.05411278324,49.96244668,49.67070148,5.391427714,-1.844999965e-06,5.362952318e-05,0.108543418,-5.58801379e-06,-28.27812658,0.03855615085,-83.16534064,-83.16534064,1.080204686,0.004588359747,-0.03828215934,50.46027332,50.3125821,-3.857883609,2.578404366e-06,-3.837507789e-05,0.07667830686,-2.215851412e-05,-8.121709503,0.392567665,-45.31925102,-45.31925102,2.292547803,0.2760362459,-0.279129652,84.17267258,70.25239289,-46.36421144,2.145444435e-07,-0.0004611933396,0.6599662949,-2.596346131e-06,
24000,-7.35826576,0.4286340937,118.2664036,-241.7335964,2.500383866,-0.202989038,0.3775217037,34.97288501,25.67371553,23.74790552,-2.792438246e-07,0.0001574831896,0.9249890413,1.354867303e-05,-19.77968182,0.1025689498,-43.53562597,-43.53562597,1.228583466,0.07435697232,-0.07065005406,57.98968549,57.40729931,-8.197902729,8.089210352e-07,-5.436403093e-05,0.1428024455,3.040687037e-05,-20.536311,0.09401225066,132.4659142,132.4659142,1.207535368,-0.06347250973,0.06935087441,44.05855792,43.63339718,6.105995133,-1.086056542e-06,4.049163783e-05,0.1399385683,-1.09326951e-05,-6.844542578,0.454750171,-50.27627568,-50.27627568,2.668043333,0.2906246252,-0.349764271,84.53352581,63.40054552,-55.91321682,1.18602655e-07,-0.000370786035,0.881904349,1.172208338e-05,
32000,-6.698865408,0.4624414237,96.8450121,-263.1549879,2.720524773,-0.05511562547,0.4591452256,45.64805622,29.68649771,34.67646018,-1.434284799e-07,0.0001724665639,1.168088621,8.774183461e-06,-19.68341726,0.1037120305,-144.078465,-144.078465,1.231425689,-0.08398820011,-0.06084543947,42.27848482,41.96218154,-5.16193751,9.635126272e-07,-2.567337096e-05,0.1230140408,3.123898868e-05,-20.5159796,0.09423256657,37.44432564,37.44432564,1.208072322,0.07481542792,0.05729248073,58.05779247,57.67363796,6.66773962,-7.459187453e-07,3.316261625e-05,0.1156115663,6.244662095e-06,-5.801440958,0.5127763092,-72.28306285,-72.28306285,3.104890706,0.1560453497,-0.4884561312,64.35150549,38.75802455,-51.37053427,9.681799192e-08,-0.0002554960768,1.325416733,7.449025744e-06,
40000,-6.018431564,0.5001248358,69.78057158,-290.2194284,3.000998936,0.1728513516,0.4693050838,66.41671472,41.45603633,51.89004766,-7.667893472e-08,0.0002064639396,1.25168859,6.972767733e-06,-13.72661848,0.2059060351,173.1868325,-186.8131675,1.518593628,-0.2044519824,0.02442707851,33.03408193,32.99117596,1.683115641,-2.36399299e-06,6.696904353e-06,0.05101714603,2.653921826e-05,-13.49102538,0.2115673912,-7.046053876,-7.046053876,1.53667844,0.2099696075,-0.02595235926,76.55372769,76.44096503,-4.153563433,9.579421721e-07,-1.65265038e-05,0.05433687856,2.585009575e-05,-6.140567551,0.4931415802,-98.65114082,-98.65114082,2.945875065,-0.07417728324,-0.4875308696,44.35022304,27.19324094,-35.03526696,1.135676683e-07,-0.000139400898,1.288381441,7.002702142e-06,
48000,-13.80376602,0.2040852881,37.62720707,-322.3727929,1.512832053,0.1616355124,0.1245984187,68.92025001,66.70212761,17.34436605,-1.911703185e-07,5.750919982e-05,0.2600271786,6.602122237e-06,-9.968063522,0.3173926197,72.19626395,-287.803736,1.929941952,0.09704513875,0.3021925149,59.75259887,49.59268237,33.33075046,-9.947954773e-08,0.0001105157019,0.672090092,2.426503798e-05,-10.07280209,0.3135883325,-103.3324907,-103.3324907,1.913703386,-0.07231395906,-0.3051365819,43.79742342,36.27060904,-24.54907775,1.350652768e-07,-8.139806402e-05,0.6768311425,2.395290968e-05,-13.33146077,0.2154899209,-128.3977892,-128.3977892,1.549361765,-0.1338445695,-0.1688832058,38.49016621,36.28133021,-12.8513802,2.58005594e-07,-4.261168091e-05,0.3542146917,6.746403425e-06,
56000,-10.98452181,0.2823409745,47.46745073,-312.5325493,1.786838776,0.1908650229,0.2080552065,72.34990859,65.92417848,29.80791781,-9.534555797e-08,8.471566897e-05,0.4521545583,6.088770598e-06,-10.58467034,0.2956422392,6.162266641,-353.8377334,1.839466123,0.293933981,0.03173560175,91.56492628,91.34426623,6.353011223,-4.47355192e-07,1.805559178e-05,0.06955019165,2.389490823e-05,-10.72290612,0.2909743415,-169.3870563,-169.3870563,1.820772388,-0.2859968668,-0.05358973404,27.81462942,27.6258871,-3.234806205,8.785851067e-07,-9.193489242e-06,0.1170932971,2.362188012e-05,-10.46627634,0.2996996135,-123.0578234,-123.0578234,1.855917316,-0.1634816888,-0.2511843859,36.68932482,32.12136192,-17.7292037,1.60303452e-07,-5.038732869e-05,0.5519443337,6.171198417e-06,
64000,-11.12378506,0.2778502211,12.93101232,-347.0689877,1.769508568,0.2708039989,0.06217668051,86.92614724,86.14747479,11.60894743,-2.142137348e-07,2.886908386e-05,0.1347566769,3.698800116e-06,-9.785780966,0.3241238223,-49.98272894,-409.9827289,1.959121901,0.2084176122,-0.2482304395,74.35289414,65.01862859,-36.06841835,6.894663252e-08,-8.969479797e-05,0.5547397589,2.054234137e-05,-9.929393828,0.3188088059,133.6929274,-226.3070726,1.936033256,-0.2202309433,0.2305154795,32.73953653,29.12782559,14.94814466,-1.663615146e-07,3.717298613e-05,0.5131912305,2.038085086e-05,-11.05295262,0.2801253221,-157.2279309,-157.2279309,1.778261358,-0.2582900996,-0.1084270285,29.67621099,28.88716892,-6.797718044,3.658280573e-07,-1.690453794e-05,0.2353196349,3.737521079e-06,
72000,-16.18940952,0.1550706203,-5.54962765,-365.5496276,1.367061731,0.1543437743,-0.01499655322,68.24639055,68.21418526,-2.096366427,1.05443652e-06,-4.633987215e-06,0.03073211854,3.655979846e-06,-9.652277992,0.3291441195,-109.8103496,-469.8103496,1.981266257,-0.1115495325,-0.3096652276,40.76991066,33.48508206,-23.25800712,9.504190576e-08,-5.141148332e-05,0.694578173,1.917512247e-05,-9.901643654,0.3198289832,74.28616332,-285.7138367,1.940436964,0.08662021865,0.3078758129,58.5862822,48.31329235,33.13877253,-6.670389855e-08,7.325277021e-05,0.6859141846,1.905486201e-05,-16.41934938,0.1510193272,-173.1013272,-173.1013272,1.355766231,-0.149925966,-0.01813951178,36.96593545,36.9404863,-1.371443051,1.611795195e-06,-3.031554733e-06,0.03712574437,3.476945859e-06,
80000,-17.78408865,0.129061161,10.87302459,-349.1269754,1.296372501,0.1267442075,0.0243452077,64.50397953,64.42505073,3.190017919,-6.23644393e-07,6.346339005e-06,0.049515179,2.080743305e-06,-10.37611817,0.3028266494,-165.6271437,-525.6271437,1.868726979,-0.2933484382,-0.07517096079,27.42653235,27.05837575,-4.478725122,4.441971173e-07,-8.910140525e-06,0.1655208414,1.818119098e-05,-11.12293936,0.2778772754,21.3466471,-338.6533529,1.769612328,0.2588135548,0.1011500076,84.41011677,82.45201059,18.07577832,-1.100609198e-07,3.596061838e-05,0.2192278659,1.809591362e-05,-17.09597197,0.1397016068,-157.1963408,-157.1963408,1.324774771,-0.1287823059,-0.05414477487,38.62109144,38.38767257,-4.239728606,4.692368247e-07,-8.434672063e-06,0.110445055,2.058544751e-06,
88000,-16.64448381,0.1471552665,-4.149665183,-364.1496652,1.345092748,0.1467694891,-0.01064845233,67.19928621,67.18337039,-1.46246708,1.236662981e-06,-2.644987101e-06,0.02176828985,1.087197657e-06,-10.39170091,0.3022838566,147.8627104,-572.1372896,1.866495234,-0.2559666829,0.1607998359,30.0584409,28.33591432,10.02924866,-1.803304475e-07,1.813868749e-05,0.3539412402,1.697783544e-05,-10.74577549,0.2902092332,-27.60392907,-387.6039291,1.817731779,0.2571752405,-0.1344704233,83.74287018,80.34965216,-23.59664601,7.664559182e-08,-4.267639606e-05,0.293674526,1.700467537e-05,-16.31814732,0.152789192,-173.1416388,-173.1416388,1.360687542,-0.1516958917,-0.01824537283,36.83237246,36.80669051,-1.375207157,1.315131971e-06,-2.487170645e-06,0.03736296683,1.060288514e-06,
96000,-19.34640919,0.1078150877,-17.73167251,-377.7316725,1.241687763,0.1026931454,-0.03283612383,61.43071464,61.29555721,-4.072759145,4.070616335e-07,-6.752080729e-06,0.06644460595,1.440774876e-06,-10.71564173,0.2912177978,99.371591,-620.628409,1.821741282,-0.04742096544,0.2873309204,45.80401824,38.79084468,24.35730806,-6.806433562e-08,4.038110394e-05,0.6279138354,1.624594509e-05,-11.10778604,0.2783624805,-75.94318248,-435.9431825,1.771474523,0.06760978519,-0.2700270126,56.72321631,48.9519006,-28.65719275,5.785158389e-08,-4.750972793e-05,0.5854153241,1.636573998e-05,-19.33426455,0.1079659406,173.1491805,-186.8508195,1.242066857,-0.1071950742,0.01287867941,40.31978786,40.30610257,1.050423155,-1.57828203e-06,1.741458724e-06,0.02606114431,1.347978266e-06,
104000,-21.40103838,0.08510362924,-6.90292536,-366.9029254,1.186039932,0.08448673063,-0.01022839466,59.22728381,59.2147136,-1.220180231,1.254188481e-06,-1.867285724e-06,0.02060603112,1.115753134e-06,-11.11272797,0.2782041485,53.20945266,-666.7905473,1.770866576,0.1666140958,0.2227942802,68.83986581,61.98874245,29.93865284,-5.111572652e-08,4.581619798e-05,0.4829691918,1.601488318e-05,-11.54851738,0.2645904293,-121.9362473,-481.9362473,1.719572983,-0.1399618064,-0.2245412836,38.25171147,34.44588712,-16.63352911,9.200308492e-08,-2.545488826e-05,0.4828886843,1.602152464e-05,-21.30507049,0.08604912839,-173.5422424,-173.5422424,1.188301431,-0.0855031507,-0.009678001648,42.12386263,42.11585579,-0.8212757408,1.863364416e-06,-1.256827825e-06,0.01950039303,1.028777992e-06,
112000,-20.23639867,0.09731506268,-8.497503545,-368.4975035,1.215612466,0.09624676738,-0.01437988852,60.64721449,60.62166735,-1.7601345,8.073395967e-07,-2.501197377e-06,0.02903474248,1.103372309e-06,-11.43328772,0.2681239531,7.757875808,-712.2421242,1.732703179,0.2656699088,0.03619328351,86.10924176,85.84852953,6.69563239,-2.122318244e-07,9.514669572e-06,0.07799355943,1.563702694e-05,-11.9024507,0.2540255878,-167.1538495,-527.1538495,1.681057108,-0.2476674761,-0.05647849624,30.20346842,29.98565996,-3.620732192,3.924693135e-07,-5.145155589e-06,0.1207487911,1.560883703e-05,-19.90479244,0.1011021469,-176.406926,-176.406926,1.224946909,-0.1009034116,-0.006336058996,40.83482772,40.83148138,-0.5227648662,2.718289559e-06,-7.428626119e-07,0.01280298555,1.108367046e-06,
120000,-21.19083808,0.08718827718,-24.8335948,-384.8335948,1.191032334,0.0791260976,-0.03661770551,58.57992924,58.42106735,-4.311264229,3.07633938e-07,-5.717991775e-06,0.07379639614,3.192874631e-07,-11.7554684,0.2583607758,-36.9447498,-756.9447498,1.696728996,0.2064859283,-0.1552863546,75.22198611,71.37354653,-23.75213781,5.583881347e-08,-3.150225117e-05,0.3327862907,1.536550292e-05,-12.1465287,0.2469866985,147.2914497,-572.7085503,1.65599558,-0.2078220553,0.1334631882,33.0546212,31.7949335,9.038262343,-1.46741834e-07,1.198736774e-05,0.2842673769,1.52997881e-05,-21.0202743,0.08891730376,166.8220114,-193.1779886,1.195190413,-0.086575805,0.02027108523,42.03526996,42.00021505,1.716349832,-7.72739431e-07,2.276379665e-06,0.04086526295,3.77859306e-07,
128000,-24.8308245,0.05734014343,-24.65489904,-384.654899,1.121656063,0.05211283387,-0.02391954421,55.49446325,55.43065213,-2.660499303,4.673551283e-07,-3.308059493e-06,0.04799689704,-6.4987034e-07,-12.18121448,0.2460023614,-80.72449568,-800.7244957,1.652528201,0.03965112696,-0.2427858108,53.88972416,47.87344906,-24.7433879,5.025172777e-08,-3.076587886e-05,0.5168499113,1.513112325e-05,-12.64681703,0.233162739,104.6757158,-615.3242842,1.608115309,-0.05907130335,0.2255558556,44.67881807,40.3253353,19.23705063,-6.463558352e-08,2.391931015e-05,0.477046266,1.502217237e-05,-24.82628308,0.05737013157,167.0065681,-192.9934319,1.12172356,-0.05590121787,0.01289906341,44.70666555,44.69169754,1.156769393,-1.074888392e-06,1.438324742e-06,0.02588331742,-6.318886213e-07,
136000,-24.85724786,0.05716597397,-3.421967081,-363.4219671,1.12126413,0.05706404798,-0.003412185094,56.05166671,56.05035296,-0.3837624738,3.04943035e-06,-4.491006961e-07,0.006846744998,-3.975870195e-07,-12.48307741,0.2375998321,-123.8126037,-843.8126037,1.623294281,-0.132219174,-0.1974126902,38.71712844,35.71625461,-14.94540704,7.830211191e-08,-1.748996623e-05,0.4184483285,1.495296854e-05,-12.95937869,0.2249215488,61.83202147,-658.1679785,1.580383956,0.1061760498,0.198283508,61.37310614,56.63133537,23.65480947,-4.947226211e-08,2.768220482e-05,0.4176982464,1.480534395e-05,-24.57370248,0.0590629148,-170.6901635,-170.6901635,1.125540625,-0.05828493559,-0.00955479917,44.49298682,44.4848082,-0.8530626645,1.371829976e-06,-9.983024987e-07,0.01917649416,-3.141370407e-07,
144000,-22.85955311,0.07194859947,-9.845184509,-369.8451845,1.155053049,0.07088903847,-0.0123022433,57.62852207,57.61090454,-1.424862675,7.756836359e-07,-1.574819013e-06,0.02473251698,9.183257224e-07,-12.71802983,0.2312589281,-166.6963721,-886.6963721,1.601656231,-0.2250529339,-0.05321530588,31.67374234,31.47538471,-3.539224632,3.122838405e-07,-3.911702048e-06,0.1124442057,1.468026164e-05,-13.19451802,0.2189142836,19.2565825,-700.7434175,1.560538438,0.2066662784,0.07219773504,75.87282223,75.01498417,11.37705162,-9.714666833e-08,1.25744028e-05,0.1516637209,1.468757951e-05,-22.51028188,0.07490070511,-178.5516424,-178.5516424,1.161930088,-0.0748767753,-0.001893183968,43.03394343,43.03363146,-0.1638604384,6.745024432e-06,-1.811055468e-07,0.003807729741,9.535613016e-07,
152000,-23.91702071,0.06370139813,-26.51319899,-386.513199,1.136070689,0.05700202077,-0.0284365566,56.03957004,55.94842144,-3.194925493,3.277297065e-07,-3.345317006e-06,0.05710483711,1.620734921e-07,-13.02323349,0.2232740886,150.7184415,-929.2815585,1.57491088,-0.1947456309,0.1092037448,33.86712383,33.00634242,7.587057196,-1.380076579e-07,7.944195107e-06,0.229866645,1.457477828e-05,-13.50707931,0.2111767172,-23.19593647,-743.1959365,1.53542212,0.1941058832,-0.0831775931,73.87286935,72.777873,-12.67209643,8.262815862e-08,-1.326859728e-05,0.1741201812,1.456581858e-05,-23.6605045,0.06561071569,164.1246901,-195.8753099,1.140435505,-0.06310827546,0.01794746728,44.0656013,44.0369951,1.587539042,-6.59556689e-07,1.66226767e-06,0.0360501219,2.340781999e-07,
160000,-27.93791726,0.04009628505,-26.33317349,-386.3331735,1.083542306,0.03593548344,-0.01778631791,53.72627344,53.69220336,-1.913048828,5.199649793e-07,-1.902944859e-06,0.03562991847,-1.517401152e-06,-13.47234937,0.2120227835,110.6142141,-969.3857859,1.538144451,-0.07464767931,0.1984474356,43.30058219,39.98522602,16.61692263,-5.986176962e-08,1.65291586e-05,0.4155765587,1.453554293e-05,-13.46620234,0.2121728857,-64.31145019,-784.3114502,1.538628036,0.09197249065,-0.1912024957,59.73370665,55.45310242,-22.20516026,4.479672214e-08,-2.208788136e-05,0.4004313427,1.451030952e-05,-27.70854054,0.04116925169,165.8678586,-194.1321414,1.085873866,-0.03992327257,0.0100518452,46.16131412,46.15195703,0.9293999026,-1.070280287e-06,9.244911788e-07,0.02013782215,-1.43867667e-06,
168000,-27.63005605,0.04154293705,2.488169124,-357.5118309,1.086687111,0.04150377067,0.001803507482,54.3300775,54.32972285,0.1963069129,-4.825865976e-06,1.859715211e-07,0.003613250769,-1.29447418e-06,-13.55378689,0.2100441816,67.65529607,-1012.344704,1.531787162,0.07985416027,0.1942726725,58.33445459,54.04061379,21.96635275,-4.312736223e-08,2.080984298e-05,0.4064785946,1.456897776e-05,-14.04444061,0.1985079797,-106.1317498,-826.1317498,1.495346116,-0.05515484968,-0.1906917946,44.94745568,41.77533058,-16.58600394,5.711748624e-08,-1.571276496e-05,0.39702867,1.450815562e-05,-27.24892378,0.04340640427,-166.2706401,-166.2706401,1.090752028,-0.04216618043,-0.01030190076,45.95439959,45.94461166,-0.9484205938,9.988720805e-07,-8.984870574e-07,0.02064269475,-1.119254131e-06,
176000,-24.83912848,0.05728535068,-2.495291971,-362.495292,1.121532747,0.05723103285,-0.002494049202,56.07048556,56.06978342,-0.2806024253,3.222671537e-06,-2.537458127e-07,0.005004521298,6.044417713e-07,-13.77438948,0.2047766935,25.5233825,-1054.476618,1.515016831,0.184792437,0.08823406033,72.44626705,71.24774835,13.12326042,-6.890737672e-08,1.186722594e-05,0.184191932,1.461026261e-05,-14.24935681,0.1938796199,-148.2239679,-868.2239679,1.481019026,-0.1648195958,-0.1020970511,35.97914028,35.19567849,-7.467446096,1.21097553e-07,-6.752732718e-06,0.2121694031,1.450927322e-05,-24.50861814,0.05950714204,-172.6370333,-172.6370333,1.126544591,-0.05901645821,-0.007626113997,44.4275459,44.42234242,-0.6799474565,1.32994019e-06,-6.148693111e-07,0.01530642959,8.052595734e-07,
184000,-25.24288651,0.05468342078,-19.79171156,-379.7917116,1.11569335,0.05145325805,-0.01851590516,55.42246535,55.38427463,-2.057131344,4.204751044e-07,-1.779362076e-06,0.0371428778,4.170196456e-07,-14.02153836,0.1990320802,-16.52942243,-1096.529422,1.496978906,0.190806833,-0.05662615512,73.48332763,72.97766571,-8.605797303,1.00510445e-07,-7.443778152e-06,0.117923713,1.457150031e-05,-14.46596286,0.1891044971,169.8428814,-910.1571186,1.466409041,-0.1861408261,0.03334821825,34.32224751,34.24043379,2.368410487,-3.652122474e-07,2.04860998e-06,0.06916999071,1.449584844e-05,-25.10225081,0.05557602224,169.4943955,-190.5056045,1.117692951,-0.05464440566,0.01013327083,44.81919502,44.80993641,0.9109561082,-9.495216169e-07,7.879519976e-07,0.02032933276,2.224619987e-07,
192000,-28.79457828,0.03633047583,-23.89719465,-383.8971947,1.07540028,0.03321600186,-0.0147173603,53.43495068,53.41175647,-1.574237971,5.265607936e-07,-1.304936222e-06,0.02947362294,-1.668077615e-06,-14.25745497,0.1936989434,-57.68120819,-1137.681208,1.480463077,0.1035571787,-0.1636923682,61.21330295,57.95249356,-19.71235522,4.205139296e-08,-1.634020194e-05,0.3401467996,1.437277244e-05,-14.68423648,0.1844115745,128.7676998,-951.2323002,1.452217243,-0.1154719562,0.1437840608,39.83896639,38.18297934,11.36676435,-7.292594182e-08,9.422274648e-06,0.2976919178,1.430725292e-05,-28.87129164,0.03601101958,166.389603,-193.610397,1.074712513,-0.03499976948,0.00847405853,46.6186139,46.61190262,0.7910097583,-1.047941554e-06,6.556932972e-07,0.01697012381,-1.852414836e-06,
