Frequency,S11_Magnitude,S11_Magnitude (linear),S11_Phase,S11_Unwrapped Phase,S11_VSWR,S11_Real,S11_Imaginary,S11_Impedance (absolute),S11_Resistance,S11_Reactance,S11_Capacitance,S11_Inductance,S11_Quality Factor,S11_Group delay,S12_Magnitude,S12_Magnitude (linear),S12_Phase,S12_Unwrapped Phase,S12_VSWR,S12_Real,S12_Imaginary,S12_Impedance (absolute),S12_Resistance,S12_Reactance,S12_Capacitance,S12_Inductance,S12_Quality Factor,S12_Group delay,S21_Magnitude,S21_Magnitude (linear),S21_Phase,S21_Unwrapped Phase,S21_VSWR,S21_Real,S21_Imaginary,S21_Impedance (absolute),S21_Resistance,S21_Reactance,S21_Capacitance,S21_Inductance,S21_Quality Factor,S21_Group delay,S22_Magnitude,S22_Magnitude (linear),S22_Phase,S22_Unwrapped Phase,S22_VSWR,S22_Real,S22_Imaginary,S22_Impedance (absolute),S22_Resistance,S22_Reactance,S22_Capacitance,S22_Inductance,S22_Quality Factor,S22_Group delay,
0,-13.52404483,0.2107646437,-135.4466486,-135.4466486,1.534098332,-0.1501903545,-0.1478668064,37.19111518,35.52857407,-10.99542963,inf,-inf,0.3094813096,1.469938529e-05,-13.65284098,0.2076624392,-134.7613599,-134.7613599,1.524176688,-0.1462266524,-0.1474498382,37.48523007,35.8225814,-11.04016009,inf,-inf,0.3081899645,2.500035443e-06,-16.34780415,0.1522684029,-163.2654948,-163.2654948,1.359237295,-0.145819724,-0.04384375219,37.29553949,37.14616958,-3.334569115,inf,-inf,0.08976885511,1.503324365e-05,-16.65404109,0.1469934373,-163.1406379,-163.1406379,1.344647846,-0.1406755901,-0.04263154919,37.68735774,37.54506059,-3.271904466,inf,-inf,0.08714606966,2.291153423e-05,
8000,-10.78958774,0.2887490826,-62.48587932,-62.48587932,1.811947164,0.1333926067,-0.2560906972,64.29253899,56.1250473,-31.36095718,6.343673687e-07,-0.0006239064194,0.5587693674,1.469938529e-05,-26.7610945,0.04591401532,14.06809661,14.06809661,1.096247122,0.04453693988,0.01116054609,54.66068496,54.64701566,1.222357923,-1.627540307e-05,2.43180382e-05,0.02236824661,2.500035443e-06,-18.31520405,0.1214059014,-103.2243577,-103.2243577,1.276364026,-0.02777338942,-0.1181864278,47.33397316,46.02790511,-11.04250723,1.801616923e-06,-0.0002196837011,0.2399089682,1.503324365e-05,-18.1414037,0.1238596404,75.06875827,-284.9312417,1.282739264,0.03191363677,0.1196776099,53.24846027,51.74169033,12.57759926,-1.581730144e-06,0.0002502233868,0.2430844292,2.291153423e-05,
16000,-8.614768279,0.370904059,174.8804009,-185.1195991,2.179165322,-0.369424374,0.03309762633,23.04834457,22.98075156,1.763872245,-5.639401591e-06,1.754556167e-05,0.07675433244,1.469938529e-05,-33.82428797,0.02036036699,5.146439465,5.146439465,1.041567054,0.02027828799,0.001826357095,52.06979377,52.06944612,0.1902736816,-5.227829649e-05,1.892687311e-06,0.003654229031,2.500035443e-06,-29.16611724,0.03480920767,172.4050576,-187.5949424,1.072129175,-0.03450383382,0.004600694481,46.66476567,46.66278555,0.4298833213,-2.313926466e-05,4.276128471e-06,0.009212551635,1.503324365e-05,-11.29066159,0.2725630125,-12.55297033,-372.5529703,1.749379031,0.2660475273,-0.05923942118,86.06309129,85.36674814,-10.92584071,9.10427326e-07,-0.0001086813473,0.1279870787,2.291153423e-05,
24000,-7.594949306,0.4171118563,119.1138355,-240.8861645,2.431190052,-0.2029442556,0.3644117585,34.86312743,26.1419381,23.06592133,-2.875001553e-07,0.0001529606415,0.8823340197,1.812706627e-05,-21.14887971,0.0876104709,-44.00363353,-44.00363353,1.1920462,0.063017839,-0.06086334347,56.69902808,56.2771936,-6.903424213,9.606038623e-07,-4.577975366e-05,0.1226682386,1.913443521e-05,-21.3495702,0.0856094072,132.6224681,-227.3775319,1.187249099,-0.05797165767,0.06299410693,44.54103483,44.18657176,5.60808877,-1.182480562e-06,3.718979371e-05,0.126918395,2.262516621e-05,-6.978512254,0.4477899965,-51.08970275,-411.0897027,2.62181052,0.2812582017,-0.3484389544,83.11702216,62.65554653,-54.6143009,1.21423434e-07,-0.0003621723313,0.8716594766,1.408322389e-05,
32000,-6.227001077,0.4882586502,102.0823459,-257.9176541,2.908224342,-0.1022009705,0.4774426365,42.32785877,26.39327379,33.0914298,-1.502984912e-07,0.0001645832696,1.25378269,1.07779895e-05,-19.98227944,0.1002042238,-141.7260052,-141.7260052,1.222726593,-0.07866608674,-0.06206877845,42.73321042,42.40114611,-5.316961696,9.354199364e-07,-2.644439801e-05,0.1253966504,2.550343262e-05,-20.12973161,0.09851750835,42.3323837,-317.6676163,1.218567769,0.07282912604,0.06634468969,57.81767387,57.30555096,7.678361865,-6.477412838e-07,3.818903893e-05,0.1339898445,2.404527656e-05,-5.930790746,0.5051966507,-69.98750032,-429.9875003,3.042009827,0.172890994,-0.474691858,66.34054143,40.94690019,-52.19596537,9.528690457e-08,-0.0002596014343,1.274723242,9.346612539e-06,
40000,-6.560829836,0.4698492178,72.88339394,-287.1166061,2.772511646,0.1382847677,0.4490385401,62.96497574,41.26514485,47.55813274,-8.366336834e-08,0.0001892277978,1.152501292,7.044298889e-06,-14.26444504,0.1935431245,171.9684519,-188.0315481,1.479983817,-0.1916447156,0.02704152403,33.927868,33.87443821,1.90332958,-2.090480608e-06,7.573107776e-06,0.05618778291,2.67597474e-05,-13.97834216,0.2000243612,-3.990414213,-363.9904142,1.500076131,0.1995394435,-0.01391961064,74.9217969,74.89031327,-2.171780382,1.83207916e-06,-8.641239577e-06,0.0289994832,2.620961481e-05,-6.657102933,0.4646702342,-99.01240081,-459.0124008,2.736014935,-0.07278977047,-0.458933629,44.33249334,28.79481249,-33.70799223,1.180394712e-07,-0.0001341198396,1.170627252,6.795253645e-06,
48000,-13.64624443,0.2078202097,42.79257281,-317.2074272,1.524679403,0.1525021968,0.1411818668,67.57150277,64.80834481,19.1255439,-1.733664673e-07,6.341510108e-05,0.2951092789,7.051322437e-06,-10.30838988,0.3051971725,69.91096699,-290.089033,1.878514481,0.1048291053,0.2866289811,60.71686781,51.32246313,32.44291625,-1.022019092e-07,0.0001075718852,0.632138722,2.45794015e-05,-10.41448961,0.3014918104,-105.5404837,-465.5404837,1.863244883,-0.08077544027,-0.2904696885,43.07040316,36.29302569,-23.19215201,1.42967672e-07,-7.689886735e-05,0.6390250349,2.457437168e-05,-13.24828289,0.2175634091,-123.1828419,-483.1828419,1.556117676,-0.1190751987,-0.1820849638,39.66980997,37.05475873,-14.16469833,2.340839109e-07,-4.696628658e-05,0.382263947,6.803607585e-06,
56000,-10.72955703,0.2907516235,47.32081804,-312.679182,1.81988661,0.1970983737,0.2137492402,73.17849621,66.30528527,30.96290447,-9.17889521e-08,8.799820176e-05,0.4669749077,6.244669915e-06,-10.87555075,0.2859054687,4.837517753,-355.1624822,1.800749638,0.2848870313,0.02411050457,89.80283391,89.67926591,4.709378414,-6.03487829e-07,1.338430096e-05,0.05251357007,2.393507634e-05,-10.98756054,0.2822422157,-170.8595514,-530.8595514,1.786455325,-0.2786582778,-0.04483561636,28.24405431,28.11093881,-2.738927317,1.037651689e-06,-7.784175379e-06,0.09743279422,2.397947093e-05,-10.36481689,0.3032209159,-122.3436845,-482.3436845,1.870350224,-0.1622221753,-0.2561774574,36.80592905,32.05539518,-18.08668166,1.571351013e-07,-5.140329983e-05,0.5642320602,5.940556715e-06,
64000,-11.18214175,0.2759897241,13.32459073,-346.6754093,1.762391732,0.2685600941,0.06360663244,86.4991248,85.69051413,11.7997618,-2.107496769e-07,2.934360027e-05,0.1377020772,3.726244827e-06,-10.01811644,0.3155688868,-52.10391974,-412.1039197,1.922134838,0.1938322609,-0.2490236473,72.26805789,63.23865666,-34.97920089,7.109356196e-08,-8.698613636e-05,0.5531300432,2.041075529e-05,-10.14896587,0.3108505974,131.8960001,-588.1039999,1.902128323,-0.2075799961,0.2313841808,33.56968848,29.87759708,15.30533167,-1.624790654e-07,3.806123737e-05,0.512267825,2.027262906e-05,-11.26688248,0.2733102226,-156.2938077,-516.2938077,1.752206047,-0.2502480729,-0.1098834827,30.1880715,29.37102211,-6.975867046,3.564855766e-07,-1.734755817e-05,0.2375084878,3.648772283e-06,
72000,-16.25827116,0.1538460825,-2.305861794,-362.3058618,1.363636164,0.1537215109,-0.006189845976,68.1635697,68.15809078,-0.8642313282,2.55774727e-06,-1.910370665e-06,0.01267980541,3.504000907e-06,-9.936623242,0.3185435662,-111.6892041,-471.6892041,1.93489048,-0.1177246807,-0.2959913903,40.24218185,33.60449478,-22.13980873,9.984211461e-08,-4.89397222e-05,0.6588347445,1.916496678e-05,-10.16956695,0.3101141997,71.98696252,-648.0130375,1.899030534,0.09589766725,0.2949143169,59.66887354,49.96979688,32.60972048,-6.778608612e-08,7.208330843e-05,0.6525886138,1.908339912e-05,-16.64342323,0.1471732357,-168.0009346,-528.0009346,1.34514216,-0.1439576465,-0.03059668816,37.42633095,37.35333405,-2.336382583,9.461144491e-07,-5.164539404e-06,0.0625481672,3.253387027e-06,
80000,-17.52794903,0.1329237388,13.94798721,-346.0520128,1.306602187,0.1290044746,0.03204006654,64.79342192,64.6560024,4.217686359,-4.716891251e-07,8.390820405e-06,0.06523271161,2.081509953e-06,-11.01197163,0.2814501074,-165.7405483,-525.7405483,1.783383618,-0.2727787112,-0.06932487028,28.65529253,28.33585488,-4.266745609,4.662656204e-07,-8.488420683e-06,0.1505776207,1.821235473e-05,-11.63566068,0.2619491334,21.11040086,-698.8895991,1.709840325,0.2443692475,0.09434521361,81.93987498,80.30838218,16.26981447,-1.222777796e-07,3.236776746e-05,0.2025917349,1.81658785e-05,-17.05860007,0.1403039819,-152.8965377,-512.8965377,1.326403703,-0.1248965387,-0.0639223119,38.93788035,38.61093193,-5.035321412,3.95096286e-07,-1.001745366e-05,0.1304118073,1.907453861e-06,
88000,-16.43256589,0.1507897098,-3.448493261,-363.4484933,1.355129257,0.1505166712,-0.009070186451,67.71685835,67.70519496,-1.256773416,1.43906521e-06,-2.27297388e-06,0.01856243699,1.22676318e-06,-10.65627645,0.2932149958,145.6803104,-574.3196896,1.829714819,-0.2421676111,0.1653175184,30.94892397,29.1033241,10.52769781,-1.717924404e-07,1.904017211e-05,0.361735236,1.710895631e-05,-11.01343719,0.2814026225,-30.26769919,-750.2676992,1.783199692,0.243041773,-0.1418384029,81.22680767,77.62658277,-23.91459663,7.562656928e-08,-4.325143484e-05,0.3080722579,1.713145206e-05,-16.33573335,0.1524801577,-170.8910927,-530.8910927,1.359826756,-0.150557262,-0.02413937329,36.92118254,36.87616353,-1.822713402,9.922453506e-07,-3.296520998e-06,0.04942795638,1.107956007e-06,
96000,-19.2720958,0.1087414726,-16.07783686,-376.0778369,1.2440178,0.104488197,-0.03011518792,61.6560518,61.54184266,-3.751043304,4.419741006e-07,-6.21871962e-06,0.06095110484,1.535158839e-06,-10.98552439,0.2823083869,96.95341494,-623.0465851,1.786712236,-0.03417690291,0.2802319836,46.92872497,40.081029,24.40934947,-6.791922056e-08,4.046738152e-05,0.6090000702,1.644593964e-05,-11.41924166,0.2685578904,-78.56531945,-798.5653195,1.73432439,0.05324177692,-0.2632273802,55.2391411,48.04465766,-27.259376,6.081811964e-08,-4.519233787e-05,0.5673757983,1.658039095e-05,-19.43364893,0.1067376295,177.6839357,-542.3160643,1.238983826,-0.106650436,0.004313474616,40.36293496,40.36139824,0.3522084164,-4.707053873e-06,5.839136508e-07,0.008726368059,1.423567172e-06,
104000,-21.11776034,0.08792492025,-4.958339552,-364.9583396,1.192801935,0.0875958882,-0.007599471724,59.59994591,59.59295542,-0.9128066775,1.676517086e-06,-1.396900912e-06,0.01531735876,9.415599416e-07,-11.40899467,0.2688749029,50.59484352,-669.4051565,1.73550998,0.1706818031,0.2077533044,69.53511095,63.46067,28.4231423,-5.384119656e-08,4.349695764e-05,0.4478859472,1.60905411e-05,-11.85126062,0.2555271018,-124.868087,-844.868087,1.686464484,-0.1460820257,-0.2096524303,37.73401832,34.42853467,-15.44448572,9.908623823e-08,-2.363525236e-05,0.4485954999,1.599914108e-05,-20.89695603,0.09018871482,-169.2457378,-529.2457378,1.19825807,-0.08860468709,-0.01682895442,41.86284422,41.83876224,-1.419753527,1.077888494e-06,-2.172699921e-06,0.03393392756,1.031015087e-06,
112000,-20.0444051,0.09949007194,-7.403376922,-367.4033769,1.220963854,0.09866067988,-0.01281969809,60.94399357,60.92356968,-1.577659648,9.007178951e-07,-2.241895817e-06,0.02589571912,8.516295547e-07,-11.73874213,0.2588587762,4.980654307,-715.0193457,1.698541028,0.2578813433,0.02247395758,84.72402562,84.62587692,4.076944057,-3.485518216e-07,5.793444637e-06,0.04817609229,1.569947074e-05,-12.19594478,0.2455855224,-170.3470349,-890.3470349,1.651062592,-0.2421083881,-0.04117981609,30.53649581,30.41987998,-2.666173016,5.329835194e-07,-3.788701917e-06,0.08764574411,1.563063051e-05,-19.66709166,0.1039071462,-174.2185824,-534.2185824,1.231911561,-0.1033786154,-0.01046694381,40.63166175,40.62256644,-0.8596698336,1.652990744e-06,-1.221613424e-06,0.02116237128,1.002416222e-06,
120000,-21.27389518,0.08635852995,-21.34418639,-381.3441864,1.189042492,0.0804352685,-0.03143188312,58.73765373,58.62019503,-3.712775357,3.572236574e-07,-4.924221256e-06,0.06333611404,2.96871792e-07,-12.13593046,0.2472882475,-40.03710121,-760.0371012,1.657059616,0.1893308194,-0.1590764538,72.6231316,68.78113561,-23.30825235,5.690221526e-08,-3.09135298e-05,0.3388756545,1.541566796e-05,-12.68232003,0.2322116467,145.235527,-934.764473,1.604884525,-0.1907625481,0.132408078,34.2207327,32.9541085,9.224168232,-1.437843672e-07,1.223393308e-05,0.279909506,1.534627744e-05,-21.01936479,0.08892661491,170.2135491,-549.7864509,1.195212848,-0.08763256562,0.01511543191,41.9445205,41.92506062,1.27753346,-1.038165523e-06,1.694381376e-06,0.03047183333,3.523478715e-07,
128000,-24.40040592,0.06025314269,-20.14837903,-380.148379,1.128232709,0.05656587572,-0.02075434673,55.99299697,55.94447079,-2.330643151,5.334999449e-07,-2.897917017e-06,0.0416599374,-4.542317034e-07,-12.49335094,0.237318969,-83.80299141,-803.8029914,1.622328233,0.02561797776,-0.2359322196,52.48698755,46.9452996,-23.47387287,5.296944393e-08,-2.918736641e-05,0.5000260531,1.517466477e-05,-12.97650298,0.2244785515,101.3017942,-978.6982058,1.578909976,-0.04399259999,0.2201255806,45.97335551,41.70895776,19.33681098,-6.430212274e-08,2.404335196e-05,0.4636129027,1.511048426e-05,-24.53927203,0.05929750201,173.5194987,-546.4805013,1.12607068,-0.05891861013,0.006692617235,44.4362004,44.43219211,0.596833893,-2.083323363e-06,7.421020646e-07,0.01343246562,-5.430982379e-07,
136000,-24.13547315,0.06211926985,-2.860792303,-362.8607923,1.132467312,0.06204185336,-0.003100341775,56.61449717,56.61340039,-0.3524016292,3.320804552e-06,-4.124004503e-07,0.006224703458,-1.33202261e-07,-12.8043712,0.2289715057,-126.9989523,-846.9989523,1.593937857,-0.1377951481,-0.1828672951,38.24134137,35.6761683,-13.76993844,8.498635919e-08,-1.611436595e-05,0.3859702176,1.498411271e-05,-13.30360483,0.2161821136,58.32110333,-1021.678897,1.551613117,0.1135298189,0.183971972,62.33024007,58.14897454,22.44450015,-5.214003103e-08,2.626583195e-05,0.3859827337,1.493354391e-05,-23.84156945,0.06425716009,-168.1885877,-528.1885877,1.137339357,-0.06289661994,-0.01315286372,44.08349385,44.06812246,-1.164050362,1.005331876e-06,-1.362238009e-06,0.02641479367,-1.58368807e-07,
144000,-22.59548929,0.07416953144,-10.10413744,-370.1041374,1.160222706,0.07301920012,-0.01301214079,57.8756533,57.85584752,-1.513985482,7.300219675e-07,-1.673321342e-06,0.02616823618,8.246141856e-07,-13.06038281,0.2223211907,-170.0535929,-890.0535929,1.571755815,-0.2189796472,-0.03840085883,32.05861964,31.95449212,-2.581768194,4.280952344e-07,-2.853480348e-06,0.08079515659,1.482941599e-05,-13.55548255,0.2100031806,15.5192036,-1064.480796,1.531655762,0.2023466389,0.05618873184,75.26349178,74.74871893,8.7876171,-1.257727377e-07,9.712449301e-06,0.1175621098,1.47774735e-05,-22.24782538,0.07719847669,-177.1968994,-537.1968994,1.167313284,-0.07710610812,-0.003775300502,42.84145906,42.8402232,-0.3254087398,3.396475033e-06,-3.596556213e-07,0.007595869385,8.417390058e-07,
152000,-23.8612129,0.06411200441,-24.44819463,-384.4481946,1.137007857,0.05836345627,-0.02653405511,56.19344082,56.11382914,-2.990145412,3.501742724e-07,-3.130897519e-06,0.05328713897,1.42588966e-08,-13.37397343,0.2144377928,147.3169765,-932.6830235,1.545947325,-0.1804860321,0.1157944697,34.88821383,33.90357208,8.230143659,-1.272240239e-07,8.617552933e-06,0.2427515201,1.467434891e-05,-13.88641107,0.2021526536,-26.91621002,-1106.91621,1.506745193,0.180253354,-0.0915118777,71.75922203,70.48736934,-13.45052823,7.784616156e-08,-1.408367142e-05,0.1908218219,1.463133087e-05,-23.68486039,0.06542699599,167.852259,-552.147741,1.140014736,-0.06396197009,0.01376801318,43.98939704,43.97258588,1.216035758,-8.61053622e-07,1.273276986e-06,0.02765440635,7.892043826e-08,
160000,-27.3975284,0.04267009207,-21.22912214,-381.2291221,1.089143965,0.03977449429,-0.01545077216,54.14117229,54.11524668,-1.675294965,5.937571681e-07,-1.666446718e-06,0.03095791053,-1.411955291e-06,-13.80075249,0.204156107,105.495454,-974.504546,1.51305566,-0.05454273706,0.1967353701,45.01145078,41.63839383,17.09604807,-5.818411308e-08,1.700575349e-05,0.4105837545,1.458336665e-05,-14.09821533,0.1972828046,-68.87516744,-1148.875167,1.491537507,0.07110094488,-0.1840248914,57.38380785,53.58868873,-20.52203314,4.847075276e-08,-2.041364385e-05,0.3829545679,1.455474533e-05,-26.77787617,0.04582539231,173.3780337,-546.6219663,1.096052425,-0.04551967405,0.005284491959,45.64633198,45.64377203,0.4834234656,-2.057654345e-06,4.808702135e-07,0.01059122514,-1.274637043e-06,
168000,-26.71172441,0.04617573099,2.496371939,-357.5036281,1.096822303,0.04613190937,0.002011235954,54.83627807,54.83583255,0.2210469118,-4.2857457e-06,2.094089801e-07,0.004031066941,-1.087820031e-06,-13.92139342,0.2013401228,63.91589997,-1016.0841,1.504194911,0.08852722734,0.1808335562,59.37367853,55.55764973,20.94233175,-4.523616869e-08,1.983973582e-05,0.3769477624,1.45621516e-05,-14.44682572,0.1895216,-110.1728757,-1190.172876,1.467678349,-0.06535725705,-0.1778956599,44.0429194,41.31897536,-15.2486401,6.212690743e-08,-1.444581218e-05,0.369046908,1.45333289e-05,-26.12124457,0.04942398642,-164.6125085,-524.6125085,1.103987447,-0.04765230237,-0.01311443907,45.4522638,45.43656075,-1.194668267,7.929823514e-07,-1.131770001e-06,0.02629310511,-7.633543906e-07,
176000,-24.51082134,0.0594920498,-3.244264528,-363.2442645,1.126510467,0.05939670431,-0.003366824378,56.31466913,56.31338338,-0.3805413956,2.376323469e-06,-3.441195691e-07,0.006757565835,4.37702588e-07,-14.15340446,0.1960332666,21.64646565,-1058.353534,1.48766512,0.1822085378,0.07231244959,72.13419976,71.33189075,10.72865962,-8.428727183e-08,9.701813696e-06,0.150404812,1.453826278e-05,-14.66179238,0.1848887052,-152.4407963,-1232.440796,1.453652664,-0.163909982,-0.08554151689,36.00767529,35.45570756,-6.280563759,1.439822099e-07,-5.679447543e-06,0.1771382999,1.449590263e-05,-24.02787228,0.06289359013,-172.6097422,-532.6097422,1.134229346,-0.06237113608,-0.008089812391,44.12942644,44.12360551,-0.7167385147,1.261672745e-06,-6.481390768e-07,0.01624387913,8.376306922e-07,
184000,-25.18902655,0.05502355833,-17.77601499,-377.776015,1.116454878,0.05239658392,-0.01679851079,55.52772831,55.49622578,-1.870170007,4.625100999e-07,-1.617645658e-06,0.03369904855,4.002826612e-07,-14.41015771,0.1903233679,-20.4535124,-1100.453512,1.470121924,0.1783246264,-0.06650798441,71.58258107,70.91040831,-9.7867209,8.838226058e-08,-8.465244608e-06,0.1380152947,1.436005827e-05,-14.89734282,0.1799421308,165.5866683,-1274.413332,1.438852275,-0.1742785007,0.04479034091,35.18477593,35.0349585,3.24347655,-2.666806753e-07,2.805518075e-06,0.09257829005,1.428803532e-05,-24.93061858,0.05668512007,171.8384501,-548.1615499,1.120182818,-0.05611099751,0.008047284985,44.68734381,44.68151978,0.7214480053,-1.198939508e-06,6.240326969e-07,0.01614645179,3.667442082e-07,
192000,-28.28236588,0.03853733748,-17.39584594,-377.3958459,1.080163981,0.03677471701,-0.01152156972,53.8173461,53.80302115,-1.241634503,6.676135313e-07,-1.029230566e-06,0.02307741232,-1.339186778e-06,-14.64901334,0.1851609213,-61.67082381,-1141.670824,1.454472364,0.08786561642,-0.1629852762,59.3583589,56.24085278,-18.98371012,4.366543684e-08,-1.573620471e-05,0.3375430702,1.429273397e-05,-15.11732382,0.1754420967,124.5040627,-1315.495937,1.425542211,-0.09938174975,0.1445793799,41.13050284,39.41382012,11.75878595,-7.049469214e-08,9.747233897e-06,0.2983416961,1.422527873e-05,-28.30071658,0.03845600549,173.0906724,-546.9093276,1.079988031,-0.03817672916,0.004626198085,46.32278976,46.32080123,0.429213152,-1.93128284e-06,3.557885144e-07,0.009266099474,-1.500074726e-06,
