Frequency,S11_Magnitude,S11_Magnitude (linear),S11_Phase,S11_Unwrapped Phase,S11_VSWR,S11_Real,S11_Imaginary,S11_Impedance (absolute),S11_Resistance,S11_Reactance,S11_Capacitance,S11_Inductance,S11_Quality Factor,S11_Group delay,S12_Magnitude,S12_Magnitude (linear),S12_Phase,S12_Unwrapped Phase,S12_VSWR,S12_Real,S12_Imaginary,S12_Impedance (absolute),S12_Resistance,S12_Reactance,S12_Capacitance,S12_Inductance,S12_Quality Factor,S12_Group delay,S21_Magnitude,S21_Magnitude (linear),S21_Phase,S21_Unwrapped Phase,S21_VSWR,S21_Real,S21_Imaginary,S21_Impedance (absolute),S21_Resistance,S21_Reactance,S21_Capacitance,S21_Inductance,S21_Quality Factor,S21_Group delay,S22_Magnitude,S22_Magnitude (linear),S22_Phase,S22_Unwrapped Phase,S22_VSWR,S22_Real,S22_Imaginary,S22_Impedance (absolute),S22_Resistance,S22_Reactance,S22_Capacitance,S22_Inductance,S22_Quality Factor,S22_Group delay,
0,-13.32180445,0.2157296195,-134.2451492,-134.2451492,1.550140933,-0.1505209873,-0.1545402896,37.18909084,35.37674393,-11.46797571,inf,-inf,0.324167078,-1.976775447e-05,-13.57872343,0.209442025,-133.4975877,-133.4975877,1.529858737,-0.1441639797,-0.151929947,37.65428777,35.88569288,-11.40449184,inf,-inf,0.3178005196,5.965232504e-07,-15.78817646,0.1624019265,-172.7396392,-172.7396392,1.387780086,-0.1610998062,-0.02052408767,36.13040624,36.09833852,-1.521910381,inf,-inf,0.04216012268,1.022711953e-05,-16.06950476,0.1572261434,-172.6285764,-172.6285764,1.373115854,-0.1559267127,-0.02017226864,36.51554002,36.48433664,-1.509252492,inf,-inf,0.04136713536,-1.123161088e-05,
8000,-15.31546496,0.1714852425,12.5431949,12.5431949,1.413958209,0.1673923283,0.03724240619,70.07019007,69.86476591,5.36153155,-3.710575552e-06,0.0001066642811,0.07674156608,-1.976775447e-05,-21.86987944,0.08063173929,-61.84524677,-61.84524677,1.175406837,0.03804646094,-0.07109109783,53.93442396,53.39044427,-7.640847391,2.603686066e-06,-0.000152009829,0.1431126393,5.965232504e-07,-27.32096141,0.04304789596,111.3152003,-248.6847997,1.089968758,-0.01564784091,0.04010319715,48.46176054,48.30605599,3.881647738,-5.125237844e-06,7.722292811e-05,0.08035530243,1.022711953e-05,-14.95127388,0.1788283239,-171.5328681,-171.5328681,1.435544306,-0.1768791832,-0.02633104555,34.97962365,34.92797612,-1.900146115,1.046991478e-05,-3.780220584e-05,0.05440183846,-1.123161088e-05,
16000,-12.62600751,0.2337220165,136.4890515,136.4890515,1.610018874,-0.1695052149,0.1609160126,35.82903795,33.91752726,11.54648453,-8.614902583e-07,0.0001148550056,0.3404282525,-1.976775447e-05,-25.27459826,0.05448413835,-84.86606892,-84.86606892,1.115247434,0.004875466576,-0.05426556143,50.48848976,50.19199673,-5.463612614,1.820623944e-06,-5.434755966e-05,0.1088542591,5.965232504e-07,-30.65813342,0.02931523156,115.2841335,-244.7158665,1.060401136,-0.01252075486,0.02650685759,48.76426523,48.69576703,2.583763966,-3.849881054e-06,2.570117544e-05,0.05305931344,1.022711953e-05,-5.562913088,0.5270530678,-50.08807527,-50.08807527,3.228804257,0.3381621418,-0.4042663753,90.12407298,60.0384298,-67.21410177,1.479925147e-07,-0.0006685910339,1.119517982,-1.123161088e-05,
24000,-7.689808866,0.4125813159,120.0770685,120.0770685,2.404726567,-0.206771083,0.3570280962,34.56058055,26.19632305,22.54298975,-2.941693199e-07,0.0001494928438,0.8605402256,-2.419349155e-06,-21.23332105,0.08676287759,-52.8155149,-52.8155149,1.190011719,0.05243804325,-0.06912342981,55.50615547,54.97536822,-7.657818515,8.659719409e-07,-5.078248625e-05,0.1392954475,1.213571798e-05,-21.89530876,0.08039602233,122.0241754,-237.9758246,1.174849227,-0.04263216495,0.06816171152,45.9292743,45.50293735,6.243470981,-1.062142514e-06,4.140330286e-05,0.1372102845,1.176682631e-05,-6.730072818,0.4607829057,-49.41800562,-49.41800562,2.709081224,0.2997556741,-0.3499534569,85.97382266,64.2678569,-57.10639853,1.161245698e-07,-0.000378698567,0.8885685828,-3.710316087e-06,
32000,-6.508786966,0.4726728437,96.64357837,96.64357837,2.792711937,-0.05468477985,0.4694988733,45.71320049,29.1336543,35.22679216,-1.411877627e-07,0.0001752036907,1.209144304,7.723229799e-06,-20.16674231,0.09809861692,-146.6023884,-146.6023884,1.217537347,-0.08189967174,-0.05399798525,42.45049567,42.20033737,-4.601750595,1.080804331e-06,-2.288722981e-05,0.1090453508,2.038395451e-05,-20.99284336,0.08919855773,34.63535199,-325.364648,1.195868284,0.07339131091,0.0506961358,57.89839538,57.59834207,5.886864893,-8.448625986e-07,2.927886397e-05,0.1022054573,2.094024715e-05,-5.640919862,0.5223408686,-71.95081096,-71.95081096,3.187086289,0.1618386329,-0.4966369297,64.84649041,38.30534027,-52.32368705,9.505431005e-08,-0.0002602366698,1.365963249,6.620112069e-06,
40000,-7.096454509,0.4417507287,67.30455931,67.30455931,2.582628949,0.1704418455,0.4075454374,67.04624285,47.10839085,47.70742282,-8.340156191e-08,0.0001898218041,1.012716035,7.057839132e-06,-14.34675919,0.1917176251,154.2685741,-205.7314259,1.474382793,-0.1727067194,0.08323482958,35.36192943,34.84538764,6.022043929,-6.607181256e-07,2.396095147e-05,0.1728218378,2.710229852e-05,-14.19864085,0.1950149732,-17.80270777,-377.8027078,1.484518262,0.1856766705,-0.05962393677,72.69872629,72.14651476,-8.9434452,4.448927106e-07,-3.55848378e-05,0.1239622625,2.631080268e-05,-7.101212419,0.4415088151,-107.1729486,-107.1729486,2.581077113,-0.1303585667,-0.4218254116,40.05575062,27.65333469,-28.9785479,1.373041048e-07,-0.0001153019786,1.047922365,7.026505561e-06,
48000,-13.17910263,0.2193031493,51.66079702,51.66079702,1.561813844,0.1360372188,0.1720108903,65.21512894,61.33262181,22.16579674,-1.49587584e-07,7.349575247e-05,0.3614030525,7.263470006e-06,-10.62464255,0.2942848281,58.06294167,-301.9370583,1.834004538,0.1556729456,0.2497388517,67.14175715,58.90921668,32.2136577,-1.02929261e-07,0.0001068117262,0.5468356143,2.504159932e-05,-10.61338886,0.2946663593,-116.3419839,-476.3419839,1.835537517,-0.1307517078,-0.2640686543,39.11867132,33.86302313,-19.58484388,1.693007104e-07,-6.493801486e-05,0.5783548564,2.494058177e-05,-12.95558921,0.225019699,-116.5402176,-116.5402176,1.580710758,-0.1005446258,-0.2013073351,41.19162862,37.92236967,-16.08241731,2.061709952e-07,-5.332492107e-05,0.4240878786,7.194184797e-06,
56000,-10.11869006,0.3119359988,40.93557567,40.93557567,1.906706348,0.235651048,0.2043835878,79.14784825,72.10008705,32.64903261,-8.704859924e-08,9.279026656e-05,0.4528293092,6.106004097e-06,-10.79671476,0.2885122528,-5.421278691,-365.4212787,1.811011163,0.2872217218,-0.02725807269,90.25035602,90.09120578,-5.357369026,5.304940804e-07,-1.522592433e-05,0.05946605975,2.394313789e-05,-10.89096507,0.2853985395,178.6372847,-541.3627153,1.798762822,-0.2853178223,0.006787241585,27.80263483,27.79959935,0.4108280978,-6.917863142e-06,1.167595045e-06,0.01477820211,2.424759829e-05,-9.976674053,0.3170781367,-128.3049824,-128.3049824,1.928592724,-0.1965400184,-0.2488183392,34.41126494,30.11014547,-16.6587603,1.706040849e-07,-4.734507227e-05,0.5532607046,5.515512684e-06,
64000,-11.79992723,0.2570417317,5.234102112,5.234102112,1.691941237,0.2559699392,0.02344871131,84.37598757,84.26980867,4.23162201,-5.876696879e-07,1.052318063e-05,0.050215161,5.095083233e-06,-9.767368167,0.3248116455,-67.3564923,-427.3564923,1.962136397,0.1250512667,-0.2997745582,62.94365624,52.28532383,-35.0449536,7.096017344e-08,-8.714964994e-05,0.6702636808,2.158133494e-05,-9.984573529,0.3167898976,117.2709783,-602.7290217,1.927357182,-0.1451529377,0.2815785217,38.16059684,32.34590236,20.24780856,-1.228180313e-07,5.035216905e-05,0.6259775453,2.188379069e-05,-12.06333274,0.2493637744,-164.9810552,-164.9810552,1.664406449,-0.2408455565,-0.06461973301,30.65928155,30.3722347,-4.185559049,5.941371169e-07,-1.040863144e-05,0.1378087286,4.512169713e-06,
72000,-16.88650242,0.1431116137,2.591447777,2.591447777,1.334026265,0.1429652577,0.006470630874,66.68055225,66.67473337,0.880896765,-2.509357973e-06,1.947209368e-06,0.01321185283,4.072375271e-06,-10.01211126,0.3157871379,-127.8028946,-487.8028946,1.923066944,-0.1935607699,-0.2495110114,34.61468165,30.27483229,-16.78126083,1.31723435e-07,-3.709473073e-05,0.5542974001,2.017818521e-05,-10.2608804,0.306871093,56.22539571,-663.7746043,1.885466152,0.1705979986,0.255080753,69.03373299,60.1501704,33.87644154,-6.525140246e-08,7.488337674e-05,0.5631977651,2.028679854e-05,-17.58277927,0.132087292,-162.3759125,-162.3759125,1.30437921,-0.1258875723,-0.03999214755,38.83493045,38.70689267,-3.150917754,7.015369786e-07,-6.965057441e-06,0.08140456483,3.5166417e-06,
80000,-15.08910314,0.1760130396,-2.536337586,-2.536337586,1.427222876,0.1758406096,-0.00778910248,71.33413212,71.3249159,-1.14663767,1.735017818e-06,-2.281163165e-06,0.01607625689,2.170918134e-06,-9.008256087,0.3544762932,168.4825265,-551.5174735,2.098259567,-0.3473385081,0.07077713774,24.32885355,24.01614919,3.888147748,-5.116669729e-07,7.73522417e-06,0.1618972183,1.872720489e-05,-9.666166885,0.3286182327,-10.26262527,-730.2626253,1.978931061,0.3233608219,-0.05854674825,97.5205343,96.69102115,-12.6925584,1.567404085e-07,-2.525104263e-05,0.1312692559,1.872587457e-05,-15.04152219,0.1769798775,-164.4799964,-164.4799964,1.430074242,-0.1705266769,-0.04735535377,35.46031618,35.29202878,-3.450612683,5.765459562e-07,-6.864775815e-06,0.097773146,1.649345408e-06,
88000,-16.77673958,0.1449315781,-13.82140839,-13.82140839,1.338994107,0.1407350966,-0.03462361809,66.35526751,66.1898949,-4.681809452,3.862991259e-07,-8.467421783e-06,0.0707329942,1.266927704e-06,-10.67385081,0.2926223271,126.0933449,-593.9066551,1.827343973,-0.1723845452,0.2364559047,35.9839989,31.96218347,16.5307896,-1.094066855e-07,2.989723725e-05,0.5171983828,1.738301583e-05,-11.04396641,0.280415283,-49.72581258,-769.7258126,1.779380875,0.1812733719,-0.2139455435,70.9326934,64.33356368,-29.87707445,6.053400247e-08,-5.403504641e-05,0.4644088209,1.722896926e-05,-17.19255796,0.138156748,-179.1951523,-179.1951523,1.320607599,-0.1381431174,-0.001940657569,37.86245339,37.862157,-0.1498145158,1.207212058e-05,-2.709513719e-07,0.003956840488,1.138475647e-06,
96000,-20.28047424,0.09682249913,-17.82069094,-17.82069094,1.214404143,0.09217685264,-0.02963147269,60.14371864,60.03638298,-3.591602711,4.615944813e-07,-5.954388803e-06,0.05982376907,1.065504106e-06,-11.07436623,0.2794355705,76.0236376,-643.9763624,1.7756019,0.06748971928,0.271163006,56.70636724,48.87663399,28.75216054,-5.766050131e-08,4.766717161e-05,0.5882598329,1.64436926e-05,-11.52406258,0.2653364237,-99.40601138,-819.4060114,1.7223345,-0.0433637913,-0.2617689808,46.10040506,40.16816514,-22.62224249,7.328468834e-08,-3.750460121e-05,0.563188346,1.619093797e-05,-20.79888995,0.09121274013,179.6779908,-180.3220092,1.200735077,-0.09121129962,0.0005126238419,41.6412818,41.64125955,0.04305077721,-3.850950199e-05,7.13723333e-08,0.001033849064,1.17445549e-06,
104000,-20.30341541,0.09656710897,-8.01013449,-8.01013449,1.213778156,0.09562494582,-0.01345645838,60.57145775,60.5491191,-1.644892363,9.303563113e-07,-2.517237985e-06,0.02716624763,1.418392875e-06,-11.47227871,0.2669230413,28.11112192,-691.8888781,1.72822652,0.2354355766,0.1257696275,80.13403697,77.3474389,20.94845048,-7.30524672e-08,3.205816773e-05,0.2708357352,1.661424355e-05,-11.93658328,0.2530293127,-147.3000686,-867.3000686,1.677481237,-0.2129270583,-0.1366963821,32.72372646,31.41116919,-9.175005386,1.667940156e-07,-1.404084096e-05,0.2920937241,1.658868132e-05,-20.34422469,0.09611446783,-170.8489554,-170.8489554,1.212669557,-0.09489117214,-0.01528582269,41.33514411,41.31547981,-1.274859336,1.200395956e-06,-1.950963126e-06,0.03085669928,1.346982195e-06,
112000,-19.91971929,0.1009285503,-20.78523366,-20.78523366,1.224517307,0.09435983405,-0.03581611359,60.40426153,60.24670152,-4.360019059,3.259220335e-07,-6.195701654e-06,0.07236942353,7.63097329e-07,-11.8112554,0.2567067156,-19.31553551,-739.3155355,1.690727929,0.2422570281,-0.08491095429,81.6510882,80.33427216,-14.60496215,9.729749812e-08,-2.0754035e-05,0.1818023835,1.624881036e-05,-12.27790346,0.2432791149,165.374996,-914.625004,1.642982425,-0.2353966465,0.06142594379,31.00705927,30.74603882,4.014825243,-3.539447402e-07,5.70517217e-06,0.1305802437,1.620368099e-05,-20.17317979,0.09802593885,174.4347461,-185.5652539,1.217358665,-0.09756388326,0.009506491007,41.11160864,41.10403506,0.7890927382,-1.800835578e-06,1.121321516e-06,0.01919745196,4.951157119e-07,
120000,-22.70512067,0.07323926318,-32.76399442,-32.76399442,1.158054307,0.06158739851,-0.03963561551,56.5519237,56.37316908,-4.492870219,2.951990883e-07,-5.9588542e-06,0.07969873421,1.822907276e-07,-12.30509528,0.2425187024,-65.48217566,-785.4821757,1.640329215,0.1006395151,-0.220651329,60.61013935,54.87725063,-25.73084445,5.154479851e-08,-3.412659236e-05,0.4688799849,1.598411322e-05,-12.71241616,0.2314084386,119.0066727,-960.9933273,1.602162319,-0.1122126075,0.2023813137,40.27343984,37.02928754,15.83609233,-8.375116566e-08,2.100326978e-05,0.4276639758,1.589840946e-05,-23.43659023,0.06732408946,164.0299265,-195.9700735,1.144367596,-0.06472575221,0.01852322926,43.92286576,43.89248147,1.633464727,-8.119496983e-07,2.166449881e-06,0.03721513737,-8.958462348e-08,
128000,-24.93429184,0.05666115302,-16.43236251,-16.43236251,1.120128951,0.05434679117,-0.01602849187,55.74544518,55.7166393,-1.791860143,6.93914644e-07,-2.227995305e-06,0.03216023373,-7.318342898e-08,-12.58545375,0.2348157983,-111.1625827,-831.1625827,1.613749729,-0.08477217442,-0.2189797652,42.51826687,38.57576569,-17.88052904,6.95392172e-08,-2.223261393e-05,0.4635171519,1.576480382e-05,-13.08799804,0.2216154827,74.10761173,-1005.892388,1.56942418,0.06068528879,0.2131448284,56.16153098,51.24731403,22.97455913,-5.412064648e-08,2.856652071e-05,0.4483075761,1.565311047e-05,-25.23137785,0.05475592341,-174.8911164,-174.8911164,1.115855629,-0.05453839294,-0.004875945487,44.82833815,44.82619389,-0.4384547355,2.835863984e-06,-5.451737381e-07,0.009781217127,-2.278780667e-07,
136000,-22.81287089,0.07233632745,-12.81155654,-12.81155654,1.155953778,0.07053548913,-0.01604023199,57.5867202,57.55679811,-1.856161234,6.304715955e-07,-2.172185555e-06,0.03224920939,8.754066776e-07,-12.85065018,0.2277547751,-156.1365848,-876.1365848,1.589850912,-0.2082845801,-0.09213995481,32.88759943,32.28347293,-6.274677011,1.865047288e-07,-7.342984284e-06,0.1943618961,1.558056355e-05,-13.36863663,0.2145695886,29.39652737,-1050.603473,1.546374537,0.1869423728,0.1053216863,72.67212354,70.9627524,15.66924734,-7.468494875e-08,1.833704536e-05,0.2208094643,1.546136735e-05,-22.7865768,0.07255563708,-174.8960056,-174.8960056,1.15646359,-0.07226794423,-0.006454820555,43.26053512,43.25689245,-0.5613862743,2.084584159e-06,-6.569661804e-07,0.01297796126,6.733254215e-07,
144000,-22.79163166,0.07251342477,-29.70761122,-29.70761122,1.156365443,0.06298267279,-0.03593577187,56.7123248,56.56487494,-4.086894579,2.704358136e-07,-4.517010237e-06,0.07225145611,7.357351395e-07,-13.16510418,0.21965687,158.9984941,-921.0015059,1.562975085,-0.2050652854,0.07872337198,33.07389848,32.63042033,5.398002411,-2.047503088e-07,5.966102546e-06,0.1654285283,1.540277027e-05,-13.69148525,0.2067405834,-15.22472209,-1095.224722,1.521243313,0.1994846659,-0.05429122281,74.82435037,74.34758192,-8.43329539,1.310570316e-07,-9.320837832e-06,0.1134306614,1.525858029e-05,-23.21332303,0.06907706056,167.1791563,-192.8208437,1.14840554,-0.06735487912,0.01532842307,43.69094674,43.67023283,1.345210469,-8.216131866e-07,1.486783998e-06,0.03080383094,3.103245212e-07,
152000,-26.06244793,0.04975968284,-38.73222622,-38.73222622,1.104730734,0.03881646442,-0.03113371367,54.0343284,53.92936256,-3.366377903,3.110381615e-07,-3.524840024e-06,0.06242198579,-5.665052172e-07,-13.50258698,0.2112859658,115.0771709,-964.9228291,1.535773313,-0.08955114177,0.1913696745,42.05020807,39.03423458,15.63804749,-6.695669616e-08,1.637416156e-05,0.400623905,1.526484157e-05,-14.03454923,0.1987341669,-58.97085025,-1138.97085,1.496050521,0.1024423158,-0.170296333,61.05265296,57.54208536,-20.40428498,5.131627964e-08,-2.136475536e-05,0.3545975933,1.518446441e-05,-27.00555228,0.044639815,163.2989041,-196.7010959,1.093451278,-0.0427567736,0.01282853829,45.90028899,45.88512836,1.179628914,-8.876282886e-07,1.235156399e-06,0.02570830585,-9.286471472e-07,
160000,-28.16152766,0.03907721615,-14.06661368,-14.06661368,1.081332687,0.03790543915,-0.009497710541,53.93951716,53.92975863,-1.025985183,9.69525107e-07,-1.020566334e-06,0.019024472,-8.938981171e-07,-13.88670307,0.2021458578,71.43064762,-1008.569352,1.506723841,0.06437381349,0.1916219194,56.6194664,52.57761986,21.00851888,-4.734833522e-08,2.089756016e-05,0.3995715084,1.519741813e-05,-14.69351662,0.1842146515,-101.4322557,-1181.432256,1.4516253,-0.03651303331,-0.1805597858,46.58487642,43.63590366,-16.31130354,6.098337831e-08,-1.622515366e-05,0.3738046464,1.517240401e-05,-27.57546871,0.04180483988,-168.4572443,-168.4572443,1.087257464,-0.04095936449,-0.008365111925,46.06549419,46.05902608,-0.7719268705,1.288617397e-06,-7.678498572e-07,0.01675951352,-8.006961336e-07,
168000,-25.1006498,0.05558626708,-12.47438019,-12.47438019,1.117715923,0.05427402487,-0.01200680275,55.73799703,55.72183354,-1.342229393,7.058039828e-07,-1.271562159e-06,0.02408803351,5.946664956e-07,-14.00384924,0.199437829,27.83361987,-1052.16638,1.498244449,0.1763642997,0.09311864165,71.18279909,69.88057328,13.55346319,-6.989732724e-08,1.283988489e-05,0.1939518031,1.515500588e-05,-14.52481826,0.1878274606,-146.1559933,-1226.155993,1.462530931,-0.1560014037,-0.1046074424,36.63472098,35.80248501,-7.764331839,1.220131843e-07,-7.355546381e-06,0.2168657242,1.516679979e-05,-24.43961638,0.05998175671,-173.7052864,-173.7052864,1.127618282,-0.05962013125,-0.00657655596,44.37367342,44.36980773,-0.5857083149,1.617444772e-06,-5.54871271e-07,0.01320060521,9.068317007e-07,
176000,-24.90744861,0.05683653183,-29.96440135,-29.96440135,1.120523183,0.04923952758,-0.02838767821,55.17456583,55.08527972,-3.137622137,2.882085254e-07,-2.837318595e-06,0.05695935743,9.817788523e-07,-14.26165346,0.1936053379,-16.22255146,-1096.222551,1.480175147,0.1858967093,-0.05408733998,72.74986842,72.29472724,-8.125008908,1.11297041e-07,-7.347359832e-06,0.112387296,1.506572694e-05,-14.76415015,0.1827226951,169.8852317,-1270.114768,1.447149808,-0.1798828091,0.03208984762,34.76791808,34.69153341,2.303396898,-3.925895057e-07,2.082937512e-06,0.0663965144,1.509736961e-05,-24.83742255,0.05729660275,167.2112759,-192.7887241,1.12155807,-0.05587524228,0.01268298019,44.70896728,44.69449581,1.137452955,-7.950126158e-07,1.028586707e-06,0.0254495086,8.281875162e-07,
184000,-28.06481502,0.03951475096,-39.34652992,-39.34652992,1.082280808,0.03055776793,-0.02505271168,53.15005655,53.08325583,-2.66391849,3.24699318e-07,-2.304216281e-06,0.05018378109,-9.402112025e-07,-14.53579028,0.1875903466,-59.32831424,-1139.328314,1.461812205,0.09569320054,-0.1613472947,60.28324319,57.17027666,-19.12142452,4.523577811e-08,-1.653950669e-05,0.3344644392,1.510069502e-05,-15.01683036,0.1774837034,126.9684891,-1313.031511,1.431562764,-0.1067343877,0.14180351,40.52992104,38.89652465,11.39012157,-7.594058687e-08,9.852142123e-06,0.2928313435,1.486610229e-05,-28.6054068,0.03713040275,162.4062675,-197.5937325,1.077124468,-0.0353935813,0.01122324424,46.58204655,46.57028352,1.046782497,-8.26315418e-07,9.054380912e-07,0.02247747744,-1.179193954e-06,
