Frequency,S11_Magnitude,S11_Magnitude (linear),S11_Phase,S11_Unwrapped Phase,S11_VSWR,S11_Real,S11_Imaginary,S11_Impedance (absolute),S11_Resistance,S11_Reactance,S11_Capacitance,S11_Inductance,S11_Quality Factor,S11_Group delay,S12_Magnitude,S12_Magnitude (linear),S12_Phase,S12_Unwrapped Phase,S12_VSWR,S12_Real,S12_Imaginary,S12_Impedance (absolute),S12_Resistance,S12_Reactance,S12_Capacitance,S12_Inductance,S12_Quality Factor,S12_Group delay,S21_Magnitude,S21_Magnitude (linear),S21_Phase,S21_Unwrapped Phase,S21_VSWR,S21_Real,S21_Imaginary,S21_Impedance (absolute),S21_Resistance,S21_Reactance,S21_Capacitance,S21_Inductance,S21_Quality Factor,S21_Group delay,S22_Magnitude,S22_Magnitude (linear),S22_Phase,S22_Unwrapped Phase,S22_VSWR,S22_Real,S22_Imaginary,S22_Impedance (absolute),S22_Resistance,S22_Reactance,S22_Capacitance,S22_Inductance,S22_Quality Factor,S22_Group delay,
0,-13.34571681,0.21513653,-134.5830261,-134.5830261,1.548213895,-0.1510133842,-0.1532275573,37.14809082,35.36708633,-11.36441182,inf,-inf,0.3213273414,1.112909422e-05,-13.59070426,0.2091533316,-133.7641861,-133.7641861,1.528935229,-0.1446696628,-0.1510490146,37.61349427,35.86625325,-11.3307912,inf,-inf,0.3159178941,5.964404931e-06,-16.07189969,0.1571827981,-162.1222612,-162.1222612,1.372993806,-0.1495930302,-0.0482530552,37.01420708,36.83431901,-3.644786527,inf,-inf,0.09895083241,-1.998692914e-05,-16.22466273,0.1544425144,-161.6111922,-161.6111922,1.365303405,-0.1465563171,-0.04872100346,37.24468151,37.06049202,-3.699490788,inf,-inf,0.09982303489,-6.867831111e-06,
8000,-28.4779778,0.0376791511,-178.666674,-178.666674,1.078308916,-0.03766894925,-0.0008767497318,46.36985174,46.36978025,-0.08142498534,0.0002443275587,-1.619898614e-06,0.001755992478,1.112909422e-05,-17.57876718,0.1321483184,88.97329803,88.97329803,1.304541251,0.002367882566,0.1321271024,50.23326829,48.50944141,13.04666001,-1.524862905e-06,0.0002595550539,0.2689509429,5.964404931e-06,-24.88522285,0.05698215339,-54.59785584,-54.59785584,1.120850636,0.03301042679,-0.04644650179,53.40612434,53.17569694,-4.955741329,4.014408051e-06,-9.859134114e-05,0.09319560652,-1.998692914e-05,-12.92233618,0.2258828148,-69.90381796,-69.90381796,1.583588168,0.07761268381,-0.2121304253,58.02076032,52.96826375,-23.68061789,8.401118575e-07,-0.0004711109242,0.4470718166,-6.867831111e-06,
16000,-6.285091741,0.4850041034,-176.0655832,-176.0655832,2.883526089,-0.4838610665,-0.03327835014,17.42348501,17.35787542,-1.510625903,6.584809598e-06,-1.502647372e-05,0.08702827195,1.112909422e-05,-30.401009,0.03019600928,-15.91505951,-15.91505951,1.062272396,0.02903857418,-0.008280107839,52.99049184,52.98321399,-0.8782142058,1.132660332e-05,-8.735758247e-06,0.01657532905,5.964404931e-06,-24.99587817,0.05626082437,171.5852013,171.5852013,1.119229605,-0.05565515233,0.008233126856,44.72824362,44.72214255,0.7387444792,-1.346498583e-05,7.348427221e-06,0.01651853952,-1.998692914e-05,-9.427197277,0.3377848259,-5.331356496,-5.331356496,2.020166372,0.3363235677,-0.03138544866,100.5911805,100.3396189,-7.109603659,1.399119335e-06,-7.072053536e-05,0.07085539827,-6.867831111e-06,
24000,-7.533213035,0.4200871027,121.3842471,-238.6157529,2.448793792,-0.2187708346,0.3586258437,33.83127254,25.51174884,22.21948858,-2.984522321e-07,0.00014734756,0.8709512121,1.164930914e-05,-19.15858596,0.1101718652,-57.49904426,-57.49904426,1.247625043,0.05919684996,-0.09291702124,56.23474655,55.26537831,-10.39637823,6.378621297e-07,-6.894312443e-05,0.1881173811,2.520029862e-05,-21.08043858,0.08830353116,125.4883609,125.4883609,1.193712566,-0.05126351682,0.07189969026,45.14755263,44.68074172,6.475556218,-1.024075112e-06,4.294236589e-05,0.14492947,2.173907075e-06,-6.472701328,0.4746406539,-48.11646835,-48.11646835,2.806918093,0.3168789254,-0.3533716131,88.63957727,65.48455869,-59.73899256,1.11007161e-07,-0.0003961564984,0.9122607491,5.619039613e-06,
32000,-6.948763495,0.4493262853,95.1325566,-264.8674434,2.631914774,-0.04019684306,0.4475246635,46.76026577,31.12038855,34.90048526,-1.425078171e-07,0.0001735807733,1.121466887,1.20153344e-05,-19.97567382,0.100280458,-146.415446,-146.415446,1.222914927,-0.08354068079,-0.05547183888,42.31201413,42.04877523,-4.712434816,1.055418731e-06,-2.343772797e-05,0.1120706796,2.432123233e-05,-20.87043308,0.0904645331,35.64640996,35.64640996,1.198924696,0.07351410044,0.0527210469,57.91086253,57.58634866,6.12212764,-8.123959944e-07,3.044896488e-05,0.1063121344,2.421709091e-05,-5.908202174,0.5065121778,-73.60809899,-73.60809899,3.052784912,0.1429407002,-0.4859244205,63.02851321,38.29535134,-50.06055876,9.935150736e-08,-0.0002489807931,1.307222861,1.059405076e-05,
40000,-7.357018617,0.4286956425,57.98420448,-302.0157955,2.500760976,0.2272742969,0.3634918814,74.94416674,55.96440929,49.84589272,-7.982349919e-08,0.0001983305055,0.8906712918,7.039202064e-06,-15.20780446,0.1736240077,151.3391912,-208.6608088,1.420205837,-0.1523506287,0.0832741376,36.86008142,36.32832184,6.238480175,-6.377953389e-07,2.482212393e-05,0.1717249754,2.571599288e-05,-14.97868829,0.1782647955,-17.93272206,-17.93272206,1.433874062,0.1696044626,-0.05488773598,70.34853553,69.90069485,-7.925232479,5.020513389e-07,-3.15334981e-05,0.1133784506,2.551740987e-05,-7.182602164,0.4373910496,-116.6796171,-116.6796171,2.554867015,-0.1963890865,-0.390822539,35.49985419,25.52536559,-24.67175225,1.612724357e-07,-9.816578313e-05,0.9665582327,6.925854412e-06,
48000,-13.71773501,0.2061167327,42.61362287,-317.3863771,1.519262066,0.1516887505,0.1395515334,67.47092507,64.77522215,18.88111027,-1.756108583e-07,6.260462564e-05,0.2914866155,6.157289401e-06,-10.28388877,0.3060592866,69.4400772,-290.5599228,1.88209059,0.107483984,0.2865649666,61.01811142,51.57182534,32.61221784,-1.016713429e-07,0.0001081332432,0.6323650099,2.362001514e-05,-10.24569545,0.3074080441,-105.4303663,-105.4303663,1.887703189,-0.08179114931,-0.2963273755,43.01016462,35.98733196,-23.55389987,1.407719316e-07,-7.809832485e-05,0.6545053101,2.366778871e-05,-13.48541567,0.2117040744,-123.604113,-123.604113,1.537118276,-0.1171679036,-0.1763244098,39.79975691,37.33643758,-13.78445063,2.405411772e-07,-4.570548865e-05,0.3691956576,6.029640115e-06,
56000,-10.81646777,0.2878568783,46.27920427,-313.7207957,1.808424232,0.1989507757,0.2080388695,73.51571509,66.94831642,30.37241008,-9.357349475e-08,8.631998568e-05,0.4536695126,5.299088798e-06,-10.81994933,0.2877415202,4.262896733,-355.7371033,1.807969377,0.2869454771,0.02138867885,90.21361661,90.11566094,4.202888809,-6.762140719e-07,1.194483088e-05,0.04663882798,2.252445382e-05,-10.88423309,0.2856198229,-171.4239531,-171.4239531,1.799629755,-0.2824262533,-0.04259219073,28.01098903,27.89127546,-2.586940225,1.098615471e-06,-7.352220078e-06,0.09275087578,2.302553792e-05,-10.47911021,0.2992571183,-122.8507649,-122.8507649,1.854113901,-0.1623328472,-0.251401809,36.77144373,32.18893963,-17.77670497,1.59875104e-07,-5.052232978e-05,0.552261279,4.767801197e-06,
64000,-11.31302923,0.2718620194,12.32008932,-347.6799107,1.746732149,0.2656012602,0.05800800097,85.9884495,85.32154577,10.68865173,-2.326575932e-07,2.658049621e-05,0.1252749423,3.760500736e-06,-9.973089074,0.3172090332,-53.00551681,-413.0055168,1.929154159,0.1908767681,-0.2533527781,71.80000504,62.55518301,-35.24329444,7.056082654e-08,-8.764288314e-05,0.5633952735,2.034929911e-05,-10.1196859,0.3119002373,131.575868,-228.424132,1.906555282,-0.206980489,0.2333255992,33.62135445,29.86675206,15.43931981,-1.610690118e-07,3.839443853e-05,0.5169400336,2.02322089e-05,-11.38183244,0.2697170357,-157.3493428,-157.3493428,1.73866446,-0.2489137843,-0.1038711093,30.25131686,29.51953299,-6.613572694,3.760140095e-07,-1.644660603e-05,0.2240405597,3.632037803e-06,
72000,-16.40885437,0.1512019115,-3.175907436,-363.1759074,1.356272978,0.1509696878,-0.008376837065,67.77992119,67.76996063,-1.1619606,1.902375451e-06,-2.56849685e-06,0.01714565848,3.485374912e-06,-9.92034422,0.3191411378,-111.7901469,-471.7901469,1.937466354,-0.1184677941,-0.2963384004,40.18844029,33.54339287,-22.13484871,9.986448743e-08,-4.892875815e-05,0.6598869945,1.909376827e-05,-10.14820566,0.3108778049,71.99641468,-288.0035853,1.902242903,0.09608502599,0.2956563502,59.68525205,49.93808744,32.68817425,-6.762339506e-08,7.225672933e-05,0.654574012,1.900884086e-05,-16.81987869,0.1442135492,-168.4633395,-168.4633395,1.337031625,-0.1412999941,-0.02884197361,37.62858256,37.56346108,-2.212830147,9.989403496e-07,-4.891428557e-06,0.0589091123,3.22379696e-06,
80000,-17.70017846,0.1303140004,13.18996812,-346.8100319,1.299680575,0.1268761698,0.02973510117,64.51635121,64.39861085,3.895958569,-5.106411564e-07,7.750763303e-06,0.06049755604,2.076113649e-06,-11.04142449,0.2804973584,-165.5633082,-525.5633082,1.779697925,-0.2716402906,-0.06993082729,28.72688063,28.4014896,-4.311503079,4.614253434e-07,-8.57746284e-06,0.1518055264,1.813602308e-05,-11.63114783,0.2620852672,21.51564157,-338.4843584,1.710340248,0.2438225052,0.09612113831,81.83083356,80.14124839,16.54284215,-1.20259673e-07,3.291093877e-05,0.2064210689,1.813214266e-05,-17.26874018,0.136950301,-153.0991701,-153.0991701,1.317363649,-0.1221310426,-0.06196283871,39.15382162,38.84525108,-4.905936788,4.055161887e-07,-9.76005113e-06,0.1262943771,1.875210805e-06,
88000,-16.58932855,0.1480926732,-4.345133856,-364.3451339,1.3476732,0.1476670195,-0.01122012595,67.3224232,67.30471089,-1.544201223,1.171206752e-06,-2.792809747e-06,0.02294343445,1.214452118e-06,-10.62018784,0.2944357959,145.5915294,-574.4084706,1.834610923,-0.2429183541,0.1663824243,30.90692199,29.03944783,10.58056219,-1.709341022e-07,1.913578152e-05,0.3643513559,1.708733874e-05,-10.9791249,0.2825164595,-30.12114832,-390.1211483,1.787520392,0.2443672026,-0.1417752454,81.45085149,77.83909691,-23.98574995,7.540222435e-08,-4.338012123e-05,0.3081452753,1.71156505e-05,-16.48710042,0.1498459394,-171.3985275,-171.3985275,1.352514789,-0.1481605529,-0.02241107188,37.1016021,37.06266271,-1.699385671,1.06425453e-06,-3.073473066e-06,0.04585168865,1.106509472e-06,
96000,-19.44301431,0.1066226039,-16.99133401,-376.991334,1.238695549,0.101968417,-0.03115801009,61.34226791,61.22077009,-3.858904233,4.296204027e-07,-6.397538371e-06,0.0630325987,1.515085102e-06,-10.99444005,0.2820187591,97.14491267,-622.8550873,1.785588099,-0.03507729638,0.2798288116,46.84973391,40.03105539,24.33951872,-6.811408268e-08,4.035161163e-05,0.6080159137,1.642031507e-05,-11.36089504,0.2703679748,-78.46820482,-438.4682048,1.741107751,0.05404971982,-0.2649103048,55.31818029,48.0259965,-27.45186206,6.039167714e-08,-4.551145358e-05,0.5716042157,1.655687965e-05,-19.64116866,0.1042177198,177.1152156,-182.8847844,1.232685379,-0.1040856507,0.005245039801,40.57292079,40.57063933,0.4302624599,-3.853145801e-06,7.133166388e-07,0.01060526694,1.403535577e-06,
104000,-21.290614,0.08619246473,-5.573366873,-365.5733669,1.188644679,0.08578500299,-0.008371035614,59.38273597,59.37429032,-1.001488799,1.528061015e-06,-1.532614354e-06,0.01686738138,1.013031205e-06,-11.3807116,0.2697518425,50.79806485,-669.2019351,1.738794997,0.1704981292,0.2090369453,69.49778516,63.35557615,28.56594325,-5.357204479e-08,4.371549108e-05,0.4508828581,1.602704593e-05,-11.81633217,0.2565567181,-124.4770293,-484.4770293,1.690185047,-0.1452305461,-0.2114933523,37.80477894,34.43894212,-15.59360689,9.813867967e-08,-2.386345786e-05,0.4527899502,1.6030809e-05,-21.13232217,0.0877776383,-169.5042687,-169.5042687,1.192447899,-0.08630898517,-0.01598977375,42.05672372,42.03489992,-1.354694886,1.129653626e-06,-2.073138342e-06,0.0322278604,9.890553873e-07,
112000,-20.18381747,0.09790595913,-8.013140836,-368.0131408,1.217063753,0.09695001741,-0.01364811186,60.73360678,60.71055402,-1.673207524,8.492827441e-07,-2.37767186e-06,0.02756040612,9.278004795e-07,-11.71048569,0.2597022518,5.380887044,-714.619113,1.701615674,0.2585578225,0.02435389149,84.84241669,84.72692689,4.425328174,-3.211120671e-07,6.288507622e-06,0.05223048134,1.566685126e-05,-12.17681328,0.246127044,-169.7254849,-529.7254849,1.652966901,-0.2421802666,-0.04390034438,30.53568975,30.40318889,-2.841558328,5.000869641e-07,-4.037929054e-06,0.09346250943,1.562371868e-05,-19.87491772,0.1014504818,-174.2572117,-174.2572117,1.22580944,-0.1009413141,-0.01015142188,40.83222983,40.82364096,-0.8374552618,1.696838437e-06,-1.190045933e-06,0.02051397773,9.796353785e-07,
120000,-21.17000809,0.08739761785,-23.4218798,-383.4218798,1.191534933,0.08019630743,-0.03474040703,58.70735136,58.56398107,-4.100393292,3.234546293e-07,-5.438315509e-06,0.07001561741,3.111416255e-07,-12.04885381,0.2497797976,-39.31591928,-759.3159193,1.665883955,0.193245687,-0.1582594444,73.20582618,69.36026275,-23.41467355,5.664359102e-08,-3.10546753e-05,0.3375805197,1.54011083e-05,-12.35695296,0.2410750981,144.6638421,-575.3361579,1.63530686,-0.1966624972,0.1394312201,33.83865497,32.44644529,9.606391515,-1.380634123e-07,1.274087246e-05,0.2960691511,1.532305076e-05,-21.24841777,0.08661220821,170.0452886,-189.9547114,1.189650462,-0.0853082357,0.01497262611,42.14135797,42.1221899,1.27089343,-1.043589621e-06,1.685574763e-06,0.03017158968,3.126862779e-07,
128000,-24.60734809,0.0588345716,-21.42740445,-381.4274045,1.125024931,0.054767996,-0.02149356717,55.79129368,55.73945909,-2.404402472,5.171338857e-07,-2.989629207e-06,0.04313645146,-5.366842538e-07,-12.44707076,0.2385868273,-83.40075333,-803.4007533,1.626694772,0.02741937389,-0.237006017,52.66519965,47.0557086,-23.6512905,5.25720993e-08,-2.940796714e-05,0.5026231929,1.517808623e-05,-12.93222596,0.2256257704,101.9798105,-618.0201895,1.582730576,-0.04683246546,0.2207118222,45.72559303,41.46061055,19.28335114,-6.448038954e-08,2.39768801e-05,0.4651005106,1.505217777e-05,-24.81477242,0.05744620969,173.2336875,-186.7663125,1.121894814,-0.05704609413,0.006768319701,44.60348851,44.59937539,0.605724594,-2.052744771e-06,7.531567444e-07,0.01358145913,-5.798412856e-07,
136000,-24.40984263,0.06018771678,-3.346674471,-363.3466745,1.12808455,0.06008507219,-0.003513595205,56.39252324,56.39112077,-0.3977118788,2.94247418e-06,-4.65425084e-07,0.00705273939,-2.612079243e-07,-12.75720468,0.2302182595,-126.5870745,-846.5870745,1.59813905,-0.1372201548,-0.1848542023,38.29204075,35.67012495,-13.92560846,8.403632327e-08,-1.629653987e-05,0.3903997668,1.499806036e-05,-13.25064697,0.2175042019,59.01839202,-660.981608,1.555924268,0.111963093,0.1864734395,62.12725187,57.85237273,22.6472602,-5.167322335e-08,2.65031133e-05,0.391466402,1.483641524e-05,-24.08939588,0.06244967839,-167.7524007,-167.7524007,1.13321883,-0.06102832346,-0.01324787026,44.24914573,44.23350019,-1.176587992,9.946191381e-07,-1.376910257e-06,0.02659947748,-1.640695184e-07,
144000,-22.76460714,0.07273938807,-10.32249024,-370.3224902,1.156890926,0.07156208486,-0.0130340549,57.70637694,57.68657092,-1.511778714,7.310875926e-07,-1.670882327e-06,0.0262067703,8.607354989e-07,-13.00574161,0.2237241772,-169.547977,-889.547977,1.576403826,-0.2200119576,-0.04058627861,31.99195855,31.87579771,-2.723771613,4.057765545e-07,-3.010428584e-06,0.08544951997,1.481928307e-05,-13.50035412,0.2113402877,16.34588021,-703.6541198,1.535947974,0.2027979634,0.0594785947,75.32154691,74.74432308,9.307072353,-1.18752989e-07,1.028657341e-05,0.1245187858,1.479420596e-05,-22.4338378,0.07556281178,-177.0086525,-177.0086525,1.16347852,-0.07545985192,-0.003943256483,42.98358237,42.98223031,-0.3409265179,3.241879415e-06,-3.768065316e-07,0.007931801478,9.095517776e-07,
152000,-24.00172505,0.06308320464,-25.21294279,-385.2129428,1.134661274,0.05707332124,-0.02687241541,56.04813764,55.96671955,-3.019939696,3.467195042e-07,-3.162094279e-06,0.05395956239,4.814122613e-08,-13.32164782,0.2157335097,147.7856234,-932.2143766,1.550153583,-0.1825233703,0.1150050715,34.74138736,33.77257612,8.147214125,-1.285190223e-07,8.530719739e-06,0.2412375679,1.466113669e-05,-13.81964749,0.2037124751,-26.16357219,-746.1635722,1.511655573,0.182839869,-0.08982402133,72.14884644,70.91404493,-13.29113516,7.877972657e-08,-1.39167754e-05,0.1874259912,1.463090211e-05,-23.84285801,0.0642476282,167.5290597,-192.4709403,1.137317586,-0.06273174762,0.01387391687,44.0981962,44.08108861,1.228224531,-8.525086148e-07,1.286039509e-06,0.02786284482,1.087332649e-07,
160000,-27.61518838,0.04161410714,-22.88886148,-382.8888615,1.086842069,0.03833745543,-0.01618559311,53.9854936,53.95713221,-1.749686366,5.685123996e-07,-1.740445212e-06,0.03242734174,-1.443377638e-06,-13.6674348,0.2073138228,106.0152215,-973.9847785,1.523066577,-0.05719637446,0.1992676488,44.7862491,41.34457932,17.21725499,-5.777450557e-08,1.712632024e-05,0.4164331885,1.456958944e-05,-13.83501227,0.2033524394,-68.46577317,-788.4657732,1.51052046,0.07464192934,-0.1891581269,57.76442512,53.73174483,-21.2044431,4.69108474e-08,-2.109244959e-05,0.3946352974,1.453840559e-05,-27.20052234,0.04364895827,172.4954116,-187.5045884,1.091282294,-0.04327507899,0.005700797884,45.8521267,45.8491353,0.5237511743,-1.899219406e-06,5.209849271e-07,0.01142335991,-1.333204921e-06,
168000,-26.98864797,0.04472677674,2.24327749,-357.7567225,1.093641852,0.04469249974,0.001750721258,54.67832149,54.67798497,0.1918355854,-4.938347855e-06,1.817356052e-07,0.003508461139,-1.150380881e-06,-13.86996786,0.2025357102,64.51095787,-1015.489042,1.507949291,0.08715890737,0.1828224242,59.20842557,55.32341515,21.09401322,-4.491088736e-08,1.998343139e-05,0.3812854497,1.454366348e-05,-14.36404717,0.191336419,-109.2607717,-829.2607717,1.473216362,-0.06311578656,-0.1806267498,44.24056745,41.42398705,-15.53322586,6.098867421e-08,-1.471541475e-05,0.3749814292,1.449671637e-05,-26.43058206,0.04769478516,-164.0701918,-164.0701918,1.100167015,-0.04586324112,-0.01309028822,45.61551545,45.59981924,-1.19655146,7.917343162e-07,-1.133554045e-06,0.02624026761,-8.611563624e-07,
176000,-24.68857163,0.05828696181,-3.265962401,-363.2659624,1.123789221,0.05819229431,-0.00332066264,56.17871465,56.17746729,-0.3743646889,2.415530834e-06,-3.385340384e-07,0.006663965234,4.401204904e-07,-14.09596624,0.197333895,22.28726775,-1057.712732,1.491696096,0.1825918726,0.07483898827,72.18071497,71.32092481,11.10771347,-8.14109449e-08,1.00445881e-05,0.1557427011,1.452673729e-05,-14.57778275,0.1866856183,-151.4585606,-871.4585606,1.459073693,-0.1639980466,-0.08919731379,36.00904915,35.40925891,-6.544922038,1.381665731e-07,-5.918503946e-06,0.1848364592,1.445393532e-05,-24.24587729,0.06133468447,-172.0108759,-172.0108759,1.130684885,-0.06073939877,-0.008524608824,44.274256,44.267774,-0.7575808903,1.193653986e-06,-6.850724062e-07,0.01711359804,7.923222597e-07,
184000,-25.28582618,0.05441375429,-18.45890765,-378.4589076,1.115089987,0.05161422002,-0.01722872449,55.4406159,55.407537,-1.914872041,4.517129597e-07,-1.656311688e-06,0.03455977551,4.7635143e-07,-14.34587658,0.1917371073,-19.77915381,-1099.779154,1.474442435,0.1804253756,-0.06488298828,71.89826474,71.25456853,-9.599319591,9.01076903e-08,-8.303147626e-06,0.1347186544,1.43843614e-05,-14.80346646,0.1818974778,166.5801058,-913.4198942,1.444681376,-0.1769308313,0.04221579539,34.99022219,34.85758154,3.043790004,-2.841761474e-07,2.632794701e-06,0.08732074543,1.42940324e-05,-25.11960958,0.0554650643,172.1828551,-187.8171449,1.117444177,-0.05494963773,0.007543916152,44.79153671,44.78640785,0.6778150231,-1.276118834e-06,5.862913665e-07,0.01513439134,5.442889124e-07,
