Frequency,S11_Magnitude,S11_Magnitude (linear),S11_Phase,S11_Unwrapped Phase,S11_VSWR,S11_Real,S11_Imaginary,S11_Impedance (absolute),S11_Resistance,S11_Reactance,S11_Capacitance,S11_Inductance,S11_Quality Factor,S11_Group delay,S12_Magnitude,S12_Magnitude (linear),S12_Phase,S12_Unwrapped Phase,S12_VSWR,S12_Real,S12_Imaginary,S12_Impedance (absolute),S12_Resistance,S12_Reactance,S12_Capacitance,S12_Inductance,S12_Quality Factor,S12_Group delay,S21_Magnitude,S21_Magnitude (linear),S21_Phase,S21_Unwrapped Phase,S21_VSWR,S21_Real,S21_Imaginary,S21_Impedance (absolute),S21_Resistance,S21_Reactance,S21_Capacitance,S21_Inductance,S21_Quality Factor,S21_Group delay,S22_Magnitude,S22_Magnitude (linear),S22_Phase,S22_Unwrapped Phase,S22_VSWR,S22_Real,S22_Imaginary,S22_Impedance (absolute),S22_Resistance,S22_Reactance,S22_Capacitance,S22_Inductance,S22_Quality Factor,S22_Group delay,
0,-13.31780213,0.2158290473,-134.6422876,-134.6422876,1.550464275,-0.151658405,-0.1535640122,37.10148709,35.31441356,-11.37596321,inf,-inf,0.3221337143,-2.454131347e-05,-13.46258339,0.2122613053,-133.8039735,-133.8039735,1.538912984,-0.1469258379,-0.153191579,37.45187661,35.66138156,-11.44154388,inf,-inf,0.3208384919,4.118420633e-08,-16.385229,0.1516137362,-163.2433925,-163.2433925,1.357416763,-0.1451759318,-0.04371125527,37.3443962,37.19578803,-3.32825485,inf,-inf,0.08947934769,-1.650458932e-05,-16.62398006,0.1475030487,-162.8503468,-162.8503468,1.346049446,-0.1409447441,-0.04349400523,37.66752477,37.51947891,-3.33633394,inf,-inf,0.08892271527,-2.455827113e-06,
8000,-19.72999057,0.10315742,-128.792031,-128.792031,1.230045768,-0.06462765017,-0.08040348332,43.9663444,43.39684904,-7.053575954,2.820465536e-06,-0.0001403264349,0.1625365922,-2.454131347e-05,-31.85342025,0.02554635761,-91.43296814,-91.43296814,1.052432166,-0.000638848108,-0.0255383684,49.93619756,49.87110236,-2.548916634,7.80502886e-06,-5.070908522e-05,0.05111009207,4.118420633e-08,-29.61234301,0.03306609045,34.21320359,34.21320359,1.068393693,0.0273440373,0.01859220163,52.81027586,52.77372403,1.964507362,-1.012689912e-05,3.908263218e-05,0.03722510394,-1.650458932e-05,-27.90338561,0.04025600926,56.31019979,56.31019979,1.083889057,0.02232985996,0.03349512854,52.28136782,52.1640712,3.500156706,-5.683850627e-06,6.963340517e-05,0.0670989941,-2.455827113e-06,
16000,11.43795495,3.731622883,-27.03800391,-27.03800391,nan,3.323775904,-1.696326349,80.71836902,-78.07354667,-20.4933259,4.853865103e-07,-0.0002038508823,-0.2624874464,-2.454131347e-05,-16.25424754,0.1539173661,170.4576309,-189.5423691,1.363835304,-0.151787655,0.02551594384,36.82917958,36.77897058,1.922444064,-5.174238425e-06,1.912290472e-05,0.0522701977,4.118420633e-08,-13.63088193,0.2081881008,9.258273634,9.258273634,1.525852418,0.2054760645,0.03349436098,75.82346408,75.63825157,5.29647096,-1.87807769e-06,5.268497089e-05,0.07002370956,-1.650458932e-05,6.169797463,2.034650751,98.60316779,98.60316779,nan,-0.304363426,2.011757089,44.39073094,-27.30961993,34.99602338,-2.842375499e-07,0.0003481118818,-1.281454061,-2.455827113e-06,
24000,-6.754170752,0.4595062918,121.0295938,121.0295938,2.700320595,-0.2368666442,0.3937514763,33.07812802,23.40980621,23.36971387,-2.837628222e-07,0.0001549752284,0.9982873698,-1.73236223e-05,-23.55097079,0.06644334075,-58.97132867,-58.97132867,1.142344527,0.03424934585,-0.05693592748,53.53451826,53.18774628,-6.083444017,1.090082516e-06,-4.03420911e-05,0.1143767962,7.245289337e-06,-22.19716613,0.07765004177,120.3432722,120.3432722,1.16837436,-0.03922721343,0.0670130936,46.24161357,45.82688686,6.179260951,-1.073179465e-06,4.097749687e-05,0.1348392041,3.471377011e-06,-6.22844884,0.488177274,-48.8216758,-48.8216758,2.907602962,0.3214182429,-0.3674334825,88.86859827,63.95531556,-61.70369009,1.074725993e-07,-0.0004091853035,0.9647937713,1.787445482e-05,
32000,-6.739721679,0.4602713218,93.84181392,93.84181392,2.705565557,-0.03083913074,0.4592370169,47.5167853,30.94358116,36.06022282,-1.379246045e-07,0.0001793488347,1.165353895,-3.516849746e-06,-20.47168124,0.09471438373,-150.6278458,-150.6278458,1.209247517,-0.08253906643,-0.04645553787,42.39069266,42.2056162,-3.95686551,1.256952494e-06,-1.967983453e-05,0.09375210851,1.357672414e-05,-21.29971202,0.08610222988,31.35765938,31.35765938,1.188428581,0.07352575775,0.04480576903,57.91883002,57.68422568,5.207780556,-9.550310192e-07,2.590137556e-05,0.09028084358,1.418756247e-05,-5.773311663,0.5144396296,-74.92049854,-74.92049854,3.118952291,0.1338361396,-0.4967252965,61.98726542,36.87912125,-49.82320233,9.982481533e-08,-0.0002478002791,1.3509867,1.705136924e-05,
40000,-7.534478051,0.4200259255,60.22822118,60.22822118,2.448430004,0.2085623951,0.3645867599,72.43467994,54.23294409,48.01635798,-8.286495987e-08,0.0001910510181,0.8853725127,7.09044152e-06,-14.36759834,0.1912582084,144.7776038,-215.2223962,1.472977186,-0.1562425629,0.1103084938,36.63120808,35.70696818,8.176663682,-4.866133342e-07,3.253391108e-05,0.2289935018,2.702623127e-05,-14.25546093,0.1937434163,-26.82431824,-26.82431824,1.480599899,0.172895534,-0.08742794557,70.70650465,69.56775054,-12.63874543,3.148155488e-07,-5.028797023e-05,0.18167535,2.655851903e-05,-7.401207649,0.4265202132,-114.3201164,-114.3201164,2.487481243,-0.1756556641,-0.3886702714,36.80139926,26.67832191,-25.34975597,1.569590485e-07,-0.0001008634742,0.9502005432,7.054399387e-06,
48000,-12.87204635,0.2271944314,54.00531877,54.00531877,1.58797307,0.1335244731,0.1838165519,64.82194452,60.43977392,23.42900383,-1.415223629e-07,7.768420356e-05,0.3876421487,6.978523226e-06,-10.92009517,0.2844429943,53.078337,-306.921663,1.795025391,0.1708713168,0.2274001101,69.36627224,62.17096014,30.76445093,-1.077779021e-07,0.0001020065508,0.494836349,2.49337406e-05,-10.94513682,0.2836241185,-121.4588308,-121.4588308,1.79183045,-0.1480193928,-0.2419357351,37.74458774,33.40246159,-17.57638937,1.886467073e-07,-5.827852606e-05,0.5262004216,2.493651561e-05,-12.36546914,0.2408388489,-114.187329,-114.187329,1.634486758,-0.09867680804,-0.2196957867,41.39992987,37.51907519,-17.50066256,1.894629972e-07,-5.802743653e-05,0.4664470664,6.831794833e-06,
56000,-10.03661326,0.3148975902,38.84548354,38.84548354,1.919271588,0.245254933,0.197510785,80.80523652,74.00300506,32.45060079,-8.758089174e-08,9.222631291e-05,0.4385038252,5.491300535e-06,-10.99153434,0.2821131195,-10.00215037,-370.0021504,1.785954242,0.2778253485,-0.04899885621,88.33259214,87.83613158,-9.352049089,3.038962401e-07,-2.657901501e-05,0.1064715502,2.367609419e-05,-11.06241959,0.2798201729,174.3088432,-185.6911568,1.777084174,-0.2784409078,0.02774869426,28.23448536,28.18344236,1.696979833,-1.674770966e-06,4.822905871e-06,0.0602119433,2.404010183e-05,-9.866453461,0.3211273733,-130.7716117,-130.7716117,1.94606075,-0.2097107721,-0.2431957687,33.50566301,29.45323791,-15.97298438,1.779287131e-07,-4.539606108e-05,0.5423167542,4.832998842e-06,
64000,-12.19342232,0.2456568529,4.042448283,4.042448283,1.651313275,0.2450456824,0.01731770565,82.44463411,82.38868463,3.036830466,-8.188787664e-07,7.551977813e-06,0.03685980035,4.825199605e-06,-10.06296092,0.3139438312,-72.28383337,-432.2838334,1.915213201,0.09553368949,-0.2990552513,59.60470238,49.66643947,-32.95398817,7.546267155e-08,-8.19498455e-05,0.6635061528,2.173430115e-05,-10.17703515,0.3098476756,111.7052538,-248.2947462,1.897910982,-0.1145915712,0.2878790612,40.43860925,34.10813876,21.72362743,-1.144742513e-07,5.402222948e-05,0.6369045107,2.152479886e-05,-12.52596137,0.2364296459,-165.0725965,-165.0725965,1.619274032,-0.2284508515,-0.06090308605,31.46237998,31.20374795,-4.025849991,6.17707066e-07,-1.00114676e-05,0.129018155,4.610324577e-06,
72000,-16.90117857,0.1428700089,6.134928729,6.134928729,1.333368358,0.1420517893,0.01526854945,66.55256159,66.52024787,2.073662657,-1.065981158e-06,4.583800863e-06,0.03117340544,3.813560949e-06,-10.36994141,0.303042074,-133.4770674,-493.4770674,1.869613682,-0.2085123992,-0.2199024284,33.43769185,30.09443966,-14.57408446,1.516723281e-07,-3.221579977e-05,0.4842783128,2.036081385e-05,-10.59670293,0.2952329686,50.41617314,-309.5838269,1.837817195,0.1881243572,0.2275340237,71.7372501,64.20170106,32.0058531,-6.906503363e-08,7.074846846e-05,0.4985203285,2.019031664e-05,-17.30589319,0.1363657611,-158.472666,-158.472666,1.315795171,-0.1268532423,-0.05003874207,38.76806525,38.56805609,-3.932929283,5.620455294e-07,-8.693682447e-06,0.1019737493,3.471013574e-06,
80000,-15.43764037,0.1690900223,0.8777218608,0.8777218608,1.406999619,0.169070182,0.002590211801,70.34693823,70.34593792,0.3751477705,-5.303075069e-06,7.463327758e-07,0.005332898836,2.131566363e-06,-9.925561763,0.3189494898,161.841859,-558.158141,1.93663975,-0.3030657997,0.09939767665,26.93445766,26.29814578,5.820011871,-3.418269297e-07,1.157854573e-05,0.2213088299,1.885052161e-05,-10.7571472,0.2898295351,-9.469599344,-369.4695993,1.816225257,0.2858800383,-0.04768399206,89.89419679,89.41091132,-9.308896467,2.137134939e-07,-1.851946109e-05,0.1041136516,1.880917523e-05,-15.23863464,0.1730088296,-166.7254758,-166.7254758,1.418405506,-0.168386218,-0.03972576918,35.60814263,35.48930845,-2.906683152,6.844353804e-07,-5.782662395e-06,0.08190306542,1.641965392e-06,
88000,-16.88471305,0.1431410991,-14.48743092,-14.48743092,1.334106581,0.1385895762,-0.03580926718,66.06429997,65.88841354,-4.817539989,3.754154409e-07,-8.712901168e-06,0.07311664874,1.597901543e-06,-11.05812487,0.2799585635,119.739284,-600.260716,1.777617924,-0.1388745977,0.2430856709,38.41804523,33.97999919,17.92500639,-1.008969737e-07,3.241878833e-05,0.5275163867,1.745613845e-05,-11.40955345,0.2688576062,-55.84428981,-415.8442898,1.735445266,0.150948456,-0.2224836534,66.77861563,60.21097092,-28.87944746,6.262512125e-08,-5.223075929e-05,0.4796376311,1.755532681e-05,-17.31945793,0.136152965,-179.9277676,-179.9277676,1.315224709,-0.1361528568,-0.0001716471373,38.01632611,38.01632379,-0.01329728647,0.0001360111255,-2.404919172e-08,0.0003497783358,1.36001614e-06,
96000,-20.29670764,0.09664171269,-16.34092752,-16.34092752,1.213960981,0.0927378283,-0.02719036286,60.2133284,60.12281291,-3.300346179,5.023303315e-07,-5.471525087e-06,0.05489340934,1.275899019e-06,-11.5312424,0.265117185,69.66047978,-650.3395202,1.721522342,0.09215009006,0.2485869721,59.49860558,52.46764001,28.05763385,-5.908780474e-08,4.651574082e-05,0.5347607372,1.650025741e-05,-11.90001147,0.2540969352,-106.016638,-466.016638,1.681313557,-0.07010953272,-0.2442333021,43.79582164,38.82166848,-20.27195229,8.178117069e-08,-3.360813972e-05,0.5221813767,1.675250586e-05,-20.64377879,0.09285623288,-177.9893473,-177.9893473,1.204722198,-0.09279906325,-0.00325788942,41.50821434,41.50731785,-0.2728047019,6.077109299e-06,-4.522730917e-07,0.006572448329,1.188799244e-06,
104000,-20.17227497,0.09803615092,-8.265528796,-8.265528796,1.21738377,0.09701779646,-0.01409375946,60.7417684,60.71718194,-1.728075398,8.855724659e-07,-2.644535977e-06,0.02846106065,1.109379137e-06,-11.92368194,0.2534054219,21.24522846,-698.7547715,1.678830062,0.2361834951,0.09182409517,80.56435492,79.05634311,15.51482831,-9.863699171e-08,2.374290016e-05,0.1962502653,1.670426168e-05,-12.36536781,0.2408416588,-154.1070137,-514.1070137,1.634496509,-0.2166638637,-0.1051735459,32.36014978,31.58233789,-7.052320709,2.16997504e-07,-1.07924202e-05,0.2232995143,1.667056455e-05,-19.97703313,0.1002647658,-172.4249626,-172.4249626,1.222876157,-0.09938976197,-0.01321735512,40.96100247,40.94640647,-1.09339835,1.399614323e-06,-1.673266847e-06,0.02670315771,1.295729009e-06,
112000,-20.1886639,0.09785134628,-20.60617508,-20.60617508,1.21692954,0.09159097473,-0.03443805043,60.06931274,59.92458734,-4.167273086,3.409966778e-07,-5.921804561e-06,0.06954195717,4.456807007e-07,-12.29227307,0.2428769758,-26.51481996,-746.51482,1.641578629,0.217330913,-0.1084273933,77.33718879,75.36196359,-17.36707269,8.182301662e-08,-2.467906666e-05,0.2304487817,1.636280045e-05,-12.76346544,0.2300523787,158.4256782,-561.5743218,1.597579296,-0.2139352253,0.08459205842,32.48487856,31.9786396,5.71261277,-2.487524247e-07,8.11777286e-06,0.1786383924,1.62893791e-05,-20.30349993,0.09656616928,172.4044127,-187.5955873,1.213775854,-0.09571887097,0.01276412117,41.26559635,41.25190263,1.063001079,-1.336806053e-06,1.510552467e-06,0.02576853458,4.418771855e-07,
120000,-22.98927886,0.07088201537,-28.32986671,-28.32986671,1.152579148,0.06239248382,-0.03363685577,56.64638343,56.51734411,-3.821330865,3.470757281e-07,-5.06819747e-06,0.06761341895,1.264059073e-07,-12.84671151,0.2278580752,-72.71443436,-792.7144344,1.590197392,0.06770445752,-0.2175670215,56.90975333,51.72231055,-23.73863128,5.587058397e-08,-3.148433759e-05,0.4589630864,1.609275499e-05,-13.20890502,0.2185519819,111.8784226,-608.1215774,1.559351299,-0.0814408469,0.2028111369,42.74686731,39.32753712,16.75229802,-7.917070188e-08,2.221842532e-05,0.4259686532,1.600231935e-05,-23.74425881,0.06498110013,166.2168547,-193.7831453,1.138994196,-0.06310993083,0.01548160212,44.06499299,44.04370591,1.369517107,-9.684371125e-07,1.816378477e-06,0.03109450212,-1.486572917e-07,
128000,-24.23842879,0.06138730399,-12.72656065,-12.72656065,1.130804333,0.05987917292,-0.01352352547,56.36806281,56.34730018,-1.529793172,8.127883006e-07,-1.90214176e-06,0.02714936062,1.142441324e-07,-13.13861032,0.2203278945,-118.9840153,-838.9840153,1.565180909,-0.1067633174,-0.1927329114,40.67016745,37.69421874,-15.27116216,8.142130769e-08,-1.898813238e-05,0.405132741,1.587610929e-05,-13.61084371,0.2086689422,66.42358482,-653.5764152,1.527387217,0.08346169111,0.1912508132,58.75445423,54.55373976,21.81685976,-5.699252809e-08,2.712703964e-05,0.399915017,1.577250468e-05,-24.7011009,0.0582029443,-173.6732875,-173.6732875,1.123599758,-0.05784847015,-0.006413830897,44.53171085,44.52802254,-0.5731319453,2.169479477e-06,-7.126311105e-07,0.01287126427,-1.918317873e-07,
136000,-22.47051978,0.07524437008,-14.02558107,-14.02558107,1.162733521,0.07300115616,-0.01823585557,57.87216056,57.83326986,-2.121288444,5.516727052e-07,-2.482452512e-06,0.03667937935,8.859632559e-07,-13.43595979,0.2129129173,-164.2558457,-884.2558457,1.541014894,-0.2049250475,-0.05777227062,33.04174006,32.80236033,-3.970106173,2.947671633e-07,-4.646044279e-06,0.1210311128,1.568823865e-05,-13.92297845,0.2013033848,21.46063445,-698.5393655,1.504079724,0.1873468512,0.07364923662,72.89538223,72.05126561,11.06127818,-1.057976226e-07,1.294453749e-05,0.1535195542,1.557483949e-05,-22.71376803,0.07316638509,-177.2454476,-177.2454476,1.157884617,-0.07308184655,-0.003516192964,43.18961548,43.18853603,-0.3053531059,3.832471037e-06,-3.573415897e-07,0.007070235159,4.521138135e-07,
144000,-23.00685917,0.07073869469,-29.4034334,-29.4034334,1.152247154,0.06162644676,-0.03472958372,56.55890562,56.42159514,-3.938706164,2.8061059e-07,-4.353226079e-06,0.06980848652,5.941901423e-07,-13.78847871,0.204444798,150.6399119,-929.3600881,1.513967598,-0.1781850006,0.1002386203,35.00831379,34.26635949,7.16928463,-1.541635906e-07,7.923799218e-06,0.2092222441,1.553335083e-05,-14.28587191,0.1930662693,-23.48949519,-743.4894952,1.478518277,0.177067479,-0.07695253226,71.35801395,70.46329759,-11.26453938,9.811698664e-08,-1.245004948e-05,0.1598639259,1.545146379e-05,-23.6768285,0.06548752465,166.8979415,-193.1020585,1.140153345,-0.06378274186,0.01484512463,44.00540405,43.98585403,1.311575814,-8.42683014e-07,1.449609542e-06,0.02981812775,2.929758916e-08,
152000,-26.17221897,0.04913478405,-32.74930122,-32.74930122,1.103347526,0.04132459445,-0.02658015983,54.30741314,54.2304682,-2.889885866,3.623229576e-07,-3.025918556e-06,0.05328897134,-5.61938659e-07,-14.13544696,0.1964389716,106.5629654,-973.4370346,1.488921102,-0.05599863592,0.1882881365,44.86984677,41.77923743,16.36454916,-6.398416382e-08,1.713486112e-05,0.3916909489,1.538437715e-05,-14.63928232,0.185368478,-67.44272603,-787.442726,1.455097729,0.07110860286,-0.1711871468,57.41996809,54.11896726,-19.18828077,5.456830692e-08,-2.00915114e-05,0.3545574082,1.534028117e-05,-27.20036313,0.04364975831,169.4208013,-190.5791987,1.091284043,-0.04290780269,0.00801385481,45.88600683,45.88009168,0.7367565301,-1.421191332e-06,7.714371291e-07,0.01605830553,-8.853873932e-07,
160000,-26.77538326,0.04583854638,-11.92103863,-11.92103863,1.096081321,0.04484995573,-0.009468569358,54.69515111,54.68530516,-1.03776373,9.585210636e-07,-1.032282671e-06,0.01897701269,-6.36504139e-07,-14.03781563,0.1986594452,61.92632718,-1018.073673,1.495817774,0.09349042576,0.1752858108,59.97233977,56.33733944,20.56175388,-4.837711802e-08,2.045315481e-05,0.3649755933,1.529222848e-05,-14.8808078,0.1802850066,-111.6258135,-831.6258135,1.439872414,-0.06644285081,-0.1675948423,43.93023071,41.50965158,-14.38102906,6.916879108e-08,-1.430507413e-05,0.3464502474,1.52676133e-05,-26.63204374,0.04660127649,-167.4282972,-167.4282972,1.09775821,-0.04548398196,-0.01014329117,45.64990972,45.64047821,-0.9279044294,1.072005222e-06,-9.230036041e-07,0.02033073416,-4.037613834e-07,
168000,-24.70688415,0.0581642045,-14.67486177,-14.67486177,1.12351241,0.05626682967,-0.01473494362,55.96077879,55.93632931,-1.654033034,5.727520745e-07,-1.566949604e-06,0.0295699245,4.938957001e-07,-14.68919694,0.1843062883,18.56591578,-1061.434084,1.451900721,0.1747146178,0.05868228225,71.07949004,70.56065355,8.572518612,-1.105102123e-07,8.121182809e-06,0.1214914854,1.522106781e-05,-15.17143453,0.1743525379,-155.3712553,-875.3712553,1.422341365,-0.1584911908,-0.0726591352,36.38281655,35.98095329,-5.392619089,1.756754623e-07,-5.108702287e-06,0.1498742695,1.520241467e-05,-24.31531638,0.06084630094,-177.3327497,-177.3327497,1.129576875,-0.06078038234,-0.002831512228,44.27026345,44.26954831,-0.2516311417,3.76483946e-06,-2.383829764e-07,0.005684068424,1.006620202e-06,
176000,-25.13253912,0.05538256224,-29.27499353,-29.27499353,1.117259242,0.04830925524,-0.02708217232,55.0722324,54.99112925,-2.987722504,3.026684869e-07,-2.701765938e-06,0.05433099019,5.90584622e-07,-14.97526917,0.1783349817,-25.56965338,-1105.569653,1.434081962,0.1608690771,-0.07697081085,69.03298896,68.17659975,-10.83996366,8.342181561e-08,-9.802464766e-06,0.1589983029,1.510643969e-05,-15.43505593,0.1691403417,160.6211379,-919.3788621,1.407145395,-0.1595577188,0.05612298617,36.27802229,36.03822526,4.164279232,-2.171538936e-07,3.765713774e-06,0.1155517288,1.508681374e-05,-25.35920989,0.05395597011,166.088881,-193.911119,1.114066509,-0.05237343308,0.01297190112,45.02410119,45.00886789,1.171110559,-7.721640306e-07,1.059022922e-06,0.02601955156,5.792004136e-07,
184000,-28.00823331,0.03977299858,-31.18442186,-31.18442186,1.082840825,0.03402600213,-0.02059423694,53.5209076,53.47542282,-2.206060805,3.92089155e-07,-1.908181967e-06,0.04125373281,-6.944989561e-07,-15.26330044,0.1725182237,-68.87242073,-1148.872421,1.416971657,0.06218347652,-0.1609215733,56.45183811,53.58085897,-17.77362029,4.866608505e-08,-1.537369308e-05,0.3317158521,1.538573915e-05,-15.71513794,0.1637733011,117.519027,-962.480973,1.391695939,-0.07567033181,0.1452435714,43.10134305,41.30068744,12.32797589,-7.016338484e-08,1.066336033e-05,0.2984932372,1.530333574e-05,-28.94228971,0.0357178669,168.1668813,-191.8331187,1.074081777,-0.03495882724,0.007324371249,46.62237645,46.61736223,0.6837580505,-1.265027178e-06,5.914319218e-07,0.01466745474,-1.243850949e-06,
192000,-28.3778682,0.0381159361,-12.17067714,-12.17067714,1.079252662,0.0372592392,-0.008035774942,53.86986179,53.86288573,-0.866919537,9.561810063e-07,-7.186173415e-07,0.016094933,-6.688132746e-07,-15.49257961,0.1680238839,-111.8872361,-1191.887236,1.403915162,-0.06263612443,-0.1559126085,44.23791019,42.12242624,-13.51643093,6.13277277e-08,-1.120420206e-05,0.3208844345,1.520609296e-05,-15.93664837,0.159649507,74.67892744,-1005.321073,1.379959334,0.04218383517,0.1539756121,54.29760586,51.77404208,16.36088532,-5.066547312e-08,1.356206131e-05,0.316005563,1.514259899e-05,-28.41333999,0.03796059408,-168.5185987,-168.5185987,1.078916921,-0.03720097865,-0.007556049903,46.41352747,46.40821322,-0.7023376232,1.180247174e-06,-5.821901274e-07,0.01513390787,-9.663461002e-07,
