Frequency,S11_Magnitude,S11_Magnitude (linear),S11_Phase,S11_Unwrapped Phase,S11_VSWR,S11_Real,S11_Imaginary,S11_Impedance (absolute),S11_Resistance,S11_Reactance,S11_Capacitance,S11_Inductance,S11_Quality Factor,S11_Group delay,S12_Magnitude,S12_Magnitude (linear),S12_Phase,S12_Unwrapped Phase,S12_VSWR,S12_Real,S12_Imaginary,S12_Impedance (absolute),S12_Resistance,S12_Reactance,S12_Capacitance,S12_Inductance,S12_Quality Factor,S12_Group delay,S21_Magnitude,S21_Magnitude (linear),S21_Phase,S21_Unwrapped Phase,S21_VSWR,S21_Real,S21_Imaginary,S21_Impedance (absolute),S21_Resistance,S21_Reactance,S21_Capacitance,S21_Inductance,S21_Quality Factor,S21_Group delay,S22_Magnitude,S22_Magnitude (linear),S22_Phase,S22_Unwrapped Phase,S22_VSWR,S22_Real,S22_Imaginary,S22_Impedance (absolute),S22_Resistance,S22_Reactance,S22_Capacitance,S22_Inductance,S22_Quality Factor,S22_Group delay,
0,-13.41816139,0.2133496478,-134.9761918,-134.9761918,1.542425608,-0.1507982822,-0.1509236573,37.15619936,35.42690065,-11.20347543,inf,-inf,0.3162420427,1.190560416e-05,-13.54005626,0.2103764814,-134.1029532,-134.1029532,1.532852622,-0.1464114721,-0.1510693375,37.4832219,35.73985373,-11.29844145,inf,-inf,0.3161300418,1.354316486e-06,-15.95483125,0.1593156492,-162.0037987,-162.0037987,1.37901419,-0.15152145,-0.04922119743,36.86990263,36.68325203,-3.705231424,inf,-inf,0.1010060782,-2.547014328e-05,-16.08489681,0.1569477736,-161.2993353,-161.2993353,1.372332268,-0.1486619604,-0.05032121974,37.08692314,36.89105422,-3.806571458,inf,-inf,0.1031841333,-4.399707779e-06,
8000,-29.52745119,0.03339084738,-144.5250188,-144.5250188,1.069088622,-0.02719247134,-0.01937829174,47.35370659,47.31810299,-1.835934982,1.083609609e-05,-3.652476594e-05,0.03879984331,1.190560416e-05,-27.14349356,0.04393648627,-75.48369213,-75.48369213,1.091911229,0.0110129243,-0.04253387267,51.11152241,50.92687694,-4.340613784,4.583307541e-06,-8.635376747e-05,0.08523227899,1.354316486e-06,-35.38210233,0.01701746568,131.6786408,-228.3213592,1.034624147,-0.01131579733,0.01271010893,48.88126045,48.86546573,1.242530614,-1.601116919e-05,2.471936115e-05,0.02542758154,-2.547014328e-05,-28.43918692,0.03784780122,-4.380311398,-4.380311398,1.07867321,0.03773724993,-0.002890679011,53.92168581,53.92078211,-0.3121825339,6.372671666e-05,-6.210674178e-06,0.005789651443,-4.399707779e-06,
16000,-0.1743754844,0.9801244559,-143.0550062,-143.0550062,99.62617617,-0.7833281164,-0.5891018683,16.71052655,0.5578778226,-16.70121163,5.955965448e-07,-0.0001661300242,29.93704169,1.190560416e-05,-23.38523235,0.06772334216,133.3744968,133.3744968,1.145285933,-0.0465099556,0.04922677222,45.56599773,45.34474212,4.484920451,-2.217917587e-06,4.46123287e-05,0.09890717736,1.354316486e-06,-18.32895479,0.1212138542,-26.58723411,-26.58723411,1.275866557,0.1083959714,-0.0542504548,62.11694044,61.7437113,-6.79914734,1.463004616e-06,-6.763236925e-05,0.1101188639,-2.547014328e-05,-4.628045671,0.5869454177,14.97350076,14.97350076,3.841975094,0.5670159364,0.1516504244,171.5810977,155.7194793,72.05218152,-1.380552779e-07,0.0007167163031,0.4627049992,-4.399707779e-06,
24000,-7.262189254,0.4334016269,126.5002489,-233.4997511,2.529837174,-0.2577986767,0.3483917515,31.41010288,23.83898864,20.45231487,-3.242398723e-07,0.0001356286254,0.8579355099,1.529924219e-05,-20.9287108,0.08985959567,-80.80094185,-80.80094185,1.19746315,0.01436540073,-0.08870390181,51.44593199,50.64233345,-9.057482023,7.321522632e-07,-6.006429317e-05,0.1788519882,1.989902697e-05,-23.07659269,0.07017305197,109.7783122,109.7783122,1.150937875,-0.02374528022,0.06603346796,47.69039082,47.27583297,6.274471515,-1.056894743e-06,4.160888154e-05,0.1327204857,9.202923482e-06,-6.592174837,0.4681567162,-48.29745381,-48.29745381,2.760506263,0.3114475915,-0.3495298394,87.88183011,65.47554383,-58.61884701,1.13128393e-07,-0.0003887283025,0.8952785052,1.11599475e-05,
32000,-6.390193374,0.479170785,98.07047446,-261.9295255,2.840030364,-0.06727128313,0.4744251423,44.7980133,28.23725162,34.77814855,-1.430091071e-07,0.0001729723204,1.231640707,1.382654106e-05,-20.96819009,0.08945209071,-150.9464857,-150.9464857,1.196479701,-0.07819602223,-0.04344028821,42.76026218,42.5972034,-3.730721613,1.33314476e-06,-1.855508706e-05,0.08758137425,3.534294505e-05,-20.83815827,0.09080130422,35.71642885,35.71642885,1.199739187,0.07372304718,0.0530074444,57.93487076,57.60667553,6.15793673,-8.076718209e-07,3.062706468e-05,0.1068962351,1.15848126e-05,-6.231863675,0.4879853862,-75.98497206,-75.98497206,2.906138509,0.1181785359,-0.4734591543,60.66048266,38.02610559,-47.26213548,1.052341779e-07,-0.0002350625776,1.242886558,1.132342024e-05,
40000,-7.738103055,0.4102936988,54.60315339,-305.3968466,2.391518788,0.2376570078,0.3344548788,77.00169428,60.00193328,48.26001372,-8.244659026e-08,0.0001920204934,0.8043076461,7.664734724e-06,-14.56146108,0.1870367493,140.1308107,-219.8691893,1.460135804,-0.1435525717,0.1198974761,37.60582359,36.49595698,9.068797701,-4.38743228e-07,3.608359955e-05,0.2484877354,2.550448106e-05,-14.42973741,0.189894825,-31.99528885,-31.99528885,1.468815238,0.1610482185,-0.1006156841,68.96152741,67.50623878,-14.0925508,2.823387784e-07,-5.607247802e-05,0.2087592355,2.605969469e-05,-7.604129329,0.4166712481,-119.604319,-119.604319,2.428598357,-0.2058386831,-0.3622780225,34.66370835,26.06412311,-22.85244327,1.741115175e-07,-9.09269827e-05,0.8767777521,7.004813406e-06,
48000,-12.72349038,0.2311135886,53.79135026,-306.2086497,1.601164451,0.1365251489,0.186478885,65.1882489,60.65038162,23.89642241,-1.387541584e-07,7.923403644e-05,0.3940028369,7.158085015e-06,-10.97008865,0.2828105245,53.97021176,-306.0297882,1.788663343,0.166350786,0.2287120652,68.74651327,61.55777857,30.60593053,-1.083361271e-07,0.0001014809402,0.4971903021,2.483067168e-05,-10.98581262,0.2822990189,-122.5217351,-122.5217351,1.786675862,-0.1517694599,-0.2380310213,37.45384797,33.26656313,-17.20832663,1.926816043e-07,-5.70581301e-05,0.5172859775,2.518816475e-05,-12.23606352,0.2444538176,-112.4303181,-112.4303181,1.647091662,-0.09327368805,-0.2259594832,41.85209967,37.72119574,-18.13035132,1.828827209e-07,-6.011531319e-05,0.4806409492,6.573950938e-06,
56000,-10.05808006,0.3141202952,38.26763093,-321.7323691,1.915963231,0.2466241326,0.1945458739,81.07762835,74.43787249,32.13386,-8.844416933e-08,9.132611893e-05,0.431686975,5.123209197e-06,-11.04096948,0.2805120525,-10.52381789,-370.5238179,1.779754695,0.2757935781,-0.05123391328,87.93340275,87.39454005,-9.71996345,2.923933377e-07,-2.762464696e-05,0.1112193444,2.349942636e-05,-11.13050373,0.2776353829,173.6377906,-186.3622094,1.768684889,-0.2759254889,0.03076573412,28.39183188,28.32894119,1.888705414,-1.504762222e-06,5.367800047e-06,0.06667052611,2.377625864e-05,-9.835822432,0.322261837,-130.9440938,-130.9440938,1.950992152,-0.2111853718,-0.243420275,33.41089607,29.35832617,-15.94918997,1.781941629e-07,-4.532843611e-05,0.5432595127,4.516011768e-06,
64000,-12.28401122,0.2431081055,3.161811474,-356.8381885,1.642385279,0.2427380338,0.01340887465,82.04661248,82.01330626,2.337566066,-1.063839872e-06,5.813049911e-06,0.02850227814,4.159925495e-06,-10.09624041,0.3127432749,-73.18084358,-433.1808436,1.910120668,0.09049284627,-0.2993649959,59.05105178,49.20208018,-32.65244282,7.615956944e-08,-8.119996372e-05,0.6636394781,2.08119501e-05,-10.25445985,0.3070980137,110.1903167,-249.8096833,1.886411123,-0.1059916808,0.2882272604,41.09266194,34.66646154,22.06452605,-1.127056153e-07,5.486997482e-05,0.6364804793,2.067069616e-05,-12.52376152,0.2364895331,-164.9799781,-164.9799781,1.619479479,-0.2284099447,-0.06128781611,31.4658286,31.20391523,-4.051424889,6.138077476e-07,-1.007506715e-05,0.1298370688,4.042225219e-06,
72000,-16.89260589,0.1430110862,6.14371034,-353.8562897,1.333752477,0.1421897145,0.01530541973,66.5712742,66.53879254,2.079335216,-1.063073094e-06,4.596339971e-06,0.03124996917,3.426278186e-06,-10.45600699,0.3000541589,-134.6854011,-494.6854011,1.857363931,-0.2110021561,-0.2133321082,33.23427551,30.09078534,-14.10892293,1.56672861e-07,-3.118756702e-05,0.4688785211,1.98557423e-05,-10.67850725,0.2924654965,49.27056081,-310.7294392,1.82671727,0.1908301846,0.2216301137,72.18818965,64.95919213,31.48710979,-7.020286509e-08,6.960179398e-05,0.4847213883,1.976121052e-05,-17.1931708,0.1381470005,-158.3600584,-158.3600584,1.320581353,-0.1284103496,-0.05094483159,38.64679287,38.43997715,-3.992838017,5.536125712e-07,-8.826109824e-06,0.1038720185,3.112224369e-06,
80000,-16.5440322,0.1488669841,9.950383432,-350.0496166,1.349808976,0.146627691,0.02572351463,67.16854308,67.07577006,3.529057894,-5.637302783e-07,7.020837604e-06,0.05261300602,2.037146413e-06,-11.71513925,0.2595631507,176.358922,-543.641078,1.701108139,-0.2590392107,0.01648382653,29.43040227,29.41203183,1.039692923,-1.913484977e-06,2.068403349e-06,0.03534923832,1.885494188e-05,-12.11821741,0.2477930546,2.003855091,-357.9961449,1.658842772,0.2476415234,0.008664515233,82.91186432,82.89773685,1.530513048,-1.29984961e-06,3.044858964e-06,0.01846266383,1.876803822e-05,-16.4980356,0.1496574083,-156.930379,-156.930379,1.351993208,-0.1376892141,-0.05864315962,37.93464046,37.66454438,-4.518743612,4.402632589e-07,-8.98975478e-06,0.1199734043,1.609448462e-06,
88000,-16.99312345,0.1413656282,-14.46506093,-374.4650609,1.329280152,0.1368843579,-0.03531166081,65.83601596,65.66573104,-4.732099457,3.821937631e-07,-8.558375226e-06,0.07206345506,1.937445279e-06,-11.17554422,0.2761994369,118.7836102,-601.2163898,1.763192103,-0.1329908525,0.2420734642,38.84852354,34.40870174,18.03466179,-1.002834941e-07,3.261710877e-05,0.5241308414,1.798723671e-05,-11.52298185,0.2653694397,-56.83041009,-416.8304101,1.722456849,0.1451886701,-0.2221287681,66.04005728,59.5850707,-28.47645546,6.351137702e-08,-5.150191645e-05,0.4779125899,1.798407575e-05,-17.36934906,0.1353731539,-179.7849243,-179.7849243,1.313136596,-0.1353722001,-0.0005081597007,38.07684663,38.07682622,-0.03942063549,4.587898891e-05,-7.129532953e-08,0.00103529205,1.705843717e-06,
96000,-20.29218619,0.09669203273,-15.86871124,-375.8687112,1.214084313,0.09300717411,-0.02643888723,60.24648955,60.16084884,-3.211194373,5.162764373e-07,-5.323723518e-06,0.05337681291,1.949241283e-06,-11.63354915,0.2620128208,68.57348765,-651.4265123,1.710074181,0.09571526705,0.2439042966,59.92595605,53.08526289,27.80422761,-5.962632783e-08,4.609562774e-05,0.5237654689,1.757949047e-05,-12.03652297,0.2501346471,-107.0189482,-467.0189482,1.667145498,-0.07321139643,-0.2391807541,43.5251851,38.7692435,-19.78351578,8.380027133e-08,-3.279837842e-05,0.51028893,1.76334583e-05,-20.54782121,0.09388775174,-177.443603,-177.443603,1.207232055,-0.09379431488,-0.004187651151,41.42500592,41.42352715,-0.3500199567,4.736484189e-06,-5.802854822e-07,0.008449786409,1.870113064e-06,
104000,-20.19183665,0.09781561001,-8.845954335,-368.8459543,1.216841726,0.0966521286,-0.015041928,60.69662102,60.66864076,-1.842778157,8.304504724e-07,-2.820069738e-06,0.03037447575,1.053089932e-06,-12.04664483,0.2498433293,20.19110742,-699.8088926,1.666109732,0.2344896081,0.08623405876,80.32026658,78.99487764,14.53115722,-1.05314117e-07,2.223755289e-05,0.1839506263,1.676188194e-05,-12.4963477,0.2372371046,-155.1887284,-515.1887284,1.622046788,-0.2153389202,-0.0995519625,32.43172782,31.73316735,-6.695002584,2.2857885e-07,-1.024560342e-05,0.2109780757,1.665556862e-05,-19.91651402,0.1009658019,-172.6675959,-172.6675959,1.22460948,-0.1001401461,-0.01288581724,40.8988976,40.88504139,-1.064526222,1.437574725e-06,-1.629082791e-06,0.02603705869,1.266696992e-06,
112000,-20.31655692,0.09642111601,-20.92824434,-380.9282443,1.213420472,0.09006007078,-0.03444147591,59.88437372,59.74014594,-4.153694625,3.421113986e-07,-5.902509211e-06,0.06952936857,3.826020206e-07,-12.43930398,0.238800263,-27.48948933,-747.4894893,1.627431281,0.2118386445,-0.1102268312,76.45091094,74.44359361,-17.40382587,8.165022381e-08,-2.47312939e-05,0.2337854076,1.638645728e-05,-12.88770902,0.2267851165,157.2612148,-562.7387852,1.586603081,-0.2091586167,0.08765935264,32.81629181,32.26975116,5.964240778,-2.382576979e-07,8.475342871e-06,0.1848245048,1.627875719e-05,-20.33423043,0.09622512381,172.5813287,-187.4186713,1.212940471,-0.09541963661,0.01242446786,41.2904548,41.27747373,1.035287301,-1.372591238e-06,1.47117046e-06,0.02508116916,4.481451059e-07,
120000,-23.12843407,0.06975547441,-27.09978941,-387.0997894,1.149972341,0.06209733331,-0.03177652288,56.61372393,56.49862397,-3.608216589,3.675752715e-07,-4.785545883e-06,0.06386379589,7.840164188e-08,-12.89106147,0.2266976022,-74.55600115,-794.5560012,1.586310356,0.06036875349,-0.2185118222,56.11301109,50.96458488,-23.47937609,5.648749726e-08,-3.114048971e-05,0.4606998397,1.60984025e-05,-13.4926312,0.211528281,111.1893203,-608.8106797,1.536552614,-0.07645706252,0.1972271058,43.14640277,39.88014592,16.46772702,-8.053881335e-08,2.18410013e-05,0.4129304604,1.600313773e-05,-23.59351798,0.06611866876,166.9621731,-193.0378269,1.141599723,-0.06441421801,0.01491599397,43.94965798,43.92994269,1.316271837,-1.007611919e-06,1.745759745e-06,0.02996297643,-1.144321012e-07,
128000,-24.17035396,0.0618703114,-12.2512628,-372.2512628,1.131901404,0.06046130352,-0.01312883122,56.43402693,56.4144327,-1.487003283,8.361770327e-07,-1.848936898e-06,0.02635856131,1.146060351e-07,-13.27459066,0.2169054513,-120.0179429,-840.0179429,1.55397002,-0.1085115464,-0.1878116585,40.51630339,37.69376777,-14.85768193,8.368721306e-08,-1.847401189e-05,0.3941681293,1.586109227e-05,-13.77163342,0.2048416801,65.37792392,-654.6220761,1.515222378,0.0853434125,0.1862165832,58.9875002,54.97929859,21.37292461,-5.817631492e-08,2.657505156e-05,0.3887449487,1.578773605e-05,-24.48405745,0.0596756458,-173.7117771,-173.7117771,1.126925662,-0.05931660669,-0.00653627355,44.40071026,44.39688974,-0.5824546596,2.134754993e-06,-7.242229547e-07,0.01311926721,-1.500414198e-07,
136000,-22.52274424,0.07479331597,-14.31342875,-374.3134287,1.161679152,0.07247156796,-0.01849086129,57.81051226,57.77057545,-2.148474045,5.446921443e-07,-2.51426665e-06,0.03718976362,8.391227196e-07,-13.58232432,0.2093552151,-165.3616618,-885.3616618,1.529580968,-0.202559605,-0.05290758469,33.19674288,32.99531299,-3.651446076,3.204913643e-07,-4.273130092e-06,0.110665599,1.564456249e-05,-14.07100077,0.1979018989,20.30773378,-699.6922662,1.493460584,0.1856007318,0.06868427724,72.65400932,71.92268392,10.28263623,-1.138090377e-07,1.203332636e-05,0.142967916,1.560913831e-05,-22.69727415,0.07330545475,-177.8732208,-177.8732208,1.158208452,-0.07325495887,-0.002720422365,43.17455276,43.1739068,-0.2361716364,4.955112105e-06,-2.763814952e-07,0.005470240103,3.996419013e-07,
144000,-23.17754256,0.06936220204,-28.97175157,-388.9717516,1.149063797,0.06068212074,-0.03359754893,56.45245004,56.32420662,-3.803007281,2.906233353e-07,-4.203245885e-06,0.06751994408,5.797485174e-07,-13.93997884,0.2009097707,149.5136124,-930.4863876,1.50284627,-0.1731339381,0.1019282857,35.37523544,34.60308288,7.35077805,-1.503572347e-07,8.124393487e-06,0.2124313049,1.543904075e-05,-14.44330221,0.1895984967,-24.64139109,-744.6413911,1.4679125,0.1723327373,-0.07905072808,70.66076471,69.72930361,-11.43537874,9.665116348e-08,-1.263886842e-05,0.1639967439,1.548616877e-05,-23.73896879,0.06502068796,167.1596221,-192.8403779,1.139084763,-0.06339471437,0.01444991533,44.03963382,44.02109808,1.277603592,-8.650904455e-07,1.412061993e-06,0.02902252891,3.689792891e-08,
152000,-26.24365253,0.04873235209,-30.82291218,-390.8229122,1.102457709,0.04184915423,-0.02496979036,54.36485468,54.29686736,-2.718017653,3.852336989e-07,-2.845960163e-06,0.05005846165,-5.312531269e-07,-14.27693918,0.1932649243,105.3965214,-974.6034786,1.479128602,-0.05131137034,0.186328941,45.27571118,42.22239316,16.3450157,-6.406062945e-08,1.711440818e-05,0.3871172256,1.534365701e-05,-14.7982147,0.1820074918,-68.57261385,-788.5726139,1.445010168,0.06649129856,-0.1694273717,56.90934819,53.70658102,-18.82224925,5.562948298e-08,-1.970825005e-05,0.3504644848,1.535645222e-05,-27.0715356,0.04430198849,170.7716302,-189.2283698,1.092711271,-0.04372858694,0.007104707471,45.81055183,45.80590958,0.6521551389,-1.60555661e-06,6.828533817e-07,0.01423735812,-8.413226709e-07,
160000,-26.57503294,0.04690815514,-12.34489973,-372.3448997,1.098433651,0.04582356042,-0.01002877503,54.80191281,54.79084394,-1.101393574,9.031452674e-07,-1.095576448e-06,0.02010178152,-5.708648783e-07,-14.36684014,0.1912749041,62.28077877,-1017.719221,1.473028239,0.08896942636,0.1693237434,59.4656041,56.10068201,19.71982629,-5.044255358e-08,1.961567395e-05,0.3515077818,1.530110924e-05,-14.74663782,0.183091469,-113.1827326,-833.1827326,1.448254516,-0.07207668275,-0.1683075692,43.45083659,41.03325685,-14.29150211,6.960208849e-08,-1.421602003e-05,0.3482907087,1.526767141e-05,-26.49390769,0.04734832451,-168.5655327,-168.5655327,1.099403225,-0.04640855937,-0.009386663458,45.56534174,45.55727829,-0.857183367,1.160449949e-06,-8.526560625e-07,0.01881550872,-3.58262095e-07,
168000,-24.72400899,0.05804964263,-14.97680964,-374.9768096,1.123254144,0.05607772551,-0.01500165695,55.93950562,55.91417394,-1.683282773,5.627995885e-07,-1.594659368e-06,0.03010475974,4.407889345e-07,-14.85031915,0.1809189433,17.30609407,-1062.693906,1.44176078,0.1727285917,0.05381911998,70.80423922,70.36987136,7.830804357,-1.209774639e-07,7.418519177e-06,0.1112806405,1.527866623e-05,-15.34968283,0.1708110091,-156.5545075,-876.5545075,1.411995362,-0.1567086819,-0.06796167923,36.50741741,36.15477833,-5.06196893,1.87150665e-07,-4.795460578e-06,0.1400082966,1.519008986e-05,-24.30885762,0.06089156262,-177.8955969,-177.8955969,1.129679513,-0.06085049581,-0.002235968974,44.26401663,44.26357074,-0.1986806062,4.768209992e-06,-1.882202415e-07,0.004488580629,9.097515647e-07,
176000,-25.28548177,0.05441591191,-28.6743486,-388.6743486,1.115094813,0.04774240283,-0.02611042781,55.01000665,54.93470872,-2.877257315,3.14288696e-07,-2.601873433e-06,0.05237594559,4.239497851e-07,-15.14007966,0.174983064,-26.77714706,-1106.777147,1.424192659,0.1562188573,-0.07883363051,68.3754391,67.48858881,-10.97684166,8.238156997e-08,-9.926242102e-06,0.1626473728,1.521842289e-05,-15.61812263,0.1656127881,159.4950875,-920.5049125,1.396968663,-0.1551199194,0.05801212098,36.61106485,36.35329602,4.336811938,-2.085147944e-07,3.921733279e-06,0.1192962513,1.506119069e-05,-25.41746369,0.05359531347,166.6522098,-193.3477902,1.113260879,-0.05214752454,0.01237308815,45.04442904,45.03056386,1.117544372,-8.091754318e-07,1.010583584e-06,0.02481746342,4.583048571e-07,
184000,-28.02913662,0.03967739665,-29.00554841,-389.0055484,1.082633474,0.0347007701,-0.01923934404,53.59344044,53.55368402,-2.063924732,4.190911149e-07,-1.78523817e-06,0.03853936044,-3.984732605e-07,-15.4252692,0.1693310261,-70.08730949,-1150.087309,1.407697967,0.0576720829,-0.1592071834,55.95935379,53.17509812,-17.43152938,4.962114902e-08,-1.507779384e-05,0.3278137699,1.507739598e-05,-15.892533,0.1604624246,116.3511821,-963.6488179,1.38226383,-0.07122475191,0.1437888189,43.47760617,41.69892715,12.30860322,-7.027381593e-08,1.06466035e-05,0.2951779352,1.514345192e-05,-28.76998112,0.0364335042,170.0623364,-189.9376636,1.07562219,-0.03588685937,0.006287571322,46.53577148,46.53208268,0.5859253346,-1.476250412e-06,5.068093113e-07,0.01259185708,-7.283738438e-07,
