Frequency,S11_Magnitude,S11_Magnitude (linear),S11_Phase,S11_Unwrapped Phase,S11_VSWR,S11_Real,S11_Imaginary,S11_Impedance (absolute),S11_Resistance,S11_Reactance,S11_Capacitance,S11_Inductance,S11_Quality Factor,S11_Group delay,S12_Magnitude,S12_Magnitude (linear),S12_Phase,S12_Unwrapped Phase,S12_VSWR,S12_Real,S12_Imaginary,S12_Impedance (absolute),S12_Resistance,S12_Reactance,S12_Capacitance,S12_Inductance,S12_Quality Factor,S12_Group delay,S21_Magnitude,S21_Magnitude (linear),S21_Phase,S21_Unwrapped Phase,S21_VSWR,S21_Real,S21_Imaginary,S21_Impedance (absolute),S21_Resistance,S21_Reactance,S21_Capacitance,S21_Inductance,S21_Quality Factor,S21_Group delay,S22_Magnitude,S22_Magnitude (linear),S22_Phase,S22_Unwrapped Phase,S22_VSWR,S22_Real,S22_Imaginary,S22_Impedance (absolute),S22_Resistance,S22_Reactance,S22_Capacitance,S22_Inductance,S22_Quality Factor,S22_Group delay,
0,-13.44364028,0.2127247325,-134.7034993,-134.7034993,1.540407508,-0.1496386844,-0.1511954892,37.24318915,35.50492626,-11.24523673,inf,-inf,0.3167232808,9.11771097e-06,-13.60367951,0.2088411253,-133.9119053,-133.9119053,1.527937263,-0.1448420828,-0.1504506121,37.59862002,35.86538133,-11.28408832,inf,-inf,0.3146234029,-1.303625071e-06,-15.68359053,0.1643692122,-172.0868613,-172.0868613,1.393401523,-0.1628040753,-0.02262898555,36.00534122,35.96645348,-1.672967677,inf,-inf,0.04651466897,1.086248025e-05,-15.89687392,0.1603822508,-171.7353875,-171.7353875,1.382036351,-0.1587166424,-0.02305414891,36.30881879,36.26822626,-1.716416647,inf,-inf,0.04732562974,-9.312185506e-06,
8000,-16.39215911,0.1514928182,137.8810922,-222.1189078,1.357080815,-0.1123704883,0.101601906,39.99215537,39.15432132,8.143194262,-2.443066842e-06,0.0001620037024,0.2079768973,9.11771097e-06,-22.49642361,0.07502030394,-139.1934306,-139.1934306,1.162209623,-0.05678437832,-0.04902632336,44.63891541,44.42346295,-4.380491728,4.541583256e-06,-8.714711397e-05,0.09860761492,-1.303625071e-06,-22.009774,0.07934349012,122.3400864,-237.6599136,1.17236285,-0.04244429205,0.0670363446,45.94589574,45.53332136,6.143450255,-3.23830536e-06,0.0001222200595,0.1349220762,1.086248025e-05,-10.97985805,0.2824926141,-114.7075348,-114.7075348,1.787427752,-0.118078112,-0.256631324,40.03400402,34.96303501,-19.50147841,1.020146651e-06,-0.0003879695859,0.5577741866,-9.312185506e-06,
16000,2.934225513,1.401881407,-111.3539098,-111.3539098,nan,-0.510463853,-1.30564089,34.92022498,-12.1076674,-32.75403033,3.036934339e-07,-0.0003258103646,-2.705230433,9.11771097e-06,-20.3714052,0.09581416962,147.223291,-212.776709,1.211934685,-0.08055928339,0.05187057895,42.56330563,42.33190454,4.432250426,-2.244273899e-06,4.408841027e-05,0.1047023628,-1.303625071e-06,-14.9441931,0.1789741649,1.161848279,-358.8381517,1.435976938,0.1789373691,0.003629003336,71.79302739,71.79100928,0.5383023929,-1.847880313e-05,5.35459292e-06,0.007498186728,1.086248025e-05,-1.224864682,0.8684738893,33.69060515,33.69060515,14.20610615,0.7226094349,0.4817494173,160.8828696,39.76226788,155.8918207,-6.380824791e-08,0.001550684616,3.920596813,-9.312185506e-06,
24000,-7.594926597,0.4171129468,125.5108439,-234.4891561,2.431196471,-0.2422829856,0.3395322742,32.23642677,24.90178762,20.47164341,-3.239337375e-07,0.0001357568017,0.8220953339,9.973073006e-06,-20.17310123,0.09802682543,-75.19035862,-75.19035862,1.217360844,0.02505648446,-0.09477041253,52.54657046,51.60993076,-9.87710047,6.713970342e-07,-6.54995568e-05,0.1913798434,2.168509919e-06,-22.92894745,0.07137606926,110.9444646,-249.0555354,1.153724381,-0.02551429565,0.06666006286,47.5227895,47.10177366,6.311769971,-1.050649183e-06,4.18562246e-05,0.1340028088,8.427465939e-06,-6.119887932,0.4943170648,-45.64646808,-45.64646808,2.955047443,0.3455689819,-0.3534564178,93.52325439,68.29673466,-63.89174552,1.037920612e-07,-0.0004236952968,0.9355021998,2.811181583e-06,
32000,-6.202759627,0.4896232346,100.1865869,-259.8134131,2.918673685,-0.08659199074,0.4819053216,43.44121744,26.90427752,34.10717262,-1.458224646e-07,0.0001696351599,1.267723045,1.551480103e-05,-20.61781854,0.09313417527,-147.1412403,-147.1412403,1.205397916,-0.0782336956,-0.05053180659,42.76152019,42.54101925,-4.336967863,1.146790137e-06,-2.157030854e-05,0.1019479067,3.579038614e-05,-20.73326594,0.09190448438,37.19123398,-322.808766,1.202411493,0.07321317183,0.05555416924,57.87331808,57.51336753,6.444649011,-7.717397741e-07,3.205305458e-05,0.112054802,1.292597414e-05,-5.907632785,0.5065453824,-72.17044959,-72.17044959,3.053057624,0.15509727,-0.4822168197,64.33369271,39.27603216,-50.95308937,9.761119558e-08,-0.0002534198762,1.297307456,1.209160147e-05,
40000,-6.866600476,0.4535967939,68.49859257,-291.5014074,2.660300631,0.1662541484,0.422030342,66.36168395,45.47709407,48.32915281,-8.232864319e-08,0.0001922955891,1.062714182,7.531293182e-06,-14.14437406,0.1962371813,156.7622921,-203.2377079,1.48829624,-0.180317612,0.07742473843,34.80271974,34.35996557,5.533720925,-7.190231728e-07,2.201797597e-05,0.1610514107,2.581371159e-05,-13.83329647,0.2033926134,-17.03011595,-377.030116,1.510647069,0.1944740399,-0.05956847327,74.0324817,73.46730222,-9.130380715,4.357839724e-07,-3.632863058e-05,0.1242781542,2.599626535e-05,-7.008808627,0.4462308262,-102.2580223,-102.2580223,2.611613096,-0.09474127334,-0.4360573832,42.63476431,28.83751462,-31.40256164,1.267053823e-07,-0.0001249468228,1.088948269,7.194366562e-06,
48000,-12.89568944,0.2265768466,53.73908111,-306.2609189,1.585906552,0.1340118945,0.18269614,64.89093883,60.55450345,23.32350862,-1.421624866e-07,7.733441014e-05,0.3851655498,7.532765124e-06,-10.91810727,0.2845081006,55.86540524,-304.1345948,1.795279725,0.1596485538,0.2354935213,67.79450077,60.3333456,30.91895444,-1.072393307e-07,0.0001025188424,0.5124687539,2.543704823e-05,-11.02020249,0.2811835278,-120.984889,-480.984889,1.782351375,-0.1447566516,-0.2410595116,37.97741224,33.64573206,-17.61387391,1.882452434e-07,-5.840281457e-05,0.5235099024,2.549507686e-05,-12.32401076,0.2419911379,-112.1226789,-112.1226789,1.63849158,-0.09113167818,-0.2241756634,42.01850318,37.93612136,-18.06669052,1.835271367e-07,-5.990423127e-05,0.4762397913,7.295594718e-06,
56000,-10.09624616,0.3127430678,40.28397495,-319.716025,1.910119791,0.2385757992,0.2022123005,79.64876488,72.68042689,32.58038204,-8.723202055e-08,9.259515802e-05,0.4482689966,5.92885229e-06,-11.04689018,0.2803209078,-8.411128267,-368.4111283,1.7790164,0.2773057597,-0.04100398764,88.27465606,87.92709433,-7.825662023,3.631708789e-07,-2.224094275e-05,0.08900171311,2.441592971e-05,-11.16407994,0.276564226,175.686305,-544.313695,1.76458543,-0.2757807703,0.02080235182,28.39130559,28.3625386,1.277747036,-2.224268557e-06,3.631424228e-06,0.0450505173,2.453252618e-05,-9.827697734,0.3225634187,-129.2692319,-129.2692319,1.952305876,-0.2041714272,-0.2497222204,33.9117693,29.62042968,-16.51176074,1.72122925e-07,-4.69272918e-05,0.5574450105,5.621878639e-06,
64000,-12.19024167,0.2457468254,5.822077973,-354.177922,1.651629542,0.2444791883,0.02492847205,82.33074575,82.21508831,4.36244784,-5.700460102e-07,1.084851778e-05,0.05306140187,4.852462843e-06,-10.10134181,0.3125596483,-70.84802459,-430.8480246,1.909343327,0.1025429963,-0.2952600001,60.40532022,50.54329169,-33.0783672,7.517892195e-08,-8.225915077e-05,0.6544561325,2.195607452e-05,-10.27656138,0.3063175862,113.7039167,-606.2960833,1.883163765,-0.1231428462,0.280475138,39.76308827,33.80936542,20.92916623,-1.188196394e-07,5.204656658e-05,0.6190345775,2.166464694e-05,-12.37755049,0.2405040952,-163.7214087,-163.7214087,1.633325588,-0.2308623093,-0.06741523542,31.31670586,31.00086671,-4.436477141,5.605339342e-07,-1.103261355e-05,0.1431081648,4.781611492e-06,
72000,-16.94684793,0.1421207869,7.081621165,-352.9183788,1.331330529,0.1410366234,0.01752109955,66.41341384,66.37097966,2.373730446,-9.312284485e-07,5.247096307e-06,0.03576458354,3.873957155e-06,-10.41576442,0.3014475642,-131.4703807,-491.4703807,1.863063526,-0.1996284598,-0.2258741065,34.06356358,30.50508542,-15.15803838,1.458292468e-07,-3.350662134e-05,0.4969020141,2.038844015e-05,-10.65061149,0.2934062939,52.35710414,-667.6428959,1.830480915,0.1791944199,0.2323286749,70.44488582,62.79474641,31.92650562,-6.923668211e-08,7.057307202e-05,0.5084263804,2.028514383e-05,-17.21321466,0.1378285754,-157.4137098,-157.4137098,1.319724295,-0.1272574193,-0.05293642815,38.7393346,38.51568053,-4.156729317,5.317847644e-07,-9.188389138e-06,0.1079230397,3.499757919e-06,
80000,-15.17615131,0.1742578834,0.4647930703,-359.5352069,1.422063693,0.1742521497,0.001413593968,71.10229106,71.10198883,0.2073139408,-9.596251855e-06,4.124379806e-07,0.002915726327,2.174104744e-06,-9.515467391,0.3343694805,161.2275584,-558.7724416,2.00466992,-0.3165824136,0.1076035542,26.18664988,25.45024219,6.166506662,-3.226197421e-07,1.226787521e-05,0.2422965808,1.880378777e-05,-10.40531532,0.301810423,-11.29120452,-731.2912045,1.8645515,0.2959687998,-0.05909315518,91.81194433,91.04547238,-11.8387111,1.680450491e-07,-2.35523674e-05,0.1300307505,1.879662248e-05,-14.74263044,0.1831759608,-166.9056455,-166.9056455,1.448507762,-0.1784130734,-0.04149949184,34.88270521,34.75477422,-2.984759878,6.665316038e-07,-5.937991107e-06,0.08588057166,1.639520941e-06,
88000,-16.86229485,0.143511022,-12.82236563,-372.8223656,1.335114697,0.1399322587,-0.03184927685,66.25036301,66.11068822,-4.299709518,4.20628159e-07,-7.776363905e-06,0.06503803899,1.534444464e-06,-11.10358621,0.2784971079,121.9575421,-598.0424579,1.77199166,-0.1474059261,0.2362882393,37.76114928,33.60747052,17.21750041,-1.050430583e-07,3.113920793e-05,0.5123117016,1.734442334e-05,-11.47712381,0.2667741897,-53.92220548,-773.9222055,1.727672665,0.1570988304,-0.2156117478,67.6414208,61.35187265,-28.48349576,6.349567884e-08,-5.151464939e-05,0.4642644882,1.739750252e-05,-17.15340871,0.1387808568,-178.0736276,-178.0736276,1.322289299,-0.1387024247,-0.004665147282,37.81949359,37.81778224,-0.3597804652,5.02689577e-06,-6.506913576e-07,0.00951352628,1.268922162e-06,
96000,-20.31019997,0.09649170964,-15.53303694,-375.5330369,1.213593413,0.09296746597,-0.02583989744,60.24202337,60.16022383,-3.138287524,5.282702677e-07,-5.202853878e-06,0.05216548949,1.155347095e-06,-11.54376788,0.2647351487,71.66347018,-648.3365298,1.720108267,0.08328507241,0.2512932464,58.49606865,51.46100285,27.81286093,-5.960781937e-08,4.610994061e-05,0.5404648061,1.628117796e-05,-11.96853339,0.2521002813,-103.8277922,-823.8277922,1.674155305,-0.06025309982,-0.2447940273,44.62209863,39.54380917,-20.67411043,8.019034223e-08,-3.427486321e-05,0.5228153498,1.646009974e-05,-20.43906354,0.09507072873,-177.0005513,-177.0005513,1.210117479,-0.09494048548,-0.004974703954,41.32936251,41.32727957,-0.4149323044,3.995504744e-06,-6.87901326e-07,0.01004015528,1.00810276e-06,
104000,-20.28660827,0.0967541466,-7.015464117,-367.0154641,1.21423657,0.09602976988,-0.01181728316,60.62145588,60.60421038,-1.445889731,1.058404357e-06,-2.212697095e-06,0.02385790891,1.116514153e-06,-11.97918863,0.2517912121,23.55196727,-696.4480327,1.673050667,0.2308165085,0.1006109033,79.59681839,77.82107172,16.71927911,-9.153121859e-08,2.558611458e-05,0.2148425709,1.673966079e-05,-12.41945684,0.2393465424,-151.8986384,-871.8986384,1.629318226,-0.2111313362,-0.1127400828,32.75671676,31.85811867,-7.619892903,2.008343176e-07,-1.166099636e-05,0.239182137,1.660879704e-05,-19.85596144,0.1016721314,-170.638736,-170.638736,1.226358627,-0.1003180981,-0.01653788043,40.88509809,40.86228329,-1.365668327,1.120576615e-06,-2.089931393e-06,0.03342124368,1.307956832e-06,
112000,-20.20460678,0.09767190559,-19.07565586,-379.0756559,1.216488672,0.09230853194,-0.03192077807,60.15809249,60.03351309,-3.86954761,3.672331809e-07,-5.498728837e-06,0.06445645792,4.600622962e-07,-12.3613458,0.2409532063,-24.01861678,-744.0186168,1.634883668,0.2200898515,-0.09807601596,77.85899658,76.22381904,-15.87301988,8.95246329e-08,-2.255597835e-05,0.2082422539,1.634128047e-05,-12.82299854,0.2284809906,160.6715756,-919.3284244,1.592288687,-0.2156030863,0.07562322557,32.35074821,31.94654903,5.097932402,-2.787456101e-07,7.244295905e-06,0.1595769358,1.624923559e-05,-20.0451238,0.09948184021,174.860229,-185.139771,1.220943552,-0.09908183575,0.008912146558,40.98569353,40.97905365,0.7377236466,-1.926231163e-06,1.048324687e-06,0.01800245689,5.387455832e-07,
120000,-23.00371815,0.07076428007,-27.12885997,-387.12886,1.152306414,0.06297902276,-0.03226803412,56.71370667,56.59478641,-3.670786768,3.613097889e-07,-4.86853216e-06,0.06486086442,1.136354221e-07,-12.78067128,0.22959712,-71.25252986,-791.2525299,1.596044293,0.07379197569,-0.217415689,57.57832091,52.32862877,-24.02035908,5.521529415e-08,-3.185799069e-05,0.4590290182,1.604404213e-05,-13.45031924,0.212561222,114.6614332,-965.3385668,1.539879996,-0.08869232746,0.1931733526,42.12529057,39.04971192,15.8006362,-8.393910067e-08,2.095624462e-05,0.4046287519,1.596459164e-05,-23.31850396,0.0682456229,167.1614039,-192.8385961,1.146488441,-0.06653947493,0.0151645416,43.76253117,43.74222895,1.332869494,-9.950645568e-07,1.767773071e-06,0.03047100082,-5.256792735e-08,
128000,-24.40853544,0.0601967754,-12.10123608,-372.1012361,1.128105062,0.05885912566,-0.01261963136,56.25295686,56.23491784,-1.42448972,8.728725629e-07,-1.771207659e-06,0.02533105364,6.591657853e-08,-13.21344046,0.2184378922,-116.2487201,-836.2487201,1.558977694,-0.09660823274,-0.1959131494,41.49079687,38.36975801,-15.78758675,7.875795158e-08,-1.963025368e-05,0.4114591171,1.578731059e-05,-13.68270142,0.2069497609,68.90317952,-1011.09682,1.521908325,0.07449053893,0.1930786449,57.73534456,53.54225398,21.60085762,-5.756243641e-08,2.685846301e-05,0.4034357168,1.573836205e-05,-24.47346482,0.05974846594,-173.6585576,-173.6585576,1.127090388,-0.05938288443,-0.006599410451,44.39480895,44.39091472,-0.5880068465,2.114597815e-06,-7.311265327e-07,0.01324610791,-1.854467842e-07,
136000,-22.59732939,0.07415382034,-12.13902408,-372.1390241,1.160186048,0.07249575864,-0.01559339764,57.81415918,57.78575286,-1.812116893,6.457954998e-07,-2.12064236e-06,0.03135923308,8.996791528e-07,-13.50905387,0.2111287159,-161.3671878,-881.3671878,1.535267844,-0.2000625294,-0.0674560524,33.39456693,33.06653302,-4.669207035,2.506329074e-07,-5.464171911e-06,0.1412064286,1.556204459e-05,-13.99941585,0.1995396506,24.09544003,-1055.90456,1.498562236,0.1821530968,0.08146362073,72.08694407,71.07105005,12.05957504,-9.703964944e-08,1.411280132e-05,0.1696833666,1.555225385e-05,-22.50846565,0.07491636855,-175.6223645,-175.6223645,1.161966694,-0.07469780921,-0.005718354331,43.04962539,43.04677839,-0.4950921493,2.363715393e-06,-5.79385021e-07,0.01150125905,4.489143425e-07,
144000,-22.96315339,0.07109553565,-27.51977253,-387.5197725,1.153073945,0.06305117767,-0.03285002565,56.72164286,56.59837943,-3.737407438,2.957244236e-07,-4.13074214e-06,0.06603382422,6.556899225e-07,-13.86914919,0.2025548006,153.7014396,-926.2985604,1.50800933,-0.1815898851,0.08974163407,34.73926501,34.14634457,6.390906488,-1.729398893e-07,7.063502489e-06,0.1871622444,1.549430492e-05,-14.35877059,0.1914526889,-20.67784131,-1100.677841,1.473572013,0.1791194339,-0.06760444133,71.69562355,70.99971939,-9.9650531,1.109118686e-07,-1.10138018e-05,0.1403534153,1.534153805e-05,-23.25156674,0.06877358488,168.9225469,-191.0774531,1.1477054,-0.06749221943,0.01321386749,43.67853648,43.6631462,1.159401802,-9.532869958e-07,1.281420332e-06,0.02655332706,2.176292518e-07,
152000,-26.06899015,0.04972221791,-32.37497155,-392.3749715,1.104647754,0.04199349131,-0.02662415523,54.38017774,54.302866,-2.898702326,3.612209452e-07,-3.035150025e-06,0.05338028248,-5.27499569e-07,-14.21609579,0.1946234695,109.6789481,-970.3210519,1.483310507,-0.06553932031,0.183256357,44.03788178,41.15300042,15.67691259,-6.67907018e-08,1.641485613e-05,0.3809421533,1.533646713e-05,-14.72355856,0.1835786079,-64.5005119,-1144.500512,1.44971533,0.07903114745,-0.1656960561,58.33141681,55.17679683,-18.92287712,5.53336571e-08,-1.981361468e-05,0.342949903,1.52541714e-05,-26.54884731,0.04704978406,169.4064851,-190.5935149,1.098745524,-0.04624787524,0.00864963675,45.57996127,45.57311228,0.7901308321,-1.325188123e-06,8.273238659e-07,0.01733765355,-7.533742601e-07,
160000,-27.28289195,0.04323698504,-11.42519723,-371.4251972,1.090381807,0.04238020765,-0.008564746038,54.42523808,54.4172252,-0.9338852674,1.065139829e-06,-9.289528537e-07,0.01716157456,-7.011524875e-07,-14.34358588,0.1917876802,65.11022115,-1014.889779,1.47459727,0.08071844747,0.1739742697,58.49899406,55.01926693,19.87492321,-5.004891761e-08,1.976995171e-05,0.3612356965,1.523865749e-05,-15.29207952,0.1719475627,-107.7169924,-1187.716992,1.415305976,-0.05232632246,-0.1637923084,45.15149523,42.77984984,-14.44098228,6.888162971e-08,-1.436471071e-05,0.3375650532,1.521401885e-05,-26.41110399,0.04780186055,-169.3068437,-169.3068437,1.10040318,-0.04697177964,-0.008869599208,45.51389602,45.50670375,-0.809101258,1.229411504e-06,-8.048279042e-07,0.01777982564,-4.808185062e-07,
168000,-24.85349165,0.05719070068,-12.59031794,-372.5903179,1.121319764,0.05581547083,-0.01246633309,55.91052436,55.89304028,-1.398135503,6.775815716e-07,-1.32452486e-06,0.02501448296,4.600011523e-07,-14.78623255,0.1822587437,22.08329475,-1057.916705,1.4457614,0.1688879295,0.06852092321,70.20325015,69.50839949,9.852853971,-9.614989266e-08,9.334109602e-06,0.1417505516,1.51604945e-05,-15.27661175,0.1722540384,-152.0450526,-1232.045053,1.416200251,-0.1521548297,-0.08074875569,36.86994608,36.36965084,-6.053215814,1.565037297e-07,-5.734519157e-06,0.1664359067,1.518147211e-05,-24.06313418,0.06263878011,-175.6590799,-175.6590799,1.133649182,-0.06245909013,-0.004741184898,44.12139591,44.11939679,-0.4200043717,2.255573788e-06,-3.978914993e-07,0.009519721534,8.87526068e-07,
176000,-25.07720078,0.05573653436,-27.31550351,-387.3155035,1.11805293,0.04952152594,-0.02557693749,55.20657577,55.13403806,-2.829108489,3.196376007e-07,-2.558332958e-06,0.05131328283,6.428698362e-07,-15.06860236,0.1764289633,-21.93740153,-1101.937402,1.428448684,0.1636541968,-0.06591269198,69.46388996,68.82970736,-9.365008911,9.65604473e-08,-8.468678751e-06,0.1360605656,1.504207072e-05,-15.54062379,0.1670970607,164.0125576,-1275.987442,1.401240175,-0.1606340947,0.04602298678,36.18567563,36.02453502,3.411157794,-2.650975135e-07,3.084674004e-06,0.09468984935,1.508923347e-05,-24.7738083,0.05771777557,168.3791158,-191.6208842,1.122506345,-0.05653467038,0.01162637782,44.64973401,44.6375873,1.041416223,-8.683266393e-07,9.417417032e-07,0.02333047744,6.719868801e-07,
184000,-27.92222396,0.04016879485,-31.053835,-391.053835,1.083699706,0.03441192342,-0.02072080129,53.56224477,53.51616145,-2.221379762,3.893852513e-07,-1.921432443e-06,0.041508578,-6.671674209e-07,-15.3563932,0.1706790983,-65.10836137,-1145.108361,1.411611713,0.07183941977,-0.1548239399,57.54415704,54.82330384,-17.48528998,4.946858289e-08,-1.512429528e-05,0.3189390051,1.476423149e-05,-15.81585584,0.161885223,121.0215147,-1318.978485,1.386308003,-0.08342915356,0.1387314015,42.43484242,40.81056214,11.62814986,-7.438608267e-08,1.005803005e-05,0.2849299116,1.45593038e-05,-27.95678568,0.04000927816,167.78313,-192.21687,1.083353468,-0.03910321325,0.008466466385,46.23709066,46.23044218,0.7840720667,-1.103179865e-06,6.782007889e-07,0.01696008149,-9.525543137e-07,
192000,-28.62463958,0.03704827749,-11.45076434,-371.4507643,1.076947321,0.03631085615,-0.007355038476,53.76768956,53.76185721,-0.7919280371,1.046726415e-06,-6.564544879e-07,0.01473029538,-7.851261805e-07,-15.59357225,0.1660815494,-107.8997691,-1187.899769,1.398316045,-0.05104562644,-0.1580424787,45.25636492,43.03970134,-13.990092,5.925136125e-08,-1.159683488e-05,0.3250508616,1.486213412e-05,-16.0467303,0.1576389324,78.46476199,-1361.535238,1.374278771,0.03152314705,0.1544549262,53.17659548,50.69381244,16.05888186,-5.16182884e-08,1.331172098e-05,0.3167818928,1.47319774e-05,-28.0238017,0.03970177422,-170.7045597,-170.7045597,1.082686343,-0.0391804333,-0.006412840421,46.22982889,46.22601499,-0.5938161061,1.395940573e-06,-4.922331697e-07,0.01284592899,-8.917627031e-07,
