Frequency,S11_Magnitude,S11_Magnitude (linear),S11_Phase,S11_Unwrapped Phase,S11_VSWR,S11_Real,S11_Imaginary,S11_Impedance (absolute),S11_Resistance,S11_Reactance,S11_Capacitance,S11_Inductance,S11_Quality Factor,S11_Group delay,S12_Magnitude,S12_Magnitude (linear),S12_Phase,S12_Unwrapped Phase,S12_VSWR,S12_Real,S12_Imaginary,S12_Impedance (absolute),S12_Resistance,S12_Reactance,S12_Capacitance,S12_Inductance,S12_Quality Factor,S12_Group delay,S21_Magnitude,S21_Magnitude (linear),S21_Phase,S21_Unwrapped Phase,S21_VSWR,S21_Real,S21_Imaginary,S21_Impedance (absolute),S21_Resistance,S21_Reactance,S21_Capacitance,S21_Inductance,S21_Quality Factor,S21_Group delay,S22_Magnitude,S22_Magnitude (linear),S22_Phase,S22_Unwrapped Phase,S22_VSWR,S22_Real,S22_Imaginary,S22_Impedance (absolute),S22_Resistance,S22_Reactance,S22_Capacitance,S22_Inductance,S22_Quality Factor,S22_Group delay,
0,-13.27741025,0.2168350516,-135.8320233,-135.8320233,1.55374044,-0.1555358149,-0.1510829239,36.80686226,35.08542193,-11.12466975,inf,-inf,0.3170738482,-2.324924232e-05,-13.46778827,0.2121341492,-134.922531,-134.922531,1.538503221,-0.1497985431,-0.1502041735,37.22798935,35.51243994,-11.1709355,inf,-inf,0.3145640097,3.062752661e-06,-16.20098055,0.1548641782,-163.2909187,-163.2909187,1.366483527,-0.1483253382,-0.04452536067,37.10609509,36.9526072,-3.371515082,inf,-inf,0.09123889591,-2.29767303e-05,-16.51318523,0.1493966085,-162.9663336,-162.9663336,1.351272073,-0.1428429971,-0.04376328159,37.52242817,37.37296106,-3.345802974,inf,-inf,0.08952469591,-1.467495018e-05,
8000,-11.76605399,0.2580461004,-74.56187191,-74.56187191,1.695585266,0.06869125938,-0.2487354033,56.91438671,50.22637296,-26.76861733,7.431974405e-07,-0.000532544721,0.5329593947,-2.324924232e-05,-28.86334295,0.03604398933,15.10992978,15.10992978,1.074783473,0.0347978574,0.009395652595,53.60491027,53.59542385,1.008438098,-1.972790191e-05,2.006223851e-05,0.01881575003,3.062752661e-06,-18.16077099,0.1235837731,-116.4476491,-116.4476491,1.282020732,-0.05504173205,-0.1106497027,44.84300518,43.75178564,-9.832414106,2.0233452e-06,-0.0001956096634,0.2247317215,-2.29767303e-05,-20.28763693,0.09674268873,68.76900452,-291.2309955,1.214208482,0.03503332144,0.09017657241,53.60014581,52.73335234,9.600478225,-2.07222676e-06,0.0001909954457,0.1820570436,-1.467495018e-05,
16000,-7.961997582,0.399852781,124.2883808,124.2883808,2.332515651,-0.2252604672,0.3303633884,33.18458906,26.08408141,20.51432786,-4.84889586e-07,0.0002040597927,0.7864692467,-2.324924232e-05,-21.17079012,0.08738974941,76.57351495,76.57351495,1.191516037,0.02029168534,0.08500126945,52.05602748,51.30858487,8.789716481,-1.131684277e-06,8.743292665e-05,0.1713108343,3.062752661e-06,-24.84190586,0.05726703618,-90.23207481,-90.23207481,1.121491532,-0.0002319577524,-0.05726656641,49.97688539,49.65016247,-5.705299259,1.743499069e-06,-5.675166118e-05,0.1149099817,-2.29767303e-05,2.404821175,1.318988651,-71.85789087,-71.85789087,nan,0.4106999864,-1.25341796,68.12432292,-19.28058889,-65.33897967,1.522396584e-07,-0.0006499388495,-3.388847719,-1.467495018e-05,
24000,-6.903583956,0.4516695388,121.7387592,121.7387592,2.647435519,-0.2375994439,0.384124819,32.94005764,23.70154265,22.87540761,-2.898945486e-07,0.0001516972582,0.9651442502,-8.403511937e-06,-23.37988544,0.0677650445,-54.92529892,-54.92529892,1.1453819,0.03894077233,-0.05545915169,54.03891431,53.70651557,-5.984517096,1.1081021e-06,-3.968606157e-05,0.1114300012,2.243711173e-05,-21.77953346,0.08147480449,135.9276173,135.9276173,1.177403527,-0.05853652273,0.05667115028,44.48683604,44.20005184,5.043213134,-1.314926771e-06,3.34438458e-05,0.1140997108,-1.105108824e-05,-6.527471328,0.4716571621,-50.2938049,-50.2938049,2.78542086,0.3013186521,-0.3628602327,85.79839586,62.72268878,-58.54254047,1.132758488e-07,-0.000388222279,0.9333550841,1.200847106e-05,
32000,-6.387110785,0.4793408711,100.8067505,100.8067505,2.841284804,-0.08987499696,0.4708398407,43.15519149,27.32254972,33.40432352,-1.488906659e-07,0.0001661394753,1.222591737,7.87264376e-06,-20.07950662,0.09908882277,-144.008555,-144.008555,1.219974677,-0.08017323713,-0.0582309784,42.60111877,42.30947545,-4.976304621,9.994548868e-07,-2.475010871e-05,0.1176167884,3.039441128e-05,-20.1025505,0.09882628619,41.38636442,41.38636442,1.219327938,0.07414624269,0.06533735177,57.97146091,57.47319091,7.584365916,-6.557689893e-07,3.772154143e-05,0.1319635433,6.610449238e-06,-6.113632133,0.4946732127,-72.11564627,-72.11564627,2.957834911,0.1519125339,-0.4707697627,64.14503284,40.13802008,-50.03523341,9.940179415e-08,-0.0002488548352,1.24657951,5.37757874e-06,
40000,-6.111716538,0.4947823205,58.18951514,58.18951514,2.958689652,0.2608053586,0.4204641597,78.14265566,52.21181414,58.13949688,-6.843667026e-08,0.0002313297079,1.113531446,7.252861743e-06,-13.37962458,0.2142983223,162.3065558,-197.6934442,1.545495392,-0.2041612108,0.06513041494,33.10744379,32.80311938,4.478637474,-8.884116208e-07,1.781993231e-05,0.1365308409,2.595724304e-05,-13.63261141,0.2081466519,-23.12119807,-23.12119807,1.525720204,0.1914275384,-0.08173448645,73.47348828,72.42380735,-12.37520135,3.215199061e-07,-4.923936168e-05,0.1708720075,2.646331118e-05,-5.913971652,0.506175846,-104.024101,-104.024101,3.050024657,-0.1226616038,-0.4910887069,41.02551813,24.76748547,-32.70573041,1.216567717e-07,-0.0001301319665,1.320510734,6.796095709e-06,
48000,-13.67360408,0.2071666274,42.69693272,42.69693272,1.522598151,0.152257299,0.1404839009,67.5424303,64.80752736,19.02535908,-1.742793903e-07,6.308291546e-05,0.2935671188,6.569753722e-06,-10.29957002,0.3055072346,70.27806508,-289.7219349,1.879799617,0.1030951464,0.2875866151,60.51529648,51.10021281,32.41711523,-1.022832525e-07,0.000107486336,0.6343831747,2.416532154e-05,-10.27630338,0.306326685,-105.8981362,-105.8981362,1.883201583,-0.08391143565,-0.294609757,42.83587137,35.91160635,-23.35098297,1.419952207e-07,-7.742550761e-05,0.6502349892,2.39258459e-05,-13.4013395,0.2137632407,-122.4298767,-122.4298767,1.543763029,-0.1146341704,-0.1804265226,40.01102873,37.42482053,-14.15150977,2.343020663e-07,-4.692255693e-05,0.378131667,6.553115879e-06,
56000,-10.82422054,0.2876000604,46.35245902,46.35245902,1.807411805,0.198507367,0.2081072319,73.45041443,66.88693757,30.34964518,-9.364368309e-08,8.625528664e-05,0.4537454739,5.321719486e-06,-10.82754173,0.2874901131,4.14709119,-355.8529088,1.806978593,0.2867373727,0.02079048374,90.17428677,90.08179487,4.083163994,-6.96041736e-07,1.160456666e-05,0.04532729394,2.335346477e-05,-10.9377367,0.2838658608,-171.5018134,-171.5018134,1.792772877,-0.2807491672,-0.04194916032,28.11194303,27.99562757,-2.554638464,1.112506758e-06,-7.260416775e-06,0.09125133764,2.27021608e-05,-10.42564745,0.3011047644,-123.0004679,-123.0004679,1.861659228,-0.1639954706,-0.2525263645,36.66070648,32.04922648,-17.80040678,1.596622251e-07,-5.058969158e-05,0.5554083121,5.684539665e-06,
64000,-11.35666603,0.2704996445,12.12082499,12.12082499,1.741602502,0.2644693913,0.05679787574,85.78755,85.15037494,10.4363491,-2.382821773e-07,2.595307104e-05,0.122563748,3.739976591e-06,-9.988386063,0.3166508782,-52.90945284,-412.9094528,1.926761645,0.1909646691,-0.2525871609,71.82215513,62.62592745,-35.16269583,7.072256342e-08,-8.744245084e-05,0.5614718578,1.986425546e-05,-10.18409578,0.3095959075,131.0444912,-228.9555088,1.896854207,-0.2032945663,0.2334972061,33.86595354,30.08942524,15.54121289,-1.600129927e-07,3.864782584e-05,0.5165008228,2.002916406e-05,-11.36744957,0.2701640271,-156.9923315,-156.9923315,1.740341768,-0.2486731675,-0.1055947787,30.27263294,29.51635912,-6.724347542,3.698196695e-07,-1.672208047e-05,0.227817649,3.576494407e-06,
72000,-16.40741623,0.1512269484,-3.155191583,-3.155191583,1.356342483,0.1509977056,-0.008323629989,67.78382673,67.77399156,-1.154657808,1.914407286e-06,-2.552354135e-06,0.01703688659,3.475995521e-06,-9.944423244,0.3182576398,-112.3895779,-472.3895779,1.933659571,-0.1212250337,-0.2942658942,39.97314289,33.4407481,-21.89905293,1.00939768e-07,-4.840753503e-05,0.6548613344,1.882256763e-05,-10.17829338,0.3098027945,71.49637279,-288.5036272,1.897722541,0.09832046818,0.2937870947,59.94376708,50.26049158,32.66708126,-6.766705918e-08,7.221010359e-05,0.6499554666,1.890885953e-05,-16.76860947,0.1450672994,-168.6002448,-168.6002448,1.339365424,-0.1422054145,-0.02867300901,37.55906588,37.49478978,-2.196399057,1.006413344e-06,-4.855107875e-06,0.05857878041,3.159218103e-06,
80000,-16.77447038,0.1449694466,13.59509511,13.59509511,1.339097699,0.140907566,0.03407635953,66.37932263,66.21905601,4.609890834,-4.315583298e-07,9.171086417e-06,0.06961577394,2.044708636e-06,-10.82170255,0.2876834462,-157.498879,-517.498879,1.807740448,-0.2657826938,-0.1100968887,29.21644737,28.40930456,-6.819986178,2.917068652e-07,-1.35679314e-05,0.2400617081,1.815830931e-05,-10.32892053,0.3044766365,24.18280832,-335.8171917,1.875532448,0.2777567025,0.1247286509,87.58152461,84.44773336,23.21860854,-8.568286015e-08,4.619195401e-05,0.2749464979,1.8097493e-05,-16.97111642,0.1417242537,-151.1315077,-151.1315077,1.330253428,-0.1241122031,-0.06842459459,39.00559584,38.63070166,-5.394941726,3.687596437e-07,-1.073289554e-05,0.1396542515,1.88542322e-06,
88000,-16.64015151,0.147228682,-4.439011542,-4.439011542,1.345294639,0.1467870379,-0.01139518837,67.20135729,67.18313054,-1.565053399,1.155602039e-06,-2.830522552e-06,0.02329533301,1.215660041e-06,-10.68747434,0.2921637183,145.3968305,-574.6031695,1.82551213,-0.2404814042,0.1659166433,31.05921731,29.19706487,10.59275143,-1.707374058e-07,1.915782671e-05,0.362801928,1.735626042e-05,-11.02296048,0.2810942593,-30.35854914,-390.3585491,1.782005883,0.2425504839,-0.1420677492,81.14147849,77.53542981,-23.92063242,7.560748676e-08,-4.326235104e-05,0.3085122824,1.72062645e-05,-16.48199379,0.1499340632,-171.4236205,-171.4236205,1.352758667,-0.1482574921,-0.02235932353,37.09422558,37.05547114,-1.695178527,1.066895828e-06,-3.065864113e-06,0.04574705097,1.154533714e-06,
96000,-19.4825879,0.106137928,-16.6810694,-16.6810694,1.237481668,0.1016713666,-0.03046625947,61.30603278,61.18994754,-3.770938236,4.396423084e-07,-6.251702711e-06,0.0616267604,1.541133415e-06,-11.01125636,0.2814732853,96.71768889,-623.2823111,1.783473403,-0.03292599969,0.2795408537,47.03675771,40.20563739,24.41235954,-6.791084606e-08,4.04723718e-05,0.6071874773,1.701301973e-05,-11.4382385,0.2679711717,-78.63194701,-438.631947,1.732132838,0.05281999316,-0.2627139075,55.19687875,48.03465395,-27.19131192,6.097035684e-08,-4.507949688e-05,0.5660769816,1.677786863e-05,-19.59923568,0.1047220695,177.269262,-182.730738,1.23394315,-0.1046031534,0.004989203158,40.5304661,40.52840348,0.4088930899,-4.054517015e-06,6.778891298e-07,0.01008905002,1.546835029e-06,
104000,-21.29406649,0.08615821158,-5.522613918,-5.522613918,1.188562643,0.0857582903,-0.00829174698,59.37955388,59.37126798,-0.9919465185,1.542760585e-06,-1.518011459e-06,0.01670751783,9.7849216e-07,-11.42073622,0.2685116845,50.5719881,-669.4280119,1.734151671,0.1705339798,0.2074046442,69.5182612,63.46529951,28.37154205,-5.393911929e-08,4.341799193e-05,0.4470402295,1.601764698e-05,-11.87038335,0.2549651557,-124.8664584,-484.8664584,1.684438205,-0.1457548211,-0.2091955132,37.75607902,34.46299814,-15.42151943,9.923380104e-08,-2.360010623e-05,0.447480494,1.601909269e-05,-21.04447177,0.08866993935,-169.4259151,-169.4259151,1.194594567,-0.08716418639,-0.01627153207,41.98439364,41.96182629,-1.37638806,1.11184922e-06,-2.106336186e-06,0.032800957,9.806673091e-07,
112000,-20.2088091,0.09762466242,-8.055424872,-8.055424872,1.21637263,0.09666139762,-0.01368023845,60.69822401,60.67507871,-1.676073029,8.478307647e-07,-2.381743817e-06,0.02762374709,9.034542237e-07,-11.74167714,0.2587713211,4.926058119,-715.0739419,1.698222636,0.2578155093,0.02222070683,84.71265144,84.61672072,4.03037078,-3.525795405e-07,5.727262787e-06,0.04763090257,1.565485059e-05,-12.21735721,0.2449808512,-170.1645453,-530.1645453,1.648939438,-0.2413802167,-0.04184744238,30.58457718,30.46405802,-2.712476795,5.238851371e-07,-3.854500803e-06,0.08903859076,1.562067237e-05,-19.80745821,0.102241471,-174.4047848,-174.4047848,1.227770537,-0.1017543462,-0.009968521697,40.76517612,40.75690478,-0.8211559841,1.730519298e-06,-1.166884231e-06,0.02014765323,9.740241943e-07,
120000,-21.32537322,0.0858482287,-22.84212091,-22.84212091,1.187820516,0.07911584071,-0.03332569759,58.58087751,58.44926294,-3.924649267,3.379387819e-07,-5.205227756e-06,0.06714625761,2.924426955e-07,-12.16499642,0.2464621194,-39.36147064,-759.3614706,1.654146595,0.1905547095,-0.1563089217,72.82708003,69.10014848,-22.99897967,5.76673927e-08,-3.050334417e-05,0.3328354595,1.540275937e-05,-12.5050882,0.2369984961,144.7328152,-575.2671848,1.621226813,-0.1935017864,0.1368405855,34.04689367,32.69990702,9.481932767,-1.398756166e-07,1.257580392e-05,0.2899681874,1.53194252e-05,-21.2300762,0.08679529628,170.2917936,-189.7082064,1.190089464,-0.08555232918,0.01463633927,42.12057098,42.10226158,1.241800982,-1.068038447e-06,1.646989705e-06,0.02949487593,3.32778521e-07,
128000,-24.65146553,0.0585364962,-21.03105672,-21.03105672,1.12435213,0.05463714831,-0.02100722283,55.77678494,55.72728284,-2.34940117,5.292403905e-07,-2.9212407e-06,0.04215890406,-5.168312654e-07,-12.49737957,0.2372089229,-83.74543031,-803.7454303,1.621949915,0.02584300048,-0.2357969729,52.50953495,46.97137014,-23.47214622,5.297334045e-08,-2.91852195e-05,0.4997117639,1.517747405e-05,-12.99238211,0.2240685453,101.6307341,-618.3692659,1.577547267,-0.04517296861,0.2194678015,45.86870276,41.63741528,19.24223327,-6.461817479e-08,2.392575423e-05,0.4621380348,1.506963021e-05,-24.7221277,0.05806221708,173.3844592,-186.6155408,1.123282489,-0.05767561293,0.006689149826,44.54717834,44.54316536,0.5979275596,-2.079512765e-06,7.434619276e-07,0.01342355342,-5.53678363e-07,
136000,-24.39082817,0.06031961923,-3.245972807,-3.245972807,1.128383268,0.06022284563,-0.003415454438,56.40812506,56.40679944,-0.386716759,3.026134521e-06,-4.525579689e-07,0.0068558536,-2.164505997e-07,-12.80751835,0.2288885576,-126.8920027,-846.8920027,1.593658828,-0.1374037695,-0.1830578486,38.27149658,35.69966115,-13.79281132,8.48454247e-08,-1.61411331e-05,0.3863569255,1.501439293e-05,-13.3029443,0.216198554,58.63617904,-661.363821,1.551666637,0.1125249822,0.1846075381,62.20474603,58.00581964,22.46676026,-5.20883706e-08,2.629188199e-05,0.3873190725,1.487403691e-05,-24.00887287,0.06303131333,-168.1125478,-168.1125478,1.134543052,-0.06167955138,-0.01298381306,44.1913055,44.17629456,-1.151729259,1.016086832e-06,-1.347819152e-06,0.02607120563,-1.441407525e-07,
144000,-22.78828279,0.07254138792,-10.4111287,-10.4111287,1.156430458,0.07134709477,-0.01310896751,57.68143046,57.66140605,-1.519760361,7.272479851e-07,-1.679703984e-06,0.02635663028,7.248388835e-07,-13.06919459,0.2220957616,-169.8643022,-889.8643022,1.571010545,-0.2186296747,-0.03908442995,32.08296878,31.97506069,-2.629140406,4.203817559e-07,-2.905838136e-06,0.08222471978,1.474104188e-05,-13.55899809,0.2099182009,15.88109778,-704.1189022,1.531383462,0.201905967,0.05744241947,75.18996324,74.65277619,8.971821317,-1.23190445e-07,9.916039661e-06,0.1201806788,1.464336669e-05,-22.40481121,0.07581575065,-177.2296456,-177.2296456,1.16407064,-0.07572714321,-0.003664400165,42.96046465,42.95929759,-0.3166602866,3.490310302e-06,-3.499864576e-07,0.007371170022,7.842729286e-07,
152000,-24.05988934,0.06266218478,-25.03519629,-25.03519629,1.133702458,0.05677494754,-0.02651706495,56.01473824,55.93551031,-2.978185111,3.515805616e-07,-3.118374223e-06,0.05324319193,-4.176555663e-08,-13.38490091,0.2141681841,147.4907072,-932.5092928,1.545073844,-0.1806089485,0.115101776,34.87739501,33.90453928,8.180152705,-1.280015217e-07,8.565208804e-06,0.2412701331,1.462404423e-05,-13.88447141,0.2021978018,-26.57849811,-746.5784981,1.506887051,0.1808299846,-0.09046804798,71.84916637,70.60381219,-13.31932476,7.861299375e-08,-1.394629193e-05,0.1886488044,1.455883384e-05,-23.84701569,0.06421688212,167.6744729,-192.3255271,1.137247362,-0.06273671931,0.01370809977,44.09773058,44.08102955,1.213538703,-8.628253815e-07,1.270662389e-06,0.02752972685,3.026802477e-08,
160000,-27.81934731,0.04064738718,-20.57412491,-20.57412491,1.084739201,0.0380548291,-0.01428425939,53.95518876,53.93311133,-1.543339025,6.445235806e-07,-1.535187717e-06,0.0286157981,-1.441967546e-06,-14.09697278,0.1973110287,106.7922117,-973.2077883,1.491625114,-0.05700348475,0.1888974451,44.78371266,41.67907763,16.38399852,-6.071279809e-08,1.62974647e-05,0.3930988749,1.457249251e-05,-14.44361536,0.1895916613,-66.62640772,-786.6264077,1.467891684,0.07521572413,-0.1740333097,57.8740209,54.43479675,-19.65337625,5.061310492e-08,-1.954957487e-05,0.3610443581,1.454535273e-05,-27.29299648,0.04318671555,174.1974187,-185.8025813,1.090271981,-0.04296543352,0.004366225257,45.88053014,45.87877437,0.4013827427,-2.478229103e-06,3.992627973e-07,0.008748767774,-1.310806531e-06,
168000,-26.9852168,0.04474444856,2.436949311,2.436949311,1.093680583,0.04470398245,0.001902532451,54.679577,54.67917958,0.2084752081,-4.544189499e-06,1.97499166e-07,0.003812698174,-1.070984972e-06,-13.92900096,0.2011638561,64.19350338,-1015.806497,1.503642349,0.08757330147,0.1811016673,59.26241112,55.44381136,20.92885935,-4.526528828e-08,1.982697273e-05,0.3774787273,1.459028078e-05,-14.43889741,0.1896946704,-109.7572755,-829.7572755,1.468205412,-0.06412367082,-0.1785279329,44.14995873,41.40138825,-15.33440272,6.177944255e-08,-1.452705948e-05,0.370383781,1.458656471e-05,-26.32559381,0.04827478071,-164.2619395,-164.2619395,1.101446888,-0.04646504509,-0.01309404589,45.5605381,45.54485006,-1.195518815,7.924181867e-07,-1.132575768e-06,0.02624926449,-7.686225639e-07,
176000,-24.72299996,0.05805638659,-3.382868845,-3.382868845,1.123269346,0.05795522424,-0.003425785579,56.15198994,56.15066305,-0.3860213655,2.342589116e-06,-3.490750481e-07,0.006874742781,5.507645466e-07,-14.16055722,0.1958719013,21.94040745,-1058.059593,1.487165917,0.1816854824,0.07318597674,72.05315652,71.2327077,10.84244986,-8.340268677e-08,9.804713013e-06,0.1522116765,1.460903895e-05,-14.65615764,0.1850086857,-151.9825928,-871.9825928,1.454013883,-0.1633265781,-0.08690594157,36.05339176,35.48332013,-6.386004209,1.41604894e-07,-5.77479623e-06,0.1799720033,1.46177155e-05,-24.20827682,0.0616007726,-172.3858254,-172.3858254,1.131289052,-0.06105762568,-0.008162201359,44.24595079,44.24001152,-0.7249426718,1.247394428e-06,-6.555580095e-07,0.01638658415,8.757653845e-07,
184000,-25.38610087,0.05378918404,-18.20864072,-18.20864072,1.113693869,0.0510956873,-0.0168079463,55.38309703,55.35164974,-1.866094239,4.635202761e-07,-1.61412023e-06,0.03371343488,4.016807565e-07,-14.40785189,0.1903738993,-20.18343383,-1100.183434,1.470276092,0.1786835752,-0.06568410379,71.63835468,70.98196852,-9.675433168,8.939884156e-08,-8.368983778e-06,0.1363083241,1.436194636e-05,-14.88563597,0.1801848205,166.0530626,-913.9469374,1.439574248,-0.1748728563,0.04342871939,35.14019893,34.99945135,3.141971747,-2.752960836e-07,2.71771921e-06,0.08977202858,1.424759774e-05,-25.11676229,0.05548324911,172.0342599,-187.9657401,1.117484945,-0.05494789733,0.00768892126,44.79170402,44.78637609,0.6908445281,-1.252050905e-06,5.975615302e-07,0.01542532771,3.887303369e-07,
192000,-28.56015146,0.03732436494,-18.18233936,-18.18233936,1.077542972,0.03546069518,-0.01164677276,53.67592097,53.66132428,-1.251706263,6.622416298e-07,-1.03757937e-06,0.02332604123,-1.406394021e-06,-14.64566133,0.1852323913,-61.38948059,-1141.389481,1.454687666,0.0886990948,-0.1626146037,59.45671143,56.34697637,-18.97679605,4.368134605e-08,-1.573047342e-05,0.3367846383,1.429039289e-05,-15.10382989,0.175714866,124.9733201,-955.0266799,1.426344862,-0.100718871,0.1439841073,41.02053931,39.3213383,11.68404894,-7.094561136e-08,9.685282002e-06,0.2971427079,1.420144064e-05,-28.53456467,0.03743447671,173.4382975,-186.5617025,1.077780631,-0.03718925729,0.00427775512,46.4144827,46.41277933,0.3976422408,-2.084617553e-06,3.296183761e-07,0.008567516245,-1.523243785e-06,
