Frequency,S11_Magnitude,S11_Magnitude (linear),S11_Phase,S11_Unwrapped Phase,S11_VSWR,S11_Real,S11_Imaginary,S11_Impedance (absolute),S11_Resistance,S11_Reactance,S11_Capacitance,S11_Inductance,S11_Quality Factor,S11_Group delay,S12_Magnitude,S12_Magnitude (linear),S12_Phase,S12_Unwrapped Phase,S12_VSWR,S12_Real,S12_Imaginary,S12_Impedance (absolute),S12_Resistance,S12_Reactance,S12_Capacitance,S12_Inductance,S12_Quality Factor,S12_Group delay,S21_Magnitude,S21_Magnitude (linear),S21_Phase,S21_Unwrapped Phase,S21_VSWR,S21_Real,S21_Imaginary,S21_Impedance (absolute),S21_Resistance,S21_Reactance,S21_Capacitance,S21_Inductance,S21_Quality Factor,S21_Group delay,S22_Magnitude,S22_Magnitude (linear),S22_Phase,S22_Unwrapped Phase,S22_VSWR,S22_Real,S22_Imaginary,S22_Impedance (absolute),S22_Resistance,S22_Reactance,S22_Capacitance,S22_Inductance,S22_Quality Factor,S22_Group delay,
0,-13.51082975,0.2110855539,-134.2854663,-134.2854663,1.535129138,-0.1473870514,-0.1511097884,37.41052529,35.66865609,-11.2824809,inf,-inf,0.3163135968,1.91304823e-05,-13.63732439,0.2080337417,-133.7564104,-133.7564104,1.525360113,-0.1438748608,-0.1502599817,37.67053782,35.93921899,-11.28901938,inf,-inf,0.3141142101,-1.770996874e-06,-16.22411493,0.1544522551,-173.1588834,-173.1588834,1.365330653,-0.1533525988,-0.01839781358,36.70774885,36.68169755,-1.382711336,inf,-inf,0.03769485678,-1.666729449e-05,-16.43065586,0.1508228721,-173.0657878,-173.0657878,1.35522123,-0.1497196676,-0.0182087862,36.98156442,36.95591298,-1.377171908,inf,-inf,0.03726526547,-1.048252004e-05,
8000,-13.61422918,0.2085876259,60.98034413,60.98034413,1.527127532,0.1011878678,0.1824001455,60.85223721,56.85730626,21.68505243,-9.174230937e-07,0.0004314104107,0.3813942984,1.91304823e-05,-33.31946356,0.02157877676,-166.1965705,-166.1965705,1.04410938,-0.02095558169,-0.00514851455,47.94750744,47.94496336,-0.4939206739,4.027846765e-05,-9.826239594e-06,0.01030182608,-1.770996874e-06,-20.96753042,0.08945888464,48.75637938,48.75637938,1.19649609,0.05897685218,0.06726531757,56.23721756,55.72709473,7.557483171,-2.632406508e-06,0.0001503513505,0.135615955,-1.666729449e-05,-15.47502361,0.1683638388,-150.804868,-150.804868,1.404897831,-0.14697549,-0.08212543801,37.26236479,36.74111609,-6.210814629,3.20318172e-06,-0.0001235602311,0.1690426228,-1.048252004e-05,
16000,2.585180585,1.346663314,-116.1713374,-116.1713374,nan,-0.5939551988,-1.208602211,31.86904707,-10.1651865,-30.2043895,3.293290846e-07,-0.0003004486182,-2.971356159,1.91304823e-05,-20.66453213,0.09263463477,146.0168996,-213.9831004,1.204183757,-0.07681286822,0.05177797636,42.88446704,42.65242334,4.455142697,-2.232741939e-06,4.43161239e-05,0.104452276,-1.770996874e-06,-15.69975295,0.1640636436,-3.489630298,-3.489630298,1.392526638,0.1637594418,-0.009986207919,69.58041568,69.56576421,-1.427829074,6.966648969e-06,-1.420287843e-05,0.0205248816,-1.666729449e-05,-1.736582466,0.8187868831,31.96156942,31.96156942,10.03672866,0.6946615293,0.4334251028,164.9643362,58.6270106,154.1950253,-6.451040765e-08,0.00153380628,2.630102128,-1.048252004e-05,
24000,-7.002212336,0.4465698343,129.4249135,-230.5750865,2.613825418,-0.2836015216,0.3449562201,29.91108363,22.65829414,19.5262549,-3.39617402e-07,0.0001294874995,0.8617707399,2.949244384e-05,-21.97841763,0.07963044054,-83.54148249,-83.54148249,1.173040144,0.008957137106,-0.07912507033,50.89813496,50.26467617,-8.005152805,8.283984233e-07,-5.30858183e-05,0.1592600095,3.930506814e-07,-23.77107805,0.06478076872,116.3990222,116.3990222,1.138536006,-0.02880281848,0.05802538792,47.20949579,46.89213613,5.464802083,-1.213485111e-06,3.623959436e-05,0.1165398409,3.257457114e-06,-6.58826672,0.4683674053,-46.59384274,-46.59384274,2.761996574,0.3218459634,-0.3402693084,89.94858175,67.80131867,-59.1077706,1.121926253e-07,-0.0003919705778,0.871779071,3.561966765e-07,
32000,-6.969994789,0.4482293189,96.01330386,-263.9866961,2.624694223,-0.04695622765,0.4457629808,46.23152382,30.8571561,34.42658439,-1.444695156e-07,0.0001712237837,1.115675867,1.516043167e-05,-21.006109,0.08906243203,-149.5815994,-149.5815994,1.195540145,-0.07680308727,-0.0450932654,42.88101294,42.70491514,-3.882202226,1.281126454e-06,-1.930848982e-05,0.09090762067,1.037829636e-05,-21.88692455,0.08047366345,33.02883583,33.02883583,1.175032863,0.06746882617,0.04386305968,57.22005682,56.99829389,5.032831805,-9.882293239e-07,2.503125186e-05,0.08829793773,1.271403326e-05,-5.957738977,0.5036316921,-74.22301181,-74.22301181,3.029266107,0.1369343183,-0.4846585125,62.43082625,38.08803912,-49.46624447,1.005451702e-07,-0.0002460249164,1.298734343,1.186901971e-05,
40000,-7.054181886,0.4439058881,70.19683221,-289.8031678,2.596513535,0.150390849,0.4176541991,64.63715863,44.79380655,46.59911126,-8.538518159e-08,0.0001854119725,1.040302552,7.498641494e-06,-14.48521878,0.188685732,155.9427492,-204.0572508,1.465135989,-0.1722962222,0.0769176006,35.37870576,34.93701503,5.572952701,-7.139614834e-07,2.217407425e-05,0.1595142772,2.504766527e-05,-14.24069919,0.1940729647,-16.41023613,-16.41023613,1.481614231,0.1861671149,-0.054828104,72.7881624,72.32016894,-8.240737215,4.828298092e-07,-3.278885156e-05,0.1139479807,2.613563397e-05,-7.151555047,0.4389572715,-102.8418095,-102.8418095,2.564790876,-0.09756265098,-0.427977821,42.39106287,29.08601389,-30.83838528,1.290234084e-07,-0.0001227020364,1.060247905,6.922684373e-06,
48000,-12.77631168,0.2297123877,55.13248712,-304.8675129,1.596432771,0.13132215,0.1884735366,64.51392027,59.94203701,23.85368124,-1.39002779e-07,7.909231833e-05,0.3979457894,7.171742126e-06,-10.94779685,0.2835372725,56.82731626,-303.1726837,1.791492039,0.1551414525,0.2373278632,67.19028956,59.7061486,30.81737872,-1.075927973e-07,0.0001021820449,0.5161508395,2.516268024e-05,-11.06533053,0.2797264113,-120.1670801,-120.1670801,1.776722667,-0.1405690351,-0.2418412941,38.28755013,33.90331579,-17.79049391,1.863763872e-07,-5.898843845e-05,0.5247420051,2.516473086e-05,-12.22888944,0.2446558069,-110.828331,-110.828331,1.647799531,-0.08699205998,-0.2286675433,42.36683785,38.09825793,-18.53298929,1.789095072e-07,-6.145035116e-05,0.4864524075,7.028684576e-06,
56000,-10.00467714,0.3160575308,41.88488435,-318.1151156,1.924222563,0.2353009462,0.2110114392,78.98827016,71.51765994,33.53164384,-8.475732858e-08,9.529869407e-05,0.4688582354,5.920262811e-06,-11.09949925,0.2786281795,-7.432320196,-367.4323202,1.772495325,0.2762872435,-0.03604194025,88.10233285,87.83451284,-6.864357761,4.140303659e-07,-1.950886551e-05,0.07815103129,2.434806684e-05,-11.22933162,0.2744943558,176.643851,-183.356149,1.756698057,-0.2740235775,0.01606954712,28.49619534,28.47899752,0.9898733199,-2.871127545e-06,2.813271998e-06,0.03475801138,2.457421709e-05,-9.743595988,0.3257018314,-127.9778381,-127.9778381,1.966046911,-0.2004227809,-0.2567340879,34.20512138,29.66030112,-17.03692655,1.668172101e-07,-4.841984063e-05,0.5744016718,5.483936482e-06,
64000,-12.10216846,0.2482513262,6.896191182,-353.1038088,1.660463623,0.2464553088,0.02980774617,82.66512679,82.49880507,5.241216341,-4.744692499e-07,1.303383576e-05,0.06353081522,4.398724239e-06,-10.08868091,0.3130155799,-70.23666017,-430.2366602,1.911274174,0.1058417851,-0.2945781217,60.77996936,50.88717981,-33.23702163,7.482006101e-08,-8.265369196e-05,0.6531511818,2.143322604e-05,-10.27986527,0.306201093,114.1296679,-245.8703321,1.882679664,-0.1251759478,0.2794460439,39.60692186,33.71153452,20.79039922,-1.196127097e-07,5.170148132e-05,0.6167147096,2.107991729e-05,-12.28410455,0.2431054935,-162.8680554,-162.8680554,1.64237616,-0.232318642,-0.07161235616,31.23038445,30.87473003,-4.699782811,5.291299802e-07,-1.168740103e-05,0.1522210172,4.391432372e-06,
72000,-16.87761337,0.1432581476,9.063195697,-350.9368043,1.334425468,0.1414695979,0.02256656253,66.46814391,66.39769166,3.05952565,-7.224928218e-07,6.763036539e-06,0.04607879543,3.651705216e-06,-10.38940112,0.3023639038,-131.137425,-491.137425,1.866824138,-0.1989153327,-0.2277204882,34.1222738,30.50439032,-15.29090384,1.445621098e-07,-3.380031848e-05,0.5012689544,2.017301078e-05,-10.64281426,0.2936697998,52.57266377,-307.4273362,1.831536864,0.1784792279,0.2332104554,70.33720929,62.64765721,31.97802458,-6.912513671e-08,7.068695392e-05,0.510442465,2.004573209e-05,-17.10295391,0.1395893562,-155.7906326,-155.7906326,1.324471477,-0.127312903,-0.05724170777,38.73978195,38.47839066,-4.49267827,4.920195011e-07,-9.930999366e-06,0.1167584765,3.317821709e-06,
80000,-15.89622919,0.160394156,8.201702407,-351.7982976,1.382070128,0.1587536434,0.02288156444,68.85920222,68.78336481,3.230860015,-6.157607509e-07,6.427591772e-06,0.04697153191,2.188566611e-06,-10.71913938,0.2911005534,170.0414137,-549.9585863,1.821274596,-0.2867145441,0.0503418549,27.76501996,27.59853421,3.035991291,-6.552840895e-07,6.039912763e-06,0.1100055267,1.885949785e-05,-11.51422678,0.2656370577,-1.682295427,-361.6822954,1.723448971,0.2655225626,-0.007798406872,86.14800105,86.135874,-1.445439821,1.376353938e-06,-2.875611155e-06,0.01678092708,1.887741571e-05,-15.53952488,0.1671182025,-160.1585599,-160.1585599,1.401301128,-0.1571973182,-0.05672298271,36.45429973,36.20855086,-4.225732348,4.707910073e-07,-8.406827391e-06,0.1167053706,1.640449259e-06,
88000,-16.66069337,0.1468809022,-11.35242638,-371.3524264,1.344338563,0.1440071707,-0.02891252696,66.80664844,66.69028142,-3.941400899,4.588670234e-07,-7.128334498e-06,0.05910007898,1.825502917e-06,-11.07636108,0.2793714012,121.9372876,-598.0627124,1.775354743,-0.1477848802,0.2370822831,37.7375095,33.55924013,17.25969366,-1.047862688e-07,3.121551776e-05,0.5143052583,1.769802609e-05,-11.44329309,0.2678152762,-54.10870942,-414.1087094,1.731551117,0.157006496,-0.2169653944,67.61740172,61.25512997,-28.63428134,6.316131624e-08,-5.178735701e-05,0.4674593189,1.780045569e-05,-16.99099415,0.1414002875,-177.1092185,-177.1092185,1.329374179,-0.1412203534,-0.007131135029,37.62605903,37.62207512,-0.547523401,3.303199271e-06,-9.902392696e-07,0.01455324831,1.516449967e-06,
96000,-20.10425641,0.09880687856,-14.41135697,-374.411357,1.219280144,0.09569780627,-0.02459124086,60.57536561,60.50078845,-3.004915306,5.517173769e-07,-4.981740881e-06,0.04966737432,1.618471253e-06,-11.54824529,0.2645987179,71.64921446,-648.3507855,1.719603635,0.08330464082,0.2511430236,58.49889124,51.47134295,27.79966062,-5.963612337e-08,4.60880563e-05,0.5400997726,1.694196717e-05,-11.92957322,0.2532336059,-104.3644318,-464.3644318,1.678213717,-0.06282436054,-0.245316854,44.40681022,39.32978798,-20.6187432,8.040567626e-08,-3.418307188e-05,0.5242525897,1.718663403e-05,-20.28671608,0.0967529456,-175.8312318,-175.8312318,1.214233626,-0.09649696159,-0.007033412119,41.19992387,41.19577087,-0.5849696465,2.83410259e-06,-9.698001125e-07,0.01419974998,1.441511741e-06,
104000,-20.10889372,0.09875414066,-5.917516612,-365.9175166,1.219150279,0.09822791388,-0.0101812196,60.89150081,60.87863133,-1.251845906,1.22246355e-06,-1.915744846e-06,0.02056297717,1.092166774e-06,-11.96167262,0.2522994878,23.20709897,-696.792901,1.674867768,0.2318850589,0.09942007343,79.78403614,78.04371697,16.57319115,-9.233804024e-08,2.536255091e-05,0.2123577886,1.676938537e-05,-12.40145112,0.2398432189,-152.41283,-512.41283,1.631036188,-0.212574796,-0.1110708141,32.65385972,31.78294758,-7.491248042,2.042831825e-07,-1.14641265e-05,0.2357002296,1.667655305e-05,-19.64965182,0.1041159842,-169.7911762,-169.7911762,1.232431838,-0.1024676537,-0.01845313272,40.70850936,40.68020396,-1.51780765,1.008254235e-06,-2.322755675e-06,0.03731071879,1.322595961e-06,
112000,-20.08983298,0.0989710895,-17.82173852,-377.8217385,1.219684604,0.09422179755,-0.03029074815,60.39168279,60.27897342,-3.687914548,3.853197408e-07,-5.240623482e-06,0.06118077895,3.678769191e-07,-12.35105617,0.2412388177,-24.55781922,-744.5578192,1.635875486,0.2194169154,-0.10026158,77.73433,76.03011819,-16.18787165,8.778339171e-08,-2.300339099e-05,0.2129139351,1.637999068e-05,-12.82252469,0.2284934555,159.9822348,-560.0177652,1.59233057,-0.2146893726,0.07821593491,32.41837327,31.98563764,5.279196016,-2.691747518e-07,7.501876264e-06,0.1650489534,1.629040249e-05,-19.86792222,0.1015322216,175.4246499,-184.5753501,1.226011937,-0.1012086678,0.008099233544,40.80986375,40.80439868,0.6678534715,-2.127751577e-06,9.490373327e-07,0.01636719308,5.60712212e-07,
120000,-22.89294801,0.07167250762,-25.37443715,-385.3744372,1.154412119,0.06475801533,-0.03071396751,56.91719241,56.80900442,-3.507678595,3.781108093e-07,-4.652203227e-06,0.06174511649,6.567568023e-08,-12.76159618,0.2301018927,-71.43834499,-791.438345,1.597746352,0.0732471729,-0.2181323742,57.5157724,52.2395317,-24.06440114,5.511424052e-08,-3.191640328e-05,0.4606549935,1.607622051e-05,-13.4063203,0.2136406964,113.5755934,-606.4244066,1.543366615,-0.085447444,0.195808788,42.39831978,39.22435028,16.09558527,-8.240092982e-08,2.134743298e-05,0.4103467656,1.600135994e-05,-23.15305613,0.06955801714,168.2174589,-191.7825411,1.149516076,-0.06809240581,0.0142035918,43.62606768,43.60830454,1.244811909,-1.065455097e-06,1.650983071e-06,0.0285452948,-3.63905997e-08,
128000,-24.13565858,0.06211794376,-9.98032434,-369.9803243,1.132464297,0.06117793321,-0.01076565956,56.51564928,56.50245196,-1.221284821,1.018106482e-06,-1.518543095e-06,0.02161472253,7.0201017e-08,-13.21601674,0.218373112,-116.8999294,-836.8999294,1.558765609,-0.09879933544,-0.1947447236,41.31117246,38.23674145,-15.63856044,7.950846865e-08,-1.944495467e-05,0.4089930222,1.583063372e-05,-13.69369333,0.2066880337,68.05956063,-651.9404394,1.521076304,0.07722744531,0.1917181915,58.04669613,53.88482041,21.58344415,-5.760887764e-08,2.683681113e-05,0.4005477606,1.575876254e-05,-24.25459935,0.06127312531,-172.9098051,-172.9098051,1.130545161,-0.06080457435,-0.007563043268,44.26838032,44.26327869,-0.6720533382,1.850147782e-06,-8.356297718e-07,0.01518308987,-1.765868241e-07,
136000,-22.33644613,0.07641483745,-10.7839535,-370.7839535,1.165474372,0.07506532781,-0.01429769014,58.11394029,58.08991551,-1.670859755,7.003920774e-07,-1.955335214e-06,0.02876333594,8.843516895e-07,-13.52304562,0.210788891,-162.1194214,-882.1194214,1.534176188,-0.2006074783,-0.0647193651,33.35167459,33.04984207,-4.476844554,2.614021819e-07,-5.239058384e-06,0.135457366,1.561616857e-05,-14.01730517,0.1991291049,23.12892395,-696.8710761,1.497281412,0.1831237688,0.078218193,72.24521471,71.30536566,11.6153294,-1.00751076e-07,1.359291977e-05,0.162895587,1.556036386e-05,-22.34151762,0.07637023357,-175.099924,-175.099924,1.165369797,-0.07609111433,-0.006523411252,42.92921512,42.9255189,-0.5633271825,2.077401856e-06,-6.592375418e-07,0.01312336337,4.209137258e-07,
144000,-22.76071086,0.07277202446,-26.12787499,-386.127875,1.156966844,0.06533570121,-0.03204705432,56.98257996,56.86465368,-3.664093478,3.01641502e-07,-4.049712424e-06,0.06443534324,7.465262245e-07,-13.86846793,0.2025706881,152.8215934,-927.1784066,1.508059298,-0.1802045708,0.09252673328,34.84466644,34.21346479,6.602242517,-1.674041294e-07,7.297080084e-06,0.1929720523,1.551564236e-05,-14.38239613,0.190932647,-21.72061104,-741.720611,1.471982082,0.177376334,-0.07066053932,71.42801006,70.67192596,-10.36530278,1.066290763e-07,-1.145617482e-05,0.1466678973,1.544869219e-05,-23.11782443,0.06984073137,169.6261916,-190.3738084,1.150169404,-0.068699107,0.01257618604,43.57266298,43.55875126,1.100976181,-1.003875178e-06,1.216845844e-06,0.02527565988,2.194179462e-07,
152000,-25.83652344,0.05107093723,-30.03532615,-390.0353262,1.107639104,0.04421297654,-0.02556273332,54.62265227,54.55103282,-2.796240276,3.74457089e-07,-2.927864882e-06,0.05125916287,-4.635952752e-07,-14.22930432,0.1943277328,108.8280662,-971.1719338,1.482398962,-0.0627152668,0.1839295056,44.28132357,41.36184061,15.81245579,-6.621817684e-08,1.655677962e-05,0.3822957479,1.535711812e-05,-14.75413482,0.1829335065,-65.60356033,-785.6035603,1.447781198,0.07556028966,-0.166599251,57.9340879,54.77088501,-18.88143788,5.545509831e-08,-1.977022481e-05,0.3447349423,1.531947836e-05,-26.3648018,0.04805736005,170.8883028,-189.1116972,1.100966924,-0.04745094814,0.00761034665,45.47011545,45.46482494,0.6936080511,-1.509601846e-06,7.262575651e-07,0.01525592701,-7.240175518e-07,
160000,-26.78160552,0.04580572104,-11.10461565,-371.1046156,1.096009213,0.04494810747,-0.008822228462,54.70596809,54.69741853,-0.9671354539,1.028520245e-06,-9.620274258e-07,0.01768155573,-6.63841605e-07,-14.08368072,0.197613206,64.2010769,-1015.798923,1.492563456,0.08600406888,0.1779164954,59.09250459,55.41531369,20.51991976,-4.847574483e-08,2.041154164e-05,0.3702933069,1.526161861e-05,-14.97625655,0.1783147103,-110.0353647,-830.0353647,1.434021912,-0.06109063501,-0.1675233423,44.39153128,41.95072881,-14.51703833,6.852075277e-08,-1.444036506e-05,0.3460497289,1.52353847e-05,-26.04155758,0.04987950338,-169.063537,-169.063537,1.104996163,-0.0489736005,-0.009463155465,45.33168329,45.32352591,-0.859946661,1.156721038e-06,-8.554047618e-07,0.01897351637,-4.381854818e-07,
168000,-24.57120381,0.05907990785,-11.61981121,-371.6198112,1.125579012,0.05786910438,-0.01189967521,56.14143735,56.12543311,-1.340427526,7.067527584e-07,-1.269855159e-06,0.02388271149,3.727117695e-07,-14.81462408,0.181663968,21.04833596,-1058.951664,1.443983794,0.1695429425,0.06524559704,70.30844841,69.67690073,9.402522105,-1.00754972e-07,8.907487325e-06,0.1349446087,1.518811898e-05,-15.32728277,0.1712520825,-153.3141875,-873.3141875,1.413279066,-0.1530107595,-0.07690892821,36.79879569,36.34528776,-5.759463633,1.644859508e-07,-5.456232778e-06,0.1584652093,1.515854285e-05,-23.82528137,0.06437777036,-175.329207,-175.329207,1.13761488,-0.06416397347,-0.00524231107,43.97063693,43.96820019,-0.4629084882,2.046518645e-06,-4.385367505e-07,0.01052825647,8.944384275e-07,
176000,-24.90258619,0.05686835826,-25.77631335,-385.7763134,1.120594741,0.05120987832,-0.02472970952,55.39390152,55.3258336,-2.745261792,3.294000783e-07,-2.482511275e-06,0.04961989028,4.791144827e-07,-15.10771714,0.1756362448,-23.05584946,-1103.055849,1.426113457,0.1616070448,-0.06878410838,69.16477402,68.47833118,-9.72029443,9.303107595e-08,-8.789959698e-06,0.141947011,1.506637678e-05,-15.60117818,0.1659361812,162.7451629,-917.2548371,1.397898044,-0.1584682078,0.04922035516,36.3501628,36.16533998,3.66094521,-2.470098287e-07,3.310554128e-06,0.1012280048,1.502960835e-05,-24.58496192,0.05898640167,169.0448174,-190.9551826,1.125367799,-0.05791144152,0.01120984045,44.52652291,44.51525845,1.001502513,-9.029327808e-07,9.056481564e-07,0.02249796021,6.592620523e-07,
184000,-27.62762758,0.04155455359,-28.06652678,-388.0665268,1.086712402,0.03666781659,-0.0195512698,53.80484049,53.76361146,-2.105930227,4.107318019e-07,-1.821571769e-06,0.03917017792,-5.196775359e-07,-15.39938015,0.1698364848,-66.25238393,-1146.252384,1.409163934,0.068394614,-0.1554561299,57.15512499,54.43360257,-17.42673876,4.963478988e-08,-1.507365009e-05,0.3201467098,1.471890178e-05,-15.88657186,0.1605725879,119.7231588,-960.2768412,1.38257647,-0.07961345091,0.139446242,42.75701652,41.10581631,11.76751151,-7.350513454e-08,1.017857405e-05,0.2862736364,1.453805195e-05,-27.70787957,0.04117238467,168.9542122,-191.0457878,1.085880682,-0.04040964094,0.007888357117,46.11622012,46.11046242,0.7287068674,-1.186996522e-06,6.303114131e-07,0.01580350378,-7.569309375e-07,
192000,-28.04017131,0.03962702188,-9.780506413,-369.7805064,1.082524233,0.03905107289,-0.006731609697,54.06361125,54.05869675,-0.7289487634,1.13716085e-06,-6.042489529e-07,0.01348439395,-6.014646698e-07,-15.63790142,0.1652360973,-109.1043888,-1189.104389,1.395887021,-0.05408016867,-0.1561355283,44.98574397,42.83260532,-13.75082115,6.028236322e-08,-1.139849561e-05,0.3210363005,1.484828187e-05,-16.11485463,0.1564073899,77.01960183,-1002.980398,1.370812613,0.0351318671,0.1524107067,53.55540642,51.11806756,15.97262425,-5.189704473e-08,1.324021929e-05,0.3124653379,1.473519496e-05,-27.63667808,0.0415112772,-170.6986202,-170.6986202,1.086618186,-0.04096547964,-0.006709367567,46.06483538,46.06067434,-0.6191428875,1.338837952e-06,-5.132273491e-07,0.01344189803,-7.312190478e-07,
