Frequency,S11_Magnitude,S11_Magnitude (linear),S11_Phase,S11_Unwrapped Phase,S11_VSWR,S11_Real,S11_Imaginary,S11_Impedance (absolute),S11_Resistance,S11_Reactance,S11_Capacitance,S11_Inductance,S11_Quality Factor,S11_Group delay,S12_Magnitude,S12_Magnitude (linear),S12_Phase,S12_Unwrapped Phase,S12_VSWR,S12_Real,S12_Imaginary,S12_Impedance (absolute),S12_Resistance,S12_Reactance,S12_Capacitance,S12_Inductance,S12_Quality Factor,S12_Group delay,S21_Magnitude,S21_Magnitude (linear),S21_Phase,S21_Unwrapped Phase,S21_VSWR,S21_Real,S21_Imaginary,S21_Impedance (absolute),S21_Resistance,S21_Reactance,S21_Capacitance,S21_Inductance,S21_Quality Factor,S21_Group delay,S22_Magnitude,S22_Magnitude (linear),S22_Phase,S22_Unwrapped Phase,S22_VSWR,S22_Real,S22_Imaginary,S22_Impedance (absolute),S22_Resistance,S22_Reactance,S22_Capacitance,S22_Inductance,S22_Quality Factor,S22_Group delay,
0,-13.34289491,0.2152064355,-134.0926975,-134.0926975,1.548440877,-0.1497452139,-0.1545644876,37.2467181,35.43183189,-11.4849161,inf,-inf,0.3241411885,1.300518585e-05,-13.55911767,0.2099153109,-133.1955622,-133.1955622,1.531374203,-0.1436850659,-0.1530328055,37.6938348,35.89870596,-11.49382846,inf,-inf,0.3201738937,-4.559356758e-06,-15.8190732,0.1618252698,-172.7720654,-172.7720654,1.386137315,-0.1605393216,-0.02036035769,36.1719048,36.14032187,-1.511235106,inf,-inf,0.04181576221,1.385362352e-05,-15.9864886,0.1587360504,-172.2524073,-172.2524073,1.37737514,-0.1572870382,-0.02139909562,36.41449832,36.37945266,-1.597220141,inf,-inf,0.04390445772,2.204849262e-05,
8000,-18.05528445,0.1250937977,-120.8421009,-120.8421009,1.285959335,-0.06413232385,-0.1074034602,44.0381673,43.02562566,-9.38912752,2.118872903e-06,-0.000186790757,0.2182217545,1.300518585e-05,-32.93165014,0.02256407284,133.2103801,-226.7896199,1.046169927,-0.01544915044,0.0164457026,48.47899467,48.45276588,1.59449137,-1.247693669e-05,3.172139791e-05,0.03290815997,-4.559356758e-06,-27.60339748,0.0416706357,-129.2590956,-129.2590956,1.086965165,-0.02637035564,-0.03226524792,47.43332252,47.3345276,-3.05983376,6.501780635e-06,-6.087345849e-05,0.06464274421,1.385362352e-05,-26.28819937,0.048483061,61.06165639,-298.9383436,1.101906879,0.02345940929,0.04242951001,52.39787447,52.20934685,4.440872756,-4.479832902e-06,8.834835635e-05,0.08505896022,2.204849262e-05,
16000,-12.970469,0.224634548,158.4063623,-201.5936377,1.579428829,-0.2088691019,0.08267029955,32.82344726,32.3368765,5.630728946,-1.766589022e-06,5.600989656e-05,0.1741271748,1.300518585e-05,-31.3224334,0.0271567835,88.83456261,-271.1654374,1.055829723,0.0005523504308,0.0271511657,50.05522484,49.98147915,2.716113955,-3.662285202e-06,2.701768512e-05,0.05434240844,-4.559356758e-06,-32.92107088,0.02259157221,-104.2428236,-104.2428236,1.046227496,-0.005558247268,-0.02189714644,49.44751106,49.40011218,-2.164547722,4.595502259e-06,-2.153115434e-05,0.043816656,1.385362352e-05,-14.44681446,0.1895218457,-24.34755028,-384.3475503,1.467679097,0.1726660463,-0.07813428475,70.71266828,69.80165101,-11.31419334,8.791774756e-07,-0.0001125443624,0.1620906265,2.204849262e-05,
24000,-7.314386184,0.430804956,124.7495418,-235.2504582,2.513734037,-0.2455545998,0.3539715365,32.17903979,24.28598035,21.11117619,-3.141206299e-07,0.0001399978352,0.8692742017,1.493135066e-05,-22.64225948,0.07377123021,-68.81900394,-68.81900394,1.159293757,0.02665467535,-0.06878751841,52.7252029,52.2278909,-7.224571536,9.179030105e-07,-4.790942799e-05,0.1383278438,3.227095451e-05,-22.48065093,0.07515665688,134.2587498,-225.7412502,1.162528405,-0.05245181886,0.05382684992,45.02994598,44.76833741,4.846854729,-1.368197797e-06,3.214170369e-05,0.1082652385,2.525687192e-05,-6.676518548,0.4636327143,-51.75990926,-411.7599093,2.728788189,0.2869692333,-0.3641482568,83.52713088,61.23432902,-56.80790915,1.167347305e-07,-0.0003767191478,0.9277134257,1.420782739e-05,
32000,-7.018598388,0.4457281682,95.83680492,-264.1631951,2.608337796,-0.04532848422,0.4434173299,46.35120236,31.07528898,34.39128341,-1.446178065e-07,0.0001710482111,1.106708402,1.038405143e-05,-20.10167177,0.09883628467,-146.5261328,-146.5261328,1.219352562,-0.08244304903,-0.05451380406,42.40460802,42.14989226,-4.640836463,1.071701623e-06,-2.308162698e-05,0.1101031631,3.128126465e-05,-21.03659933,0.08875034159,35.97683321,-324.0231668,1.194788203,0.07182162142,0.05213710607,57.7151998,57.39904287,6.032757731,-8.244309142e-07,3.000447542e-05,0.1051020615,3.050282631e-05,-5.973132885,0.5027399015,-73.33991826,-433.3399183,3.022039987,0.1441320761,-0.4816361212,63.20124106,38.73849476,-49.93721954,9.95968942e-08,-0.0002483673542,1.289085181,9.091529218e-06,
40000,-7.423165364,0.4254433423,55.43122832,-304.5687717,2.480944783,0.2413944341,0.3503295087,77.18365835,58.64956424,50.17515053,-7.929968391e-08,0.0001996405807,0.8555076441,7.18674994e-06,-15.43138113,0.1692119163,146.1889829,-213.8110171,1.407352776,-0.1405943717,0.09415888305,37.77054664,37.08014373,7.188680984,-5.534914661e-07,2.860285282e-05,0.1938687464,2.482149397e-05,-15.28645565,0.1720589299,-23.06787969,-383.0678797,1.415630861,0.1583013214,-0.06741637051,68.70378302,68.05003525,-9.455289781,4.208092686e-07,-3.762140268e-05,0.1389461408,2.607213735e-05,-7.281889537,0.4324197518,-119.034874,-479.034874,2.523730796,-0.2098714161,-0.378075165,34.55137619,25.30024719,-23.53072649,1.690926788e-07,-9.362578589e-05,0.9300591539,6.538597425e-06,
48000,-13.66290792,0.2074218981,43.53517844,-316.4648216,1.523410621,0.1503708366,0.1428721642,67.27399769,64.46175013,19.24768907,-1.722662897e-07,6.382010122e-05,0.2985908547,6.023966553e-06,-10.31811336,0.3048557087,70.88035823,-289.1196418,1.877100517,0.09985299398,0.2880388562,60.14886061,50.77426676,32.24684895,-1.028233173e-07,0.0001069217794,0.6351022084,2.330751973e-05,-10.29468866,0.3056789739,-104.8202076,-464.8202076,1.880511932,-0.07818862535,-0.2955100235,43.29433395,36.2677275,-23.64426556,1.402339173e-07,-7.83979529e-05,0.6519367819,2.347617677e-05,-13.37588691,0.2143905579,-121.6280887,-481.6280887,1.545794249,-0.112427136,-0.1825471183,40.19100011,37.53633493,-14.36454143,2.308272768e-07,-4.762891196e-05,0.382683644,5.796470988e-06,
56000,-10.81697706,0.2878400007,47.41115594,-312.5888441,1.808357675,0.1947907216,0.2119161174,72.86793881,66.14649231,30.56759822,-9.297598507e-08,8.687472061e-05,0.4621197156,5.044974271e-06,-10.87653084,0.2858732099,5.048237369,-354.9517626,1.800623121,0.2847642987,0.02515524415,89.77575616,89.64131792,4.911264131,-5.786804536e-07,1.395807077e-05,0.05478795097,2.213606283e-05,-10.97817524,0.2825473497,-170.7815076,-530.7815076,1.78764041,-0.2788981409,-0.04526402369,28.23012061,28.09448398,-2.76399696,1.028240116e-06,-7.855424622e-06,0.09838219351,2.263943698e-05,-10.41799624,0.3013701181,-121.771627,-481.771627,1.862746143,-0.1586818735,-0.2562108723,37.05601535,32.28177803,-18.19436948,1.562050588e-07,-5.170935428e-05,0.5636111328,4.509120093e-06,
64000,-11.2442841,0.2740222293,13.10172275,-346.8982773,1.754905289,0.2668891983,0.06211552128,86.19996318,85.43276351,11.47504127,-2.167134678e-07,2.853608656e-05,0.1343166345,3.589368814e-06,-10.02173693,0.3154373776,-51.58404414,-411.5840441,1.921573475,0.1960020618,-0.2471516355,72.597248,63.63982817,-34.93326047,7.118705648e-08,-8.68718919e-05,0.5489213511,1.997238724e-05,-10.1565864,0.3105779935,131.7767017,-588.2232983,1.900980794,-0.2069161531,0.2316125982,33.61485349,29.91282184,15.33562729,-1.621580871e-07,3.813657639e-05,0.5126773854,1.991677839e-05,-11.31198837,0.2718945996,-155.440724,-515.440724,1.746855056,-0.2472967733,-0.1130087573,30.38709089,29.52060531,-7.204800798,3.451581877e-07,-1.79168697e-05,0.2440600632,3.470760576e-06,
72000,-16.32195388,0.1527222473,-1.999673331,-361.9996733,1.360501021,0.1526292434,-0.005329059357,68.01147905,68.00742981,-0.7421410204,2.978524647e-06,-1.640491832e-06,0.0109126462,3.382653878e-06,-9.95848517,0.317742817,-111.3381207,-471.3381207,1.931445868,-0.1156174075,-0.2959613367,40.39961265,33.74278132,-22.216062,9.949942165e-08,-4.910827894e-05,0.6583945109,1.888048811e-05,-10.19615983,0.3091662003,72.62577314,-647.3742269,1.895052328,0.09232058896,0.2950604146,59.27446533,49.64178307,32.39067172,-6.824450385e-08,7.159910435e-05,0.6524880798,1.881318662e-05,-16.6507071,0.14704987,-167.0598857,-527.0598857,1.344802972,-0.1433154873,-0.03292924765,37.47704778,37.39242754,-2.517036567,8.782094586e-07,-5.563872383e-06,0.0673140722,3.095407506e-06,
80000,-17.39357606,0.1349960923,16.55368216,-343.4463178,1.312128283,0.1294009378,0.03846221822,64.83779495,64.63968422,5.064669539,-3.928068304e-07,1.00758399e-05,0.07835232489,2.038630935e-06,-11.43713347,0.2680052653,-158.528839,-518.528839,1.732260091,-0.2494062153,-0.09809873601,30.20052868,29.54762451,-6.245784054,3.185247475e-07,-1.242559257e-05,0.2113802432,1.814932839e-05,-11.42071641,0.2685122967,26.6745432,-693.3254568,1.734153959,0.239934784,0.120541084,80.94061592,78.33968779,20.35378644,-9.774283496e-08,4.049257153e-05,0.2598144952,1.805818946e-05,-17.29478623,0.1365402484,-148.9629116,-508.9629116,1.316263145,-0.1169922902,-0.07039917223,39.57303542,39.17192102,-5.62011885,3.539848252e-07,-1.11808712e-05,0.1434731487,1.849039616e-06,
88000,-16.48462613,0.1498886311,-3.025039608,-363.0250396,1.352632929,0.1496797714,-0.007909979184,67.6014284,67.59257748,-1.093887701,1.653349697e-06,-1.978382214e-06,0.01618354769,1.308816901e-06,-10.70461397,0.291587768,146.6416059,-573.3583941,1.823214944,-0.2435479195,0.1603366377,30.83553978,29.10010053,10.19875789,-1.773332515e-07,1.844525832e-05,0.3504715691,1.724483306e-05,-11.03795646,0.2806093755,-29.14031566,-749.1403157,1.780130755,0.2450925911,-0.1366427584,81.63516742,78.26423403,-23.2165939,7.790026853e-08,-4.198904182e-05,0.2966437247,1.722320232e-05,-16.30671016,0.1529905099,-169.5844013,-529.5844013,1.361248632,-0.1504695764,-0.02765868232,36.92992161,36.87081993,-2.088479748,8.659786623e-07,-3.777180403e-06,0.05664315989,1.149186036e-06,
96000,-19.25780901,0.1089204807,-15.74187958,-375.7418796,1.244468599,0.1048352762,-0.02955056649,61.69974339,61.58967871,-3.683722262,4.500512994e-07,-6.107110489e-06,0.05981070755,1.647097718e-06,-11.01836866,0.2812428996,98.07576372,-621.9242363,1.782581207,-0.03950968781,0.2784538618,46.46337739,39.75861142,24.04367393,-6.895219071e-08,3.986114121e-05,0.6047412893,1.681935298e-05,-11.44099337,0.2678861937,-77.37818219,-797.3781822,1.731815713,0.05853711073,-0.2614123551,55.79564364,48.61463734,-27.38194452,6.054588232e-08,-4.539553981e-05,0.5632448582,1.683060339e-05,-19.33854505,0.1079127468,179.1953633,-540.8046367,1.241933166,-0.1079021057,0.001515429241,40.26070275,40.26051344,0.1234616494,-1.342816979e-05,2.046826228e-07,0.003066569173,1.552775199e-06,
104000,-21.20143194,0.08708200167,-4.698855838,-364.6988558,1.19077727,0.08678932105,-0.007133636216,59.50322311,59.49707507,-0.8553473128,1.789139883e-06,-1.308968778e-06,0.01437629181,9.230198628e-07,-11.45494297,0.2674563119,52.03398181,-667.9660182,1.73021259,0.164537519,0.2108560733,68.67400784,62.52658873,28.39973688,-5.388556935e-08,4.346113949e-05,0.4542025634,1.600303984e-05,-11.89107588,0.2543584712,-123.3619776,-843.3619776,1.682254036,-0.1398784895,-0.2124434985,38.20457846,34.78367151,-15.80145599,9.684778364e-08,-2.418153682e-05,0.454277979,1.598293055e-05,-20.80870028,0.09110977745,-167.6873021,-527.6873021,1.200485769,-0.08901410118,-0.01942887895,41.82903041,41.7969571,-1.63773083,9.344246097e-07,-2.506278433e-06,0.03918301578,9.407705802e-07,
112000,-20.10407226,0.09880897343,-6.327616864,-366.3276169,1.219285302,0.09820702398,-0.01089007219,60.88875024,60.87402736,-1.338917239,1.061324954e-06,-1.902636581e-06,0.02199488513,8.645333998e-07,-11.77824468,0.2576841854,6.57629013,-713.4237099,1.694271038,0.2559886861,0.02951155649,84.36351465,84.19542198,5.322924132,-2.669634664e-07,7.564015066e-06,0.06322106365,1.562556113e-05,-12.26058263,0.2437647301,-168.5753146,-888.5753146,1.644679612,-0.2389347574,-0.0482848355,30.75290678,30.59209038,-3.140904558,4.524258064e-07,-4.463307913e-06,0.1026704785,1.559350422e-05,-19.5412209,0.1054238701,-172.2714241,-532.2714241,1.235695692,-0.1044662262,-0.01417744585,40.54321391,40.5265574,-1.162041297,1.22287072e-06,-1.651291219e-06,0.02867357534,9.76264836e-07,
120000,-21.15529704,0.08754576619,-21.02365699,-381.023657,1.191890756,0.08171805285,-0.03140734016,58.88940235,58.77177469,-3.720243154,3.565065878e-07,-4.934125729e-06,0.06329982672,3.170320549e-07,-12.14991763,0.2468903517,-38.05243089,-758.0524309,1.655655793,0.1944130759,-0.1521788476,73.43362844,69.85605307,-22.64132584,5.8578336e-08,-3.002899104e-05,0.3241140151,1.53636907e-05,-12.63411323,0.2335040075,146.3040507,-933.6959493,1.609276525,-0.1942737806,0.1295446628,33.9668696,32.7591446,8.977008168,-1.477431197e-07,1.190612687e-05,0.2740306036,1.529757814e-05,-20.88232073,0.09034080652,172.6018961,-547.3981039,1.198625611,-0.08958875761,0.01163253333,41.77877503,41.76728627,0.9797146024,-1.353752602e-06,1.299386848e-06,0.02345650603,3.840417254e-07,
128000,-24.31382532,0.06085674697,-20.02875996,-380.02876,1.129600563,0.05717618101,-0.02084293587,56.06155259,56.0125447,-2.343611422,5.305478465e-07,-2.914041738e-06,0.04184083109,-4.88524114e-07,-12.5481354,0.2358268391,-81.88911026,-801.8891103,1.617207856,0.03327266609,-0.2334678302,53.25789992,47.74114518,-23.60480798,5.267562413e-08,-2.935017087e-05,0.4944332167,1.51289864e-05,-13.02631654,0.2231948518,103.2423428,-976.7576572,1.57464823,-0.05112731237,0.2172600741,45.34549271,41.23810145,18.85822626,-6.593398425e-08,2.344828068e-05,0.4573010297,1.503546549e-05,-24.21207045,0.06157387386,174.9925506,-545.0074494,1.131227962,-0.06133886843,0.005374491802,44.22077203,44.21819812,0.4771095721,-2.606105737e-06,5.932370843e-07,0.01078989177,-5.298315011e-07,
136000,-24.21468058,0.06155537356,-2.41354588,-362.4135459,1.131185947,0.06150076791,-0.002592211605,56.55305021,56.55228441,-0.2943061206,3.976325508e-06,-3.444137785e-07,0.005204142037,-2.506853639e-07,-12.87781228,0.2270436637,-124.9704641,-844.9704641,1.587468277,-0.1301310041,-0.1860503883,38.83303757,36.15045518,-14.18271473,8.251290084e-08,-1.659742027e-05,0.3923246516,1.494665452e-05,-13.35481396,0.214911325,60.44406848,-1019.555932,1.547482932,0.1060099448,0.1869458992,61.40723084,57.1715937,22.41108817,-5.221776496e-08,2.622673134e-05,0.3919969117,1.482629376e-05,-23.68313958,0.06543995936,-166.8494903,-526.8494903,1.14004442,-0.06372384759,-0.01488823461,44.01061492,43.99094918,-1.315528749,8.895715395e-07,-1.539506641e-06,0.02990453204,-2.104380493e-07,
144000,-22.58674166,0.07424426583,-8.597925179,-368.5979252,1.160397096,0.07340989358,-0.01109948344,57.92152657,57.90710162,-1.292602932,8.550519524e-07,-1.428639903e-06,0.02232201052,8.273154802e-07,-13.12456228,0.220684528,-167.8220974,-887.8220974,1.566354797,-0.2157185355,-0.04655291962,32.28899105,32.1354451,-3.14517272,3.514092098e-07,-3.476179065e-06,0.09787238704,1.485040527e-05,-13.61863732,0.2084817932,17.84397336,-1062.156027,1.526789634,0.1984526718,0.06388423261,74.62818026,73.97119803,9.880645312,-1.118593599e-07,1.092051071e-05,0.1335742232,1.480294214e-05,-22.0419182,0.0790504033,-174.9161573,-534.9161573,1.171671509,-0.07873942643,-0.007004925925,42.70112683,42.69688399,-0.6019385126,1.836138804e-06,-6.65288123e-07,0.01409794946,8.860593658e-07,
152000,-23.67335441,0.06551372288,-23.12920514,-383.1292051,1.140213344,0.06024782113,-0.02573417835,56.40650175,56.33129677,-2.911776761,3.595989941e-07,-3.048839899e-06,0.05169021357,1.442596891e-07,-13.4429635,0.2127413079,149.6822376,-930.3177624,1.540460995,-0.1836466151,0.1073908043,34.63949944,33.79490001,7.602608409,-1.377253618e-07,7.960478347e-06,0.2249631869,1.465625054e-05,-13.94331905,0.2008325245,-24.49539465,-1104.495395,1.502604349,0.1827565128,-0.08326920139,72.1680218,71.10528245,-12.33945613,8.485560331e-08,-1.292029893e-05,0.1735378259,1.461848623e-05,-23.28646512,0.06849781909,170.586558,-549.413442,1.147069584,-0.06757541492,0.01120332626,43.67094505,43.65988298,0.9828834681,-1.065306344e-06,1.029149753e-06,0.02251227903,2.273546287e-07,
160000,-27.10794244,0.04411668565,-21.58427325,-381.5842732,1.092305588,0.04102311315,-0.01622917561,54.27662342,54.24794313,-1.764232485,5.638250077e-07,-1.754914505e-06,0.03252164752,-1.327100081e-06,-13.35842926,0.2148218918,106.938703,-973.061297,1.54719277,-0.06258802512,0.2055022733,44.33581518,40.71679362,17.54443573,-5.669708674e-08,1.745177294e-05,0.4308894235,1.452437417e-05,-14.12012076,0.196785893,-67.45029245,-1147.450292,1.489996108,0.07546440069,-0.1817410573,57.87935483,54.13830629,-20.47104071,4.859149119e-08,-2.036292074e-05,0.3781248826,1.449732584e-05,-26.73087528,0.04607403376,173.5152717,-546.4847283,1.096598762,-0.0457792518,0.005203526848,45.62258823,45.62010729,0.4757809018,-2.090706858e-06,4.732680147e-07,0.01042919296,-1.155197652e-06,
168000,-26.80684225,0.04567282635,2.00228863,-357.9977114,1.095717334,0.04564493999,0.001595781901,54.78279205,54.78251187,0.1752073657,-5.407026399e-06,1.659828471e-07,0.003198235344,-1.146745071e-06,-14.00644989,0.199378124,66.59912797,-1013.400872,1.498058147,0.07918538629,0.1829789904,58.29600467,54.47408738,20.76049049,-4.563239256e-08,1.966746835e-05,0.3811076328,1.44663125e-05,-14.52140543,0.1879012757,-107.4150004,-1187.415,1.462754761,-0.05623708699,-0.179288258,44.83343019,42.02426496,-15.62042307,6.06482198e-08,-1.47980211e-05,0.37170009,1.443375154e-05,-25.80816585,0.0512379455,-164.3391114,-524.3391114,1.108010107,-0.04933580032,-0.01383133641,45.29923733,45.281824,-1.255913465,7.543122023e-07,-1.189790691e-06,0.02773548754,-7.990515124e-07,
176000,-24.53536043,0.05932421203,-2.053430893,-362.0534309,1.126131049,0.05928611682,-0.00212567303,56.30221708,56.30170469,-0.2402033931,3.764682245e-06,-2.172133941e-07,0.004266360929,3.910242068e-07,-14.24996112,0.1938661313,24.56846929,-1055.431531,1.480977512,0.1763144722,0.08060573053,71.23273477,70.25393908,11.76803074,-7.684288644e-08,1.064170603e-05,0.1675070592,1.441484763e-05,-14.73971094,0.1832375401,-149.4577159,-1229.457716,1.448692366,-0.1578141311,-0.09311657285,36.47351067,35.81459212,-6.901591977,1.310262114e-07,-6.241036809e-06,0.1927033527,1.436586872e-05,-23.71988533,0.06516369967,-170.8184764,-530.8184764,1.139412001,-0.06432880745,-0.01039770581,43.95654368,43.94696109,-0.9177923746,9.852876036e-07,-8.299499611e-07,0.02088409191,7.421876505e-07,
184000,-24.97371727,0.05640454968,-16.3814973,-376.3814973,1.119552399,0.05411481274,-0.0159078681,55.71954156,55.69118212,-1.777511062,4.866200471e-07,-1.537498217e-06,0.03191728017,2.653392827e-07,-14.49684659,0.1884333073,-17.44754551,-1097.447546,1.464369248,0.1797638391,-0.05649843758,71.82833213,71.3404019,-8.358011326,1.034902303e-07,-7.229450092e-06,0.1171567738,1.456717241e-05,-14.97787496,0.1782814887,168.6622948,-1271.337705,1.433923506,-0.1748024142,0.03504861176,35.13672736,35.04500283,2.537200512,-3.409161053e-07,2.194608712e-06,0.07239835374,1.451922342e-05,-24.38928611,0.06033032913,174.2597738,-545.7402262,1.128407527,-0.06002780838,0.006034138998,44.33734298,44.33409099,0.5369906457,-1.610777625e-06,4.644821503e-07,0.01211236396,1.42030965e-07,
