Frequency,S11_Magnitude,S11_Magnitude (linear),S11_Phase,S11_Unwrapped Phase,S11_VSWR,S11_Real,S11_Imaginary,S11_Impedance (absolute),S11_Resistance,S11_Reactance,S11_Capacitance,S11_Inductance,S11_Quality Factor,S11_Group delay,S12_Magnitude,S12_Magnitude (linear),S12_Phase,S12_Unwrapped Phase,S12_VSWR,S12_Real,S12_Imaginary,S12_Impedance (absolute),S12_Resistance,S12_Reactance,S12_Capacitance,S12_Inductance,S12_Quality Factor,S12_Group delay,S21_Magnitude,S21_Magnitude (linear),S21_Phase,S21_Unwrapped Phase,S21_VSWR,S21_Real,S21_Imaginary,S21_Impedance (absolute),S21_Resistance,S21_Reactance,S21_Capacitance,S21_Inductance,S21_Quality Factor,S21_Group delay,S22_Magnitude,S22_Magnitude (linear),S22_Phase,S22_Unwrapped Phase,S22_VSWR,S22_Real,S22_Imaginary,S22_Impedance (absolute),S22_Resistance,S22_Reactance,S22_Capacitance,S22_Inductance,S22_Quality Factor,S22_Group delay,
0,-13.24392709,0.2176725402,-134.6085881,-134.6085881,1.556474242,-0.1528626684,-0.1549656071,37.01734302,35.20116652,-11.45257874,inf,-inf,0.3253465688,1.284938342e-05,-13.54169775,0.2103367273,-133.490944,-133.490944,1.532725111,-0.1447621317,-0.1525957539,37.61164782,35.82932099,-11.44097064,inf,-inf,0.3193186565,1.839836697e-07,-15.42442763,0.1693474332,-171.6877492,-171.6877492,1.407745524,-0.1675684216,-0.02448218173,35.65566185,35.6104444,-1.79512431,inf,-inf,0.05041005077,-1.717199858e-05,-15.65976354,0.1648207261,-171.2817711,-171.2817711,1.394695442,-0.1629163401,-0.02498275192,35.9984279,35.951041,-1.846472923,inf,-inf,0.05136076375,-3.327089932e-06,
8000,-19.14161318,0.1103873585,-119.5305511,-119.5305511,1.248169492,-0.05440855783,-0.0960472683,44.8847829,44.05943094,-8.567979967,2.321943791e-06,-0.0001704545455,0.1944641541,1.284938342e-05,-32.2211524,0.02448738333,-91.41756827,-91.41756827,1.050204135,-0.000605786267,-0.024479889,49.93949429,49.87967611,-2.443563107,8.141540452e-06,-4.861314341e-05,0.04898915346,1.839836697e-07,-32.16456438,0.02464743791,32.03420104,32.03420104,1.050540571,0.0208944126,0.0130736268,52.13365795,52.11582409,1.363513999,-1.459051239e-05,2.712624911e-05,0.02616314761,-1.717199858e-05,-25.82479317,0.05113995498,51.66866108,51.66866108,1.107792409,0.03171741871,0.04011608587,53.27019603,53.0986722,4.271392739,-4.657583394e-06,8.497665853e-05,0.08044255274,-3.327089932e-06,
16000,-14.14195905,0.1962917504,153.4791859,-206.5208141,1.488465187,-0.1756364032,0.08764875989,35.16034529,34.59013149,6.306558817,-1.577276013e-06,6.27325006e-05,0.1823224875,1.284938342e-05,-35.6620595,0.01647771644,-78.77739076,-78.77739076,1.033507561,0.003206916681,-0.01616263668,50.32163912,50.29535431,-1.626252629,6.11662897e-06,-1.617663404e-05,0.03233405254,1.839836697e-07,-43.54893194,0.00664589389,112.5581855,112.5581855,1.013380715,-0.002549507526,0.006137419406,49.74570715,49.74195961,0.6106015054,-1.629079499e-05,6.07376549e-06,0.01227538099,-1.717199858e-05,-14.5716396,0.1868176997,-29.47720061,-29.47720061,1.459473109,0.1626344426,-0.09192872784,69.22292919,67.99997681,-12.95442314,7.678600456e-07,-0.0001288600298,0.1905062876,-3.327089932e-06,
24000,-7.206295257,0.436199574,123.461764,-236.538236,2.547354539,-0.2405118844,0.3639012254,32.57182838,24.22464302,21.77362336,-3.045637307e-07,0.0001443908245,0.8988212272,1.53792212e-05,-20.50922137,0.09430591461,-64.14456974,-64.14456974,1.208251144,0.04112698858,-0.08486563699,54.2570675,53.47852413,-9.15842949,7.240822206e-07,-6.073372184e-05,0.1712543425,1.171154316e-05,-21.64355338,0.08276035231,111.8968742,111.8968742,1.180455244,-0.03086441101,0.07678973921,47.02301279,46.4706663,7.186160689,-9.228093065e-07,4.765470815e-05,0.1546386411,7.547953119e-06,-6.62520852,0.4663796305,-46.51835211,-46.51835211,2.747982862,0.3209261772,-0.3384026426,89.86071981,67.96488337,-58.78540289,1.128078679e-07,-0.0003898328105,0.8649378911,1.387712162e-05,
32000,-6.233690863,0.487882743,98.86413297,-261.135867,2.905355605,-0.07517877657,0.4820557255,44.25513741,27.44084902,34.72055575,-1.432463238e-07,0.0001726858773,1.265287227,9.584353438e-06,-20.8181315,0.09101090331,-149.7768081,-149.7768081,1.200246414,-0.07863989327,-0.04581213493,42.72359276,42.54241128,-3.930473422,1.265392597e-06,-1.954857106e-05,0.09238953092,2.143084483e-05,-20.78248463,0.09138517935,35.65769385,35.65769385,1.201152738,0.07425175421,0.05327220666,57.99608069,57.66420611,6.195539514,-8.027697927e-07,3.081408559e-05,0.1074416858,2.164039429e-05,-6.053652471,0.4981009574,-74.27816953,-74.27816953,2.984865142,0.1349690342,-0.4794662903,62.28817362,38.43391896,-49.0168384,1.014670088e-07,-0.0002437897539,1.275353639,8.413918743e-06,
40000,-7.862567099,0.4044563377,46.31619014,-313.6838099,2.35827602,0.2793491323,0.2924875918,84.36946228,69.13816423,48.35411475,-8.228614252e-08,0.0001923949095,0.6993838394,7.463783062e-06,-14.44456037,0.189571035,135.4359189,-224.5640811,1.467828874,-0.1350629338,0.1330232357,38.28677813,36.90720852,10.18505471,-3.906580465e-07,4.052504507e-05,0.2759638326,2.67951752e-05,-14.61341748,0.1859212909,-38.20607803,-38.20607803,1.456764902,0.1460953305,-0.1149907859,66.84266869,65.02319501,-15.48955997,2.56874539e-07,-6.163100089e-05,0.2382159161,2.629737409e-05,-7.500266653,0.4216835577,-125.7614058,-125.7614058,2.458314261,-0.2464365997,-0.3421783529,32.01470584,24.60608694,-20.48125669,1.942690157e-07,-8.149233106e-05,0.8323654524,7.114841206e-06,
48000,-12.70222154,0.231680202,54.0372833,-305.9627167,1.603082733,0.1360562113,0.1875217944,65.12158941,60.5404765,23.99316804,-1.381946717e-07,7.955481863e-05,0.3963161414,6.926831354e-06,-10.93491213,0.2839581861,52.8281993,-307.1718007,1.793132972,0.1715695274,0.2262656596,69.4722098,62.33059185,30.68037246,-1.080732636e-07,0.0001017277694,0.492220137,2.483805637e-05,-11.00803172,0.2815778015,-124.0120161,-124.0120161,1.783878344,-0.1575052617,-0.2334055502,37.01837937,33.01714835,-16.74002169,1.980719047e-07,-5.550535831e-05,0.5070099183,2.505594693e-05,-12.08207256,0.2488263516,-111.0161037,-111.0161037,1.662500215,-0.08923667638,-0.2322743396,42.19685344,37.81419676,-18.72594359,1.770660028e-07,-6.209013514e-05,0.4952093446,6.397385195e-06,
56000,-10.02490419,0.315322376,38.39671278,-321.6032872,1.921082755,0.2471273198,0.1958476159,81.13924819,74.40607594,32.36222274,-8.782006656e-08,9.197513783e-05,0.4349405923,4.371291975e-06,-11.02369404,0.2810705205,-11.29759637,-371.2975964,1.781914022,0.2756241827,-0.05506312202,87.87835528,87.25678801,-10.43351681,2.723964131e-07,-2.965260311e-05,0.1195725519,2.320317859e-05,-11.1283395,0.2777045688,173.0495423,-186.9504577,1.768950091,-0.2756637618,0.0336053262,28.41124438,28.33619926,2.063642167,-1.377202211e-06,5.864979492e-06,0.07282706292,2.335881892e-05,-9.733415202,0.3260838124,-130.6030984,-130.6030984,1.96772809,-0.2122203263,-0.2475746066,33.37121422,29.19016525,-16.17319359,1.757261199e-07,-4.596506616e-05,0.5540631047,3.883693875e-06,
64000,-12.39801033,0.2399382479,3.077500145,-356.9224999,1.631365142,0.2395922162,0.0128814896,81.50109296,81.47065718,2.227144355,-1.116585003e-06,5.538453641e-06,0.02733676678,4.732181265e-06,-10.08219715,0.3132493242,-74.07806214,-434.0780621,1.912265063,0.08593288444,-0.3012319347,58.54691327,48.68371052,-32.52133737,7.646659661e-08,-8.087393122e-05,0.6680127094,2.203394446e-05,-10.23165578,0.3079053328,109.2242478,-250.7757522,1.889778082,-0.101382844,0.290735641,41.45687299,34.88032792,22.4061385,-1.10987263e-07,5.571949527e-05,0.6423717848,2.170064751e-05,-12.56759709,0.2352990348,-163.97967,-163.97967,1.615401433,-0.226160922,-0.06493745531,31.62195858,31.32726035,-4.307089909,5.773726665e-07,-1.07108539e-05,0.1374869638,4.800887433e-06,
72000,-17.06445013,0.1402095171,8.849477281,-351.1505227,1.326148102,0.1385404495,0.02156971368,66.07321037,66.00933118,2.904707547,-7.610009906e-07,6.420813394e-06,0.04400449899,3.628874289e-06,-10.48669397,0.2989959473,-135.2367221,-495.2367221,1.853050553,-0.212293762,-0.2105467528,33.13280281,30.07297832,-13.90678242,1.589501622e-07,-3.074073839e-05,0.4624344908,2.049867231e-05,-10.72424823,0.2909293848,48.80879751,-311.1912025,1.820593545,0.1915985061,0.2189290283,72.32904778,65.24836875,31.21124042,-7.082337297e-08,6.899198878e-05,0.4783451451,2.033001241e-05,-16.99229085,0.1413791798,-155.2048144,-155.2048144,1.329316915,-0.1283458179,-0.05929100698,38.66122796,38.3812761,-4.64415676,4.759712979e-07,-1.026584035e-05,0.1210005824,3.432541729e-06,
80000,-15.14853355,0.1748128377,0.6674908329,-359.3325092,1.423692577,0.174800975,0.002036508242,71.18277693,71.18214869,0.2990653613,-6.652180581e-06,5.949716319e-07,0.004201409578,1.90580169e-06,-9.687943962,0.3277953601,157.508962,-562.491038,1.975284432,-0.3028630415,0.1253944824,27.05835207,26.04957879,7.31941675,-2.71802639e-07,1.456151695e-05,0.2809802342,1.889378919e-05,-10.54540919,0.2969815985,-14.38096787,-374.3809679,1.844875747,0.2876758927,-0.073760766,90.05219602,88.89622074,-14.38262658,1.383222166e-07,-2.861332643e-05,0.1617912039,1.879169123e-05,-14.58590152,0.1865112034,-167.8480247,-167.8480247,1.458546459,-0.1823319874,-0.03926162731,34.59938136,34.48545116,-2.805503304,7.09119389e-07,-5.581371484e-06,0.08135324345,1.542653163e-06,
88000,-16.96360809,0.1418468173,-12.65407232,-372.6540723,1.330586241,0.1384014229,-0.03107355329,66.04499811,65.91256437,-4.180386715,4.326343523e-07,-7.560559201e-06,0.0634232146,1.618960276e-06,-11.2175415,0.2748672041,117.7280102,-602.2719898,1.758115494,-0.1278887926,0.2433031784,39.23506628,34.71897734,18.27520283,-9.896354725e-08,3.305214621e-05,0.5263750326,1.741563147e-05,-11.57638081,0.2637430108,-57.90002857,-417.9000286,1.716442804,0.1401525499,-0.2234225559,65.38927202,58.9441498,-28.30802184,6.38892717e-08,-5.119729097e-05,0.4802515931,1.749823698e-05,-17.20263695,0.1379965257,-178.097522,-178.097522,1.320176263,-0.1379204594,-0.0045812644,37.87983245,37.87818018,-0.3537972932,5.111907111e-06,-6.398703189e-07,0.00934039839,1.326885904e-06,
96000,-20.21878068,0.09751265162,-13.61426939,-373.6142694,1.216097548,0.094772781,-0.02295293461,60.46335713,60.39852379,-2.799264146,5.922499286e-07,-4.640799228e-06,0.04634656562,1.184273724e-06,-11.69903631,0.2600448064,67.36900731,-652.6309927,1.702866359,0.1000638512,0.2400219303,60.44402072,53.73956362,27.66837441,-5.991909629e-08,4.587040161e-05,0.5148604221,1.636509196e-05,-12.11935122,0.2477607112,-108.0216929,-468.0216929,1.658728452,-0.07665147901,-0.2356054346,43.23149032,38.63602738,-19.39636935,8.547290271e-08,-3.215654229e-05,0.5020280465,1.658298744e-05,-20.23546709,0.09732550049,-174.7475218,-174.7475218,1.215638086,-0.09691682769,-0.008909632729,41.16526015,41.15860065,-0.7404295672,2.23905698e-06,-1.227531517e-06,0.01798966815,9.781150593e-07,
104000,-20.11193846,0.0987195295,-7.322670582,-367.3226706,1.219065059,0.09791438176,-0.01258250176,60.85229963,60.83265983,-1.545919932,9.899193093e-07,-2.365776912e-06,0.0254126638,9.677464739e-07,-12.1396859,0.2471813529,19.04816209,-700.9518379,1.656682333,0.2336468324,0.08067080585,80.21683336,79.05806181,13.5854046,-1.126455955e-07,2.079023361e-05,0.1718408507,1.672849821e-05,-12.57595522,0.2350727235,-156.3454525,-516.3454525,1.61462764,-0.215322188,-0.09431617411,32.41759789,31.79011206,-6.347395387,2.410966858e-07,-9.713647611e-06,0.1996657128,1.672179692e-05,-19.48559227,0.1061012222,-170.8622229,-170.8622229,1.237389791,-0.1047547248,-0.01684983636,40.52029293,40.49677769,-1.380266462,1.108725042e-06,-2.112271445e-06,0.03408336517,1.195052305e-06,
112000,-20.40085629,0.09548984433,-19.05175166,-379.0517517,1.211141564,0.09025930453,-0.03116999063,59.91076084,59.79254446,-3.761767061,3.777549898e-07,-5.345569844e-06,0.06291364742,1.904253634e-07,-12.54082974,0.2360252754,-28.80843817,-748.8084382,1.617887654,0.2068137773,-0.1137365031,75.63726028,73.5337899,-17.71374851,8.022165814e-08,-2.517170211e-05,0.2408926364,1.636866897e-05,-13.00054201,0.2238581445,156.046725,-563.953275,1.576848531,-0.2045787759,0.09088450533,33.13720816,32.54666778,6.228080071,-2.281644201e-07,8.850265439e-06,0.1913584553,1.633386521e-05,-19.96779031,0.1003715161,174.4494689,-185.5505311,1.223139925,-0.09990090236,0.009708293232,40.91806761,40.91019896,0.802420352,-1.77092502e-06,1.140260406e-06,0.01961418845,5.055945734e-07,
120000,-23.24927384,0.06879174212,-23.87088041,-383.8708804,1.147747277,0.06290727885,-0.02783842761,56.70745698,56.61893281,-3.167353002,4.187380414e-07,-4.20083239e-06,0.05594158782,-1.164643696e-07,-13.100207,0.2213041968,-75.07364126,-795.0736413,1.568397045,0.05700294727,-0.2138368807,55.76447775,50.85857329,-22.87099694,5.799009095e-08,-3.03336018e-05,0.4496979654,1.610535599e-05,-13.48025014,0.2118300131,109.2718869,-610.7281131,1.537523673,-0.06991476306,0.1999596969,43.70186875,40.31091634,16.87848797,-7.857879183e-08,2.238578993e-05,0.4187076231,1.602528645e-05,-23.17701019,0.06936645343,170.0952294,-189.9047706,1.149073615,-0.06833254697,0.01193180147,43.6046693,43.59213854,1.045295137,-1.268819824e-06,1.386365734e-06,0.02397898273,-4.098486221e-08,
128000,-23.93416311,0.0635758016,-8.082289706,-368.0822897,1.135784192,0.06294431355,-0.008938452922,56.71666869,56.70753432,-1.01786936,1.221569331e-06,-1.265616719e-06,0.01794945544,-3.248190392e-08,-13.43198906,0.2130102721,-121.2789242,-841.2789242,1.541329231,-0.1105959495,-0.1820492021,40.33366072,37.68564648,-14.37345596,8.650654346e-08,-1.78719263e-05,0.3814039908,1.588556285e-05,-13.91017617,0.2016003082,63.96197845,-656.0380216,1.505010987,0.08849598149,0.1811384706,59.36895887,55.54081599,20.97357949,-5.92840146e-08,2.607850664e-05,0.3776246193,1.577581587e-05,-23.80710741,0.0645126125,-172.5068098,-172.5068098,1.137922998,-0.06396169853,-0.008412983613,43.98874729,43.98246958,-0.743140451,1.673166884e-06,-9.240193453e-07,0.0168962875,-1.132411485e-07,
136000,-22.32934902,0.07647730036,-11.13031464,-371.1303146,1.165620835,0.07503881321,-0.01476326463,58.11072254,58.08510963,-1.725141659,6.7835411e-07,-2.018858989e-06,0.02970023935,6.545251493e-07,-13.76536282,0.2049896145,-166.6337211,-886.6337211,1.515690407,-0.1994368771,-0.04738854421,33.40481209,33.24251916,-3.288828178,3.558279336e-07,-3.848773982e-06,0.09893438468,1.56973865e-05,-14.24681386,0.1939363898,18.93279585,-701.0672042,1.48119376,0.1834443914,0.06292438774,72.3534829,71.74268185,9.381582389,-1.247398238e-07,1.097886185e-05,0.1307670991,1.556826313e-05,-22.19129334,0.07770256102,-176.7939015,-176.7939015,1.168497835,-0.07758094229,-0.004345731571,42.80058032,42.7989441,-0.3742450199,3.126980647e-06,-4.379628297e-07,0.008744258246,3.608965796e-07,
144000,-23.09124214,0.07005479928,-24.95429513,-384.9542951,1.15066436,0.06351480698,-0.02955578112,56.77590819,56.67599917,-3.366729667,3.282837559e-07,-3.721053254e-06,0.05940309331,4.504419517e-07,-14.13536574,0.1964408086,148.2194967,-931.7805033,1.488926792,-0.1669888227,0.1034588053,35.82433202,35.02238008,7.537616207,-1.466302648e-07,8.330894989e-06,0.2152228429,1.555363172e-05,-14.63764727,0.1854033754,-25.95547804,-745.955478,1.455202906,0.1667025552,-0.08114597779,69.84391156,68.87788001,-11.57625272,9.547499412e-08,-1.279456835e-05,0.1680692367,1.539783352e-05,-23.24579507,0.06881929929,169.5247069,-190.4752931,1.147810837,-0.0676723155,0.01251214087,43.66262968,43.64883471,1.097478501,-1.007074544e-06,1.212980058e-06,0.02514336312,1.012080308e-07,
152000,-25.92599095,0.05054758978,-24.86003984,-384.8600398,1.106477353,0.04586372068,-0.02125036372,54.80455252,54.7548692,-2.333082936,4.487933016e-07,-2.442905803e-06,0.04260959748,-5.36680816e-07,-14.50608735,0.188232943,104.1347827,-975.8652173,1.46376098,-0.04596719049,0.182533992,45.74123174,42.77973349,16.19119154,-6.466923643e-08,1.695334322e-05,0.3784780835,1.539332577e-05,-15.01793762,0.1774610794,-69.95237396,-789.952374,1.431495884,0.06083385801,-0.1667083574,56.29060956,53.22495341,-18.32312906,5.714482449e-08,-1.918563528e-05,0.3442582451,1.531344211e-05,-26.19537869,0.04900394744,173.8825603,-186.1174397,1.103058151,-0.04872489708,0.005222190089,45.35401256,45.35152711,0.4748087904,-2.205249808e-06,4.971589869e-07,0.01046952155,-7.176430298e-07,
160000,-26.2324976,0.04879497726,-7.703791209,-367.7037912,1.10259613,0.04835456999,-0.006541052462,55.08092505,55.07618982,-0.7222320924,1.37728357e-06,-7.184175473e-07,0.0131133271,-5.260962416e-07,-14.69869389,0.1841048821,59.36452707,-1020.635473,1.451295462,0.09381510175,0.158408757,60.07144982,57.0805878,18.71858916,-5.314067132e-08,1.861972496e-05,0.327932663,1.528885094e-05,-15.64330633,0.1651333089,-113.3242393,-833.3242393,1.39559204,-0.06538189498,-0.1516384434,43.9932438,41.99928493,-13.09448605,7.596467632e-08,-1.302532614e-05,0.3117787855,1.52680728e-05,-25.47888018,0.05321768654,-169.3024364,-169.3024364,1.112417999,-0.05229279991,-0.00987852411,45.03104671,45.02221059,-0.8920323301,1.115114734e-06,-8.873209671e-07,0.01981316151,-3.077303083e-07,
168000,-24.3445738,0.06064169195,-12.02736285,-372.0273628,1.129113016,0.05931049744,-0.01263644317,56.30392873,56.2858233,-1.427755664,6.635244919e-07,-1.352585545e-06,0.02536616826,3.516617881e-07,-15.11728974,0.1754427851,16.12987263,-1063.870127,1.425544236,0.1685363814,0.04874073254,70.21041519,69.85797022,7.026122537,-1.348326686e-07,6.656203169e-06,0.10057725,1.52098708e-05,-15.61103867,0.1657479121,-157.89639,-877.89639,1.397356901,-0.1535662567,-0.06236806197,36.73350523,36.43503937,-4.67314804,2.027222e-07,-4.427110776e-06,0.1282597225,1.52249129e-05,-23.67359221,0.06551192929,-177.0462702,-177.0462702,1.140209236,-0.06542489499,-0.003375795556,43.85933326,43.85832502,-0.2973898188,3.185552402e-06,-2.817324981e-07,0.006780692575,8.335276379e-07,
176000,-25.05494387,0.05587953797,-23.79484775,-383.7948478,1.118373746,0.05112955106,-0.02254532704,55.38557239,55.32900184,-2.502635419,3.613348723e-07,-2.263106805e-06,0.04523189169,3.187511671e-07,-15.42438213,0.1693483204,-27.93750171,-1107.937502,1.407748096,0.1496123261,-0.07934107059,67.46122888,66.57862444,-10.87677204,8.313950558e-08,-9.835750195e-06,0.1633673289,1.509390298e-05,-15.90668427,0.160201208,158.1562816,-921.8437184,1.381522835,-0.1486991124,0.05960705513,37.09581158,36.82121824,4.505232994,-2.007197964e-07,4.074034664e-06,0.1223542623,1.513786841e-05,-24.67872928,0.05835304671,169.4204386,-190.5795614,1.123938269,-0.05736109778,0.01071366051,44.57566094,44.56536145,0.9581789805,-9.437583873e-07,8.664711427e-07,0.02150053201,5.225877554e-07,
184000,-27.4080902,0.04261823797,-21.87844132,-381.8784413,1.089030812,0.03954872468,-0.0158812022,54.11664045,54.08926401,-1.721131193,5.025604791e-07,-1.48873118e-06,0.03182019989,-6.490367207e-07,-15.7344071,0.163410382,-71.23634249,-1151.236342,1.390658403,0.05256342904,-0.1547256891,55.41086989,52.80611403,-16.78924724,5.15194341e-08,-1.452223744e-05,0.3179413511,1.538690124e-05,-16.19222843,0.1550203019,115.0686198,-964.9313802,1.366920773,-0.06568262754,0.1404175433,43.94899796,42.2352268,12.15319047,-7.117246448e-08,1.051217574e-05,0.2877500936,1.523860203e-05,-27.37617158,0.04277513816,172.5183248,-187.4816752,1.089373229,-0.04241097445,0.005569711951,45.93157487,45.92871493,0.5125572572,-1.687562716e-06,4.433479408e-07,0.01115984321,-7.762734142e-07,
