Frequency,S11_Magnitude,S11_Magnitude (linear),S11_Phase,S11_Unwrapped Phase,S11_VSWR,S11_Real,S11_Imaginary,S11_Impedance (absolute),S11_Resistance,S11_Reactance,S11_Capacitance,S11_Inductance,S11_Quality Factor,S11_Group delay,S12_Magnitude,S12_Magnitude (linear),S12_Phase,S12_Unwrapped Phase,S12_VSWR,S12_Real,S12_Imaginary,S12_Impedance (absolute),S12_Resistance,S12_Reactance,S12_Capacitance,S12_Inductance,S12_Quality Factor,S12_Group delay,S21_Magnitude,S21_Magnitude (linear),S21_Phase,S21_Unwrapped Phase,S21_VSWR,S21_Real,S21_Imaginary,S21_Impedance (absolute),S21_Resistance,S21_Reactance,S21_Capacitance,S21_Inductance,S21_Quality Factor,S21_Group delay,S22_Magnitude,S22_Magnitude (linear),S22_Phase,S22_Unwrapped Phase,S22_VSWR,S22_Real,S22_Imaginary,S22_Impedance (absolute),S22_Resistance,S22_Reactance,S22_Capacitance,S22_Inductance,S22_Quality Factor,S22_Group delay,
0,-13.12845913,0.2205855419,-135.375892,-135.375892,1.566028869,-0.1569974673,-0.1549508844,36.7131355,34.90771596,-11.37126576,inf,-inf,0.3257522139,-2.088667466e-05,-13.3475473,0.2150911964,-134.5277295,-134.5277295,1.548066719,-0.1508336424,-0.1533409113,37.1617977,35.37775369,-11.37601654,inf,-inf,0.3215584755,5.17655329e-06,-15.94021031,0.1595840508,-162.2447807,-162.2447807,1.37977397,-0.1519827472,-0.04866532456,36.83456029,36.65221379,-3.660608736,inf,-inf,0.09987415104,-2.04526678e-05,-16.20317488,0.1548250597,-161.8476494,-161.8476494,1.366373995,-0.1471196445,-0.04823493875,37.20139612,37.02100332,-3.659123776,inf,-inf,0.09883913044,-1.227460053e-05,
8000,-13.67691171,0.2070877524,-13.8182308,-13.8182308,1.522347216,0.2010942875,-0.04946134582,75.09115254,74.69326516,-7.719930666,2.577013803e-06,-0.0001535831407,0.1033551104,-2.088667466e-05,-19.04859617,0.1115758468,76.67422722,76.67422722,1.251176978,0.02571683453,0.1085716998,52.60799009,51.38058803,11.29760132,-1.760937329e-06,0.0002247586368,0.2198807322,5.17655329e-06,-20.22466878,0.09744657087,-62.05570529,-62.05570529,1.215935296,0.04566472051,-0.08608465296,54.74803097,53.93925182,-9.37571377,2.121904356e-06,-0.0001865238989,0.1738198706,-2.04526678e-05,-12.91487226,0.2260770027,140.8408641,-219.1591359,1.584236425,-0.1752989917,0.1427623013,35.34672259,33.84758633,10.18487591,-1.953324525e-06,0.0002026216681,0.3009040528,-1.227460053e-05,
16000,-15.73848304,0.1633337179,145.6012424,145.6012424,1.390439346,-0.1347708563,0.09227523892,38.21357881,37.54464462,7.118796675,-1.397312551e-06,7.081197998e-05,0.1896088443,-2.088667466e-05,-28.24311119,0.03871189582,83.08692422,83.08692422,1.080541714,0.004659495332,0.03843045643,50.46743718,50.31857986,3.873336606,-2.568117609e-06,3.852879169e-05,0.07697627033,5.17655329e-06,-31.58473705,0.02634893994,-90.88764605,-90.88764605,1.05412399,-0.0004081905686,-0.02634577796,49.95922589,49.88992057,-2.63060388,3.781330978e-06,-2.616710068e-05,0.05272816332,-2.04526678e-05,-11.30847401,0.2720046318,-39.72256078,-39.72256078,1.747270226,0.2092118115,-0.1738301977,75.44090985,70.62735589,-26.5161739,3.751364726e-07,-0.0002637612592,0.3754377261,-1.227460053e-05,
24000,-7.805231802,0.4071349729,119.343607,119.343607,2.373449113,-0.1995148771,0.3548981544,34.9996051,26.65667082,22.68026142,-2.923888679e-07,0.0001504031548,0.8508287316,-4.227723502e-06,-19.28759544,0.1085476007,-54.13093893,-54.13093893,1.243529774,0.0636018232,-0.08796243343,56.73629136,55.85806868,-9.94398916,6.668808519e-07,-6.59431262e-05,0.1780224307,2.635638229e-05,-21.2616629,0.08648023375,124.6275529,124.6275529,1.189334127,-0.04914148615,0.07116140224,45.33858239,44.87951955,6.43550917,-1.030447753e-06,4.267679565e-05,0.1433952332,-8.322718555e-06,-6.460227918,0.4753227533,-47.9359973,-47.9359973,2.811867224,0.318447386,-0.3528781406,88.91702807,65.70625859,-59.9076411,1.1069466e-07,-0.0003972748838,0.9117493887,1.773860957e-05,
32000,-6.312005775,0.4835035991,98.81130426,98.81130426,2.872243827,-0.07406347165,0.477797376,44.31757124,27.72352512,34.57532756,-1.438480073e-07,0.0001719635716,1.247147591,8.810723357e-06,-19.77782954,0.1025908251,-143.6675138,-143.6675138,1.22863779,-0.08264639791,-0.06078199007,42.39239947,42.07604398,-5.169338023,9.621332459e-07,-2.571017809e-05,0.1228570354,3.07589322e-05,-20.26338114,0.09701322517,38.93200655,38.93200655,1.214871863,0.07546583451,0.06096288773,58.12971274,57.69432912,7.101259791,-7.00381639e-07,3.531876869e-05,0.1230841904,5.740210005e-06,-5.753939676,0.5155882556,-70.70497111,-70.70497111,3.128719056,0.170367119,-0.4866274695,65.8909216,39.68063574,-52.60285825,9.454984267e-08,-0.0002616251535,1.325655632,7.477485601e-06,
40000,-6.489487201,0.4737242752,70.45595668,70.45595668,2.800289289,0.1584756307,0.4464304687,65.16408766,42.73369525,49.19542267,-8.087893876e-08,0.0001957423674,1.151209189,7.029740231e-06,-14.06088787,0.1981324485,170.5195413,-189.4804587,1.494177494,-0.1954263229,0.03263463604,33.66729312,33.58986822,2.28196826,-1.743614776e-06,9.079663214e-06,0.06793620759,2.615670885e-05,-13.70531766,0.206411608,-7.118384394,-7.118384394,1.520198153,0.2048206342,-0.02557850131,75.73568895,75.62780163,-4.041064226,9.84610329e-07,-1.607888367e-05,0.05343358049,2.572257371e-05,-6.640814344,0.4655424446,-99.10390865,-99.10390865,2.742111941,-0.07366065216,-0.4596780135,44.2717304,28.71117689,-33.69947232,1.180693139e-07,-0.00013408594,1.173740542,6.982190771e-06,
48000,-13.73740113,0.2056505823,43.17065121,43.17065121,1.51778368,0.1499849139,0.1407007021,67.23453207,64.50754571,18.95412487,-1.749343747e-07,6.284672218e-05,0.2938280268,6.926567412e-06,-10.37943577,0.3027110061,67.83306041,-292.1669396,1.868251209,0.1142148256,0.2803371663,61.83162137,52.61593603,32.47634026,-1.02096725e-07,0.0001076827101,0.6172339164,2.457086698e-05,-10.44706337,0.3003632753,-107.6737015,-107.6737015,1.858626383,-0.09118901736,-0.2861864083,42.23080665,35.74511505,-22.48839212,1.474417541e-07,-7.456539101e-05,0.6291318994,2.445783669e-05,-13.22035441,0.2182640853,-121.8143978,-121.8143978,1.558408744,-0.1150621353,-0.1854721433,39.99379512,37.2667087,-14.51537362,2.284287038e-07,-4.812903046e-05,0.3894997472,6.812763645e-06,
56000,-10.74478603,0.2902422945,45.93567424,45.93567424,1.817863032,0.2018535119,0.2085563455,73.93312267,67.28245723,30.64600425,-9.273811137e-08,8.709755469e-05,0.4554828333,6.142113959e-06,-10.93013761,0.2841143172,3.462166572,-356.5378334,1.793742141,0.2835957779,0.01715750451,89.56831967,89.50598289,3.341094953,-8.506350747e-07,9.49556745e-06,0.03732817456,2.395230237e-05,-10.99675671,0.2819435504,-172.4746545,-172.4746545,1.785296339,-0.2795151775,-0.03692466851,28.17982106,28.08956919,-2.253534391,1.261153398e-06,-6.404663175e-06,0.08022673384,2.388904709e-05,-10.35300728,0.3036334654,-122.9248311,-122.9248311,1.87205071,-0.1650364105,-0.2548651888,36.60086802,31.9140953,-17.91965571,1.585997299e-07,-5.09286033e-05,0.5614965908,5.921376821e-06,
64000,-11.3601793,0.2703902548,11.32887475,11.32887475,1.741191456,0.265121913,0.0531155453,85.92866495,85.36980521,9.784263742,-2.54162812e-07,2.43314678e-05,0.1146103557,3.762521169e-06,-10.04304293,0.3146645754,-53.9593109,-413.9593109,1.918279033,0.1851359346,-0.2544375773,70.99638682,61.81792024,-34.91463415,7.122503347e-08,-8.682557205e-05,0.5647979423,2.045237568e-05,-10.20258239,0.3089376798,129.4172934,-230.5827066,1.894094992,-0.196164217,0.2386673207,34.37279603,30.39975763,16.04194012,-1.55018406e-07,3.989303228e-05,0.5276996057,2.027907811e-05,-11.36955847,0.2700984405,-156.8983064,-156.8983064,1.740095529,-0.2484392195,-0.1059769871,30.28885679,29.52695144,-6.75085064,3.683677981e-07,-1.678798827e-05,0.2286335131,3.734485436e-06,
72000,-16.46996674,0.1501418155,-2.069596102,-2.069596102,1.353333811,0.1500438777,-0.005422133219,67.65250753,67.64834441,-0.7505152086,2.945290509e-06,-1.659002852e-06,0.01109436181,3.428669674e-06,-10.04421007,0.3146222965,-113.4974272,-473.4974272,1.918099013,-0.1254423918,-0.2885331797,39.63217088,33.37400985,-21.37485521,1.034152185e-07,-4.724880367e-05,0.6404641007,1.921241126e-05,-10.26776747,0.3066278702,70.33384006,-289.6661599,1.884453981,0.1031922822,0.2887421058,60.51901914,51.03326482,32.52933384,-6.795359941e-08,7.190561494e-05,0.637414321,1.906783667e-05,-16.73876675,0.1455665747,-166.8297806,-166.8297806,1.340732397,-0.1417378042,-0.03316658755,37.59797697,37.51193583,-2.542153085,8.695327333e-07,-5.619392078e-06,0.06776917876,3.23724222e-06,
80000,-17.50850285,0.1332216651,12.99298154,12.99298154,1.307395004,0.1298108724,0.02995245303,64.90192034,64.78155622,3.950852823,-5.035461653e-07,7.859971953e-06,0.06098730956,1.957794421e-06,-10.98454255,0.2823403004,-168.2013525,-528.2013525,1.786836158,-0.2763750754,-0.05773095251,28.40790193,28.18692225,-3.536425602,5.625558155e-07,-7.035495193e-06,0.1254633468,1.819561623e-05,-11.65313754,0.261422596,18.90332645,-341.0966735,1.707908459,0.2473231739,0.08469369148,82.52910767,81.19798278,14.76283192,-1.347598346e-07,2.936972093e-05,0.1818127916,1.809903361e-05,-16.89476717,0.1429755058,-153.6385133,-153.6385133,1.333655588,-0.1281075451,-0.06348584216,38.6851278,38.36417844,-4.97281869,4.000622007e-07,-9.893108445e-06,0.1296214044,1.841314815e-06,
88000,-16.6006484,0.1478997978,-4.269222467,-4.269222467,1.347141797,0.1474894151,-0.01101011334,67.29808197,67.28103442,-1.514676187,1.194036663e-06,-2.73941139e-06,0.02251267686,1.193544556e-06,-10.770486,0.2893847893,143.9244652,-576.0755348,1.814462693,-0.2338927661,0.1704046074,31.50399296,29.52753031,10.9830108,-1.646705927e-07,1.986364158e-05,0.371958328,1.706874118e-05,-11.11187104,0.2782315967,-31.79451907,-391.7945191,1.77097195,0.2364810252,-0.1465931312,80.07701889,76.31615534,-24.25228625,7.457354247e-08,-4.386217316e-05,0.317787055,1.710096544e-05,-16.4146473,0.1511011031,-171.1710156,-171.1710156,1.355993166,-0.1493106856,-0.02319186391,37.01489043,36.97326049,-1.755027641,1.030513057e-06,-3.174105958e-06,0.04746748374,1.077927338e-06,
96000,-19.43915157,0.106670031,-15.76355174,-15.76355174,1.238814402,0.1026582786,-0.02897884299,61.42945583,61.3241649,-3.595113678,4.611436909e-07,-5.960209508e-06,0.05862474741,1.470173767e-06,-11.11369414,0.2781732042,95.31286919,-624.6871308,1.770747791,-0.02575723494,0.2769781515,47.66378827,40.86384609,24.53533767,-6.757045747e-08,4.067625282e-05,0.6004167501,1.63901683e-05,-11.53217964,0.2650885794,-80.14461112,-440.1446111,1.72141641,0.04537309973,-0.261176639,54.43542021,47.45807039,-26.66358057,6.217709532e-08,-4.420459008e-05,0.5618344856,1.653201327e-05,-19.54193897,0.1054151549,178.7573778,-181.2426222,1.235673912,-0.1053903642,0.00228604875,40.46582422,40.46539172,0.1870907349,-8.861283223e-06,3.101709924e-07,0.004623475197,1.350133867e-06,
104000,-21.12947225,0.08780644364,-4.878371077,-4.878371077,1.192517132,0.08748836214,-0.00746713028,59.58705311,59.58030568,-0.8967013513,1.706628399e-06,-1.372254351e-06,0.01505029793,8.876818572e-07,-11.53211075,0.265090682,48.95558897,-671.044411,1.721424196,0.1740701585,0.1999316124,70.07496563,64.37368522,27.68626844,-5.527418745e-08,4.236929305e-05,0.4300867403,1.604113093e-05,-11.98459537,0.2516345275,-126.3960935,-486.3960935,1.672491013,-0.1493108715,-0.202549251,37.46586647,34.38767164,-14.87209432,1.02899831e-07,-2.27593012e-05,0.4324833177,1.599923921e-05,-20.76355173,0.09158459167,-168.5498798,-168.5498798,1.201635927,-0.08976186563,-0.0181808941,41.76568484,41.73763318,-1.530492346,9.998978405e-07,-2.342167521e-06,0.03666936118,9.74680236e-07,
112000,-20.16355765,0.09813459112,-7.872946399,-7.872946399,1.217625801,0.09720959906,-0.01344216594,60.7655067,60.74313026,-1.648918212,8.617930636e-07,-2.343156109e-06,0.02714575632,7.257934645e-07,-11.86496209,0.2551243408,3.264662123,-716.7353379,1.685011888,0.2547103072,0.01452889149,84.16566571,84.12504249,2.61467213,-5.434816324e-07,3.715517804e-06,0.03108078228,1.56840992e-05,-12.32828188,0.2418721727,-171.8568774,-531.8568774,1.638077548,-0.2394334555,-0.03426030199,30.7014103,30.62042411,-2.228502115,6.376598291e-07,-3.166760065e-06,0.07277829029,1.562115917e-05,-19.64769502,0.1041394426,-174.3910089,-174.3910089,1.232490295,-0.1036408307,-0.01017849269,40.61007947,40.60148212,-0.835585725,1.700634938e-06,-1.187389272e-06,0.0205801779,9.280617141e-07,
120000,-21.36372001,0.08547005816,-20.99714388,-20.99714388,1.186915823,0.07979470011,-0.03062575187,58.66251597,58.55116481,-3.612738417,3.671152017e-07,-4.791543143e-06,0.06170224672,2.183443069e-07,-12.3670135,0.2407960313,-41.0437166,-761.0437166,1.634338178,0.181610483,-0.158115025,71.51221239,67.79426575,-22.75816453,5.827759926e-08,-3.018395317e-05,0.3356945352,1.543278431e-05,-12.6532825,0.2329892455,143.6725694,-576.3274306,1.607525368,-0.1877065651,0.1380225849,34.45415209,33.07399865,9.653973771,-1.373829289e-07,1.280398039e-05,0.2918901302,1.534468559e-05,-21.20393624,0.08705689794,171.3677824,-188.6322176,1.190717029,-0.08607072962,0.01306648311,42.07628951,42.06170919,1.107591555,-1.197455133e-06,1.468988924e-06,0.02633253798,3.349120584e-07,
128000,-24.42676789,0.06007054959,-18.15559122,-18.15559122,1.127819273,0.05707986823,-0.01871789441,56.0512652,56.01174584,-2.104437691,5.908457154e-07,-2.616653601e-06,0.03757136399,-4.435547585e-07,-12.63235027,0.2335514063,-85.53850644,-805.5385064,1.609437889,0.01816775036,-0.2328437077,51.75353312,46.42721227,-22.86792845,5.437300522e-08,-2.843393633e-05,0.4925544164,1.521480333e-05,-13.13212948,0.2204923499,99.87636539,-620.1236346,1.565722094,-0.03781944898,0.2172246893,46.51456313,42.311685,19.3216432,-6.435260088e-08,2.402449237e-05,0.4566502893,1.511269633e-05,-24.42872767,0.06005699757,175.434458,-184.565542,1.127788594,-0.05986643253,0.004780503434,44.35163383,44.34959211,0.4255616889,-2.921780849e-06,5.291425499e-07,0.00959561675,-4.792931127e-07,
136000,-23.97742392,0.06325994414,-2.881206684,-2.881206684,1.135064031,0.06317997713,-0.003179783371,56.74401603,56.74285935,-0.3623099003,3.229988839e-06,-4.239956733e-07,0.006385118842,-8.138327661e-08,-12.9422752,0.225364881,-128.8749208,-848.8749208,1.581860738,-0.1414440361,-0.1754506034,37.93999746,35.58621707,-13.15540049,8.895638985e-08,-1.539519865e-05,0.369676846,1.50502934e-05,-13.44081637,0.2127939036,56.7738126,-663.2261874,1.540630731,0.1165994863,0.1780050707,62.73602463,58.78214478,21.91958582,-5.338864266e-08,2.56515473e-05,0.3728953052,1.494282807e-05,-23.6130706,0.06596999784,-168.2853469,-168.2853469,1.141258841,-0.06459590326,-0.01339439796,43.93338136,43.9174877,-1.181639157,9.903674293e-07,-1.382821418e-06,0.02690589146,-5.247174796e-08,
144000,-22.65232455,0.07368579483,-10.54372647,-10.54372647,1.159094602,0.0724416503,-0.01348345883,57.80839065,57.78715268,-1.566848744,7.053920582e-07,-1.731748074e-06,0.02711413647,7.088912704e-07,-13.21491783,0.2184007415,-171.9129037,-891.9129037,1.558856061,-0.2162288259,-0.03072423707,32.23583301,32.16893258,-2.075742418,5.324565566e-07,-2.294199073e-06,0.06452630696,1.474377053e-05,-13.704754,0.2064250032,13.96967385,-706.0303262,1.520240693,0.2003197025,0.0498327076,74.96920219,74.56625067,7.762444024,-1.42383334e-07,8.579384284e-06,0.1041013053,1.478992956e-05,-22.23908818,0.07727617032,-177.6626235,-177.6626235,1.167495772,-0.07721187676,-0.003151600594,42.8323144,42.8314533,-0.2715971386,4.069419384e-06,-3.00180744e-07,0.006341067548,7.584038706e-07,
152000,-24.05073795,0.06272824003,-23.63115707,-23.63115707,1.133852833,0.05746815637,-0.02514444473,56.09311037,56.02175629,-2.828401194,3.701992477e-07,-2.961539678e-06,0.0504875495,-1.026351274e-07,-13.53307799,0.2105455662,145.4192571,-934.5807429,1.533395107,-0.1733478861,0.1194987274,35.40920846,34.35130288,8.590694603,-1.218844392e-07,8.995075729e-06,0.250083516,1.463615157e-05,-14.03851728,0.1986433981,-28.55080902,-748.550809,1.495767796,0.1744870956,-0.09493920738,70.90149657,69.5555145,-13.74964065,7.615268071e-08,-1.439686365e-05,0.1976786563,1.464312723e-05,-23.7782509,0.06472729457,168.6719163,-191.3280837,1.138413736,-0.06346630959,0.01271417356,44.03303853,44.0186896,1.124031788,-9.315323684e-07,1.176942206e-06,0.02553533053,1.248272859e-09,
160000,-27.28919746,0.04320560862,-17.98865032,-17.98865032,1.090313256,0.04109361955,-0.01334312737,54.28467044,54.26527889,-1.450845385,6.856129568e-07,-1.443182592e-06,0.0267361638,-1.361557785e-06,-13.86979857,0.2025396576,105.004109,-974.995891,1.507961705,-0.05243515086,0.1956345262,45.19300623,41.84413421,17.07267537,-5.826376784e-08,1.698250423e-05,0.4080064194,1.459961317e-05,-13.92108464,0.2013472803,-70.43630941,-790.4363094,1.504217354,0.06742204348,-0.1897234708,56.95982727,52.96802649,-20.94779447,4.74855907e-08,-2.083715648e-05,0.3954799879,1.45693975e-05,-27.10084305,0.04415275905,176.0348107,-183.9651893,1.092384551,-0.04404706827,0.003053180033,45.78116011,45.78030326,0.2800970553,-3.551334709e-06,2.786176931e-07,0.00611828746,-1.200582613e-06,
168000,-26.39680555,0.04788061525,2.319201075,2.319201075,1.100576915,0.04784139576,0.001937567729,55.02449975,55.02408471,0.2137157364,-4.432761329e-06,2.024637849e-07,0.003884039826,-9.452087781e-07,-14.08617128,0.1975565511,61.90599028,-1018.09401,1.492387473,0.09303326234,0.1742796689,59.92251736,56.33142711,20.43228835,-4.636538187e-08,1.935654577e-05,0.3627156172,1.462700107e-05,-14.60073996,0.186192851,-111.8842279,-831.8842279,1.457584702,-0.06940010043,-0.1727755881,43.68740938,41.13159625,-14.72350258,6.434276401e-08,-1.394832271e-05,0.3579608846,1.45445866e-05,-25.78636366,0.05136671789,-165.1520391,-165.1520391,1.108296259,-0.04965154324,-0.01316297689,45.2704944,45.25473204,-1.194525788,7.93076936e-07,-1.131635022e-06,0.02639559962,-6.115823444e-07,
176000,-24.50089119,0.05956010306,-3.912473443,-3.912473443,1.126664348,0.05942129515,-0.004063933991,56.31741371,56.31554031,-0.4593547949,1.968607837e-06,-4.153896946e-07,0.008156803475,4.464513042e-07,-14.32691414,0.1921561519,19.60930012,-1060.3907,1.475725977,0.1810116697,0.06448846504,71.98645106,71.34946583,9.555253104,-9.463793784e-08,8.640714569e-06,0.133921859,1.465332185e-05,-14.82141355,0.1815220228,-154.1629407,-874.1629407,1.443559944,-0.16337655,-0.079109719,36.03386939,35.56105672,-5.818160212,1.554253263e-07,-5.261300894e-06,0.1636104421,1.451254881e-05,-23.96127215,0.06337768806,-173.4622561,-173.4622561,1.135332433,-0.06296554719,-0.00721603838,44.07671765,44.07209103,-0.6386169534,1.416012282e-06,-5.774945732e-07,0.01449028032,8.457238756e-07,
184000,-25.31447751,0.05423456044,-17.05823911,-17.05823911,1.114689241,0.05184862358,-0.01590936137,55.46692758,55.438705,-1.769192664,4.889080394e-07,-1.530303032e-06,0.03191259003,5.613926114e-08,-14.58123386,0.1866114584,-22.51215396,-1102.512154,1.458849489,0.1723913544,-0.07144968382,70.6984902,69.93613316,-10.35440946,8.353663429e-08,-8.956279615e-06,0.1480552183,1.456603508e-05,-15.05782835,0.176647942,163.8704595,-916.1295405,1.429094554,-0.1696943811,0.04907456005,35.52310553,35.34219577,3.580534179,-2.415763888e-07,3.09706366e-06,0.1013104619,1.45024559e-05,-24.99532909,0.05626438102,172.2272355,-187.7727645,1.119237591,-0.05574743743,0.007609454085,44.7199142,44.71470326,0.6826700782,-1.267043253e-06,5.904908557e-07,0.01526723937,-3.383632841e-08,
192000,-28.14837601,0.0391364293,-14.72882901,-14.72882901,1.081460949,0.03785040424,-0.009950225971,53.93353636,53.92282716,-1.074734759,7.712898354e-07,-8.908820281e-07,0.01993097943,-1.383526825e-06,-14.82853885,0.1813731758,-63.79465351,-1143.794654,1.443115643,0.08009250407,-0.162731127,58.46147012,55.408006,-18.64661793,4.445481739e-08,-1.545677821e-05,0.3365329179,1.441092937e-05,-15.27989543,0.1721889305,122.705644,-957.294356,1.416010215,-0.09303767604,0.1448896775,41.64989882,39.90834552,11.91797087,-6.955311472e-08,9.879187374e-06,0.2986335493,1.434766749e-05,-28.12592951,0.03923769837,175.1667496,-184.8332504,1.081680346,-0.03909817425,0.003306016312,46.23733702,46.23632321,0.3061874828,-2.707269375e-06,2.53808601e-07,0.006622228187,-1.581255689e-06,
