Frequency,S11_Magnitude,S11_Magnitude (linear),S11_Phase,S11_Unwrapped Phase,S11_VSWR,S11_Real,S11_Imaginary,S11_Impedance (absolute),S11_Resistance,S11_Reactance,S11_Capacitance,S11_Inductance,S11_Quality Factor,S11_Group delay,S12_Magnitude,S12_Magnitude (linear),S12_Phase,S12_Unwrapped Phase,S12_VSWR,S12_Real,S12_Imaginary,S12_Impedance (absolute),S12_Resistance,S12_Reactance,S12_Capacitance,S12_Inductance,S12_Quality Factor,S12_Group delay,S21_Magnitude,S21_Magnitude (linear),S21_Phase,S21_Unwrapped Phase,S21_VSWR,S21_Real,S21_Imaginary,S21_Impedance (absolute),S21_Resistance,S21_Reactance,S21_Capacitance,S21_Inductance,S21_Quality Factor,S21_Group delay,S22_Magnitude,S22_Magnitude (linear),S22_Phase,S22_Unwrapped Phase,S22_VSWR,S22_Real,S22_Imaginary,S22_Impedance (absolute),S22_Resistance,S22_Reactance,S22_Capacitance,S22_Inductance,S22_Quality Factor,S22_Group delay,
0,-13.45349728,0.2124834631,-134.8940293,-134.8940293,1.53962921,-0.1499703505,-0.1505261309,37.21630488,35.49393841,-11.19078571,inf,-inf,0.3152872351,1.424487428e-05,-13.63059448,0.2081949907,-134.0582269,-134.0582269,1.525874397,-0.1447765149,-0.1496158911,37.60081981,35.88626863,-11.2248552,inf,-inf,0.3127897,4.460927904e-06,-16.07904275,0.157053588,-172.4919401,-172.4919401,1.372630065,-0.1557070876,-0.0205215105,36.53214443,36.49984159,-1.535949227,inf,-inf,0.04208098336,1.453568145e-05,-16.24555655,0.154071451,-171.9853699,-171.9853699,1.364265874,-0.152566558,-0.02148155927,36.76830905,36.73275638,-1.616526902,inf,-inf,0.04400777565,2.219871462e-05,
8000,-12.22068461,0.2448870218,-73.45131723,-73.45131723,1.648610284,0.06975115251,-0.2347433282,57.07696347,51.0626666,-25.50262414,7.800910124e-07,-0.0005073585868,0.4994377662,1.424487428e-05,-28.1926721,0.03893735036,36.51590376,36.51590376,1.081029786,0.0312936262,0.0231695104,53.2286643,53.17143397,2.467653437,-8.062059116e-06,4.909240529e-05,0.04640938288,4.460927904e-06,-17.47561101,0.1337271071,-99.56254531,-99.56254531,1.308741294,-0.02221530307,-0.1318689481,47.86311833,46.22538539,-12.4133735,1.602656029e-06,-0.0002469562192,0.2685401841,1.453568145e-05,-18.58726352,0.117662162,66.80899182,-293.1910082,1.266705466,0.04633508389,0.1081547242,54.7996371,53.52709606,11.74096303,-1.694440893e-06,0.0002335790379,0.219346161,2.219871462e-05,
16000,2.578110468,1.345567607,-116.3175287,-116.3175287,nan,-0.5965512571,-1.206100652,31.7802336,-10.12265349,-30.12499185,3.301970667e-07,-0.0002996588352,-2.975997536,1.424487428e-05,-19.70705021,0.1034302297,-10.16608529,-10.16608529,1.23072433,0.1018064016,-0.01825565699,61.33032411,61.28859887,-2.261924925,4.397663174e-06,-2.249978329e-05,0.03690612881,4.460927904e-06,-16.83641488,0.1439392568,-148.7642855,-148.7642855,1.336282812,-0.1230739933,-0.07464115369,39.09624627,38.64975091,-5.89179317,1.688311802e-06,-5.860675041e-05,0.1524406505,1.453568145e-05,-1.876627207,0.8056912361,31.86767076,-328.1323292,9.292896521,0.6842491743,0.4253721141,163.956516,62.51097631,151.572151,-6.562672546e-08,0.001507716067,2.424728583,2.219871462e-05,
24000,-7.54467433,0.4195331505,123.7664798,-236.2335202,2.445502533,-0.2331804533,0.3487620114,32.86668273,25.08546953,21.23530203,-3.122845135e-07,0.0001408209702,0.8465180212,2.018033714e-05,-22.23304718,0.07732993428,-68.87457719,-68.87457719,1.167622072,0.02787053846,-0.07213287615,52.85168256,52.30369658,-7.591025853,8.735915396e-07,-5.033955365e-05,0.1451336397,2.096690961e-05,-22.88411654,0.07174541846,132.8672607,-227.1327393,1.15458134,-0.04880856433,0.05258449504,45.35855081,45.1072085,4.768424575,-1.390701658e-06,3.162159758e-05,0.1057131384,2.453118259e-05,-6.170782408,0.4914291112,-49.66717006,-409.6671701,2.932588444,0.3180660297,-0.3746152321,88.05720906,62.64737162,-61.88197553,1.071629647e-07,-0.0004103675956,0.9877824708,1.576953002e-05,
32000,-6.663096077,0.4643497287,101.3708825,-258.6291175,2.733779496,-0.09155079571,0.4552352385,42.95891495,28.03913796,32.54650697,-1.528149235e-07,0.0001618730458,1.160752767,1.587080752e-05,-20.93901093,0.08975309916,-145.6003482,-145.6003482,1.197206053,-0.0740568018,-0.05070708941,43.12150267,42.89788908,-4.385784401,1.134025642e-06,-2.181310209e-05,0.1022377673,2.384654946e-05,-20.73549541,0.09188089761,41.97934394,-318.0206561,1.202354289,0.06830297384,0.06145570039,57.30129311,56.86606932,7.048996565,-7.055744638e-07,3.505883273e-05,0.1239578654,2.684177191e-05,-6.555257443,0.4701507442,-73.4087795,-433.4087795,2.774658505,0.1342475577,-0.4505766477,62.52482881,40.88819761,-47.30232038,1.051447779e-07,-0.0002352624409,1.156869785,1.265711414e-05,
40000,-7.16898251,0.4380774258,67.10762234,-292.8923777,2.559209208,0.1704127306,0.4035732056,67.09915464,47.4739226,47.4185958,-8.390956144e-08,0.0001886725979,0.9988345854,7.244572972e-06,-15.12493442,0.1752884411,162.3095369,-197.6904631,1.425090298,-0.1669994144,0.05326568502,35.72554292,35.5116986,3.903034695,-1.019430748e-06,1.552968162e-05,0.1099084203,2.479311927e-05,-14.88276244,0.1802444405,-8.183389374,-368.1833894,1.439751676,0.1784091085,-0.02565635083,71.69712412,71.59650191,-3.797172712,1.04785162e-06,-1.510847017e-05,0.05303572954,2.612390021e-05,-7.046937187,0.4442762942,-107.6340153,-467.6340153,2.598910716,-0.1345871621,-0.4234001906,39.77801977,27.36406627,-28.87037814,1.378185474e-07,-0.0001148715847,1.055047077,6.604859852e-06,
48000,-13.61745091,0.2085102719,43.47227168,-316.5277283,1.526880551,0.1513174506,0.1434557864,67.39812598,64.55654115,19.36389373,-1.712325025e-07,6.420540427e-05,0.2999524663,6.709567808e-06,-10.3668202,0.3031509894,70.85154549,-289.1484545,1.870062194,0.09943865276,0.2863782057,60.11244294,50.8441136,32.06839422,-1.033955102e-07,0.000106330072,0.6307198996,2.385804523e-05,-10.46038806,0.299902853,-104.7604759,-464.7604759,1.856746394,-0.07640887615,-0.2900058704,43.41851705,36.61441728,-23.33563949,1.420885844e-07,-7.73746328e-05,0.6373347228,2.432422056e-05,-13.21275726,0.2184550744,-121.4113502,-481.4113502,1.559033953,-0.1138541337,-0.1864399522,40.09149637,37.33159477,-14.61780125,2.268280929e-07,-4.846865264e-05,0.3915664827,6.088767659e-06,
56000,-10.77049674,0.2893844317,48.39393446,-311.6060655,1.814461277,0.1921528177,0.2163807846,72.43788389,65.49951714,30.93639081,-9.186761872e-08,8.792284855e-05,0.4723147919,5.773829594e-06,-10.95858304,0.2831853928,5.878558461,-354.1214415,1.790121713,0.2816961817,0.02900392906,89.16703763,88.99024572,5.612197964,-5.064063267e-07,1.595016156e-05,0.06306531596,2.317190552e-05,-11.07043873,0.2795619515,-169.9469924,-529.9469924,1.776088804,-0.2752697474,-0.04880011187,28.45829867,28.30012576,-2.99627189,9.485295925e-07,-8.515562182e-06,0.1058748613,2.360838521e-05,-10.34337281,0.3039704452,-120.7758666,-480.7758666,1.873441201,-0.155535907,-0.2611639585,37.30651318,32.33421691,-18.60844815,1.527291547e-07,-5.28861876e-05,0.5755032879,5.198917071e-06,
64000,-11.21038686,0.2750937079,14.10995005,-345.89005,1.758977294,0.2667940466,0.06706328966,86.14868644,85.25577732,12.37128167,-2.010136097e-07,3.07648536e-05,0.1451078398,4.324351841e-06,-10.07353284,0.3135619509,-50.94071027,-410.9407103,1.913591405,0.1975829877,-0.2434790751,72.86939536,64.11664192,-34.62665173,7.181739676e-08,-8.610941853e-05,0.5400571629,2.025809859e-05,-10.25080449,0.3072272796,132.5923694,-587.4076306,1.886949704,-0.2079246426,0.2261767989,33.5146611,29.98240895,14.97623658,-1.660494592e-07,3.724284502e-05,0.4995007775,2.091382938e-05,-11.22449637,0.2746472035,-154.5161082,-514.5161082,1.757278954,-0.2479257562,-0.1181689715,30.3668252,29.42083475,-7.520542237,3.306671125e-07,-1.870205425e-05,0.2556196077,3.721758804e-06,
72000,-16.27432573,0.1535619837,-1.354362999,-361.354363,1.362842832,0.1535190835,-0.003629574511,68.13586505,68.13398215,-0.5065395831,4.36389454e-06,-1.119698313e-06,0.007434463201,3.791213795e-06,-10.00316243,0.316112652,-110.4697747,-470.4697747,1.924458255,-0.1105487699,-0.2961522889,40.7818462,34.06721911,-22.41837553,9.860149403e-08,-4.955549002e-05,0.6580629741,1.907679322e-05,-10.23775018,0.3076893687,73.17944103,-646.820559,1.888876625,0.08903769888,0.2945251022,58.91853534,49.38522092,32.13244095,-6.879294743e-08,7.102828903e-05,0.6506489259,1.937180775e-05,-16.58086923,0.1482369732,-165.9460422,-525.9460422,1.348070927,-0.1437998653,-0.03599720783,37.44240865,37.34137405,-2.748772481,8.041718024e-07,-6.07612122e-06,0.07361198005,3.252147937e-06,
80000,-15.78997694,0.1623682661,6.0757539,-353.9242461,1.387684133,0.1614562149,0.01718559044,69.24739656,69.20428806,2.443040076,-8.143283477e-07,4.860273804e-06,0.03530185982,2.078507976e-06,-9.483677054,0.3355955144,-162.6909076,-522.6909076,2.010214475,-0.3203976005,-0.09984851954,25.93698348,25.304145,-5.694502467,3.493609495e-07,-1.13288527e-05,0.2250422793,1.819616635e-05,-9.295768032,0.3429348317,12.51716432,-707.4828357,2.04383811,0.3347836561,0.07432497837,99.8610663,98.47353316,16.58902738,-1.199248602e-07,3.300282135e-05,0.1684617871,1.811532953e-05,-15.81201334,0.1619568543,-152.4195892,-512.4195892,1.386511972,-0.1435523894,-0.07498489282,37.50950178,37.07241963,-5.709503224,3.484430625e-07,-1.135869576e-05,0.1540094572,1.880561005e-06,
88000,-16.41429075,0.1511073058,-2.182446116,-362.1824461,1.356010381,0.1509976972,-0.005754417049,67.78460084,67.77989994,-0.7982954368,2.265550842e-06,-1.443780282e-06,0.01177776063,9.644700758e-07,-10.73736284,0.2904904491,147.0478348,-572.9521652,1.818848594,-0.2437577927,0.1580089855,30.81038048,29.12447141,10.0520998,-1.799205076e-07,1.818001559e-05,0.3451427378,1.714915244e-05,-11.08169016,0.2792000502,-28.86342153,-748.8634215,1.774694977,0.2445158329,-0.1347763906,81.55936022,78.2827687,-22.88530891,7.902794346e-08,-4.138988679e-05,0.292341588,1.676925126e-05,-16.20971167,0.154708586,-168.6550563,-528.6550563,1.36604793,-0.1516856814,-0.03043354478,36.84007895,36.7686567,-2.292880637,7.887802223e-07,-4.146855538e-06,0.06235965202,1.055029568e-06,
96000,-19.16837545,0.1100477652,-15.40652325,-375.4065232,1.247311622,0.1060932168,-0.0292359364,61.85702127,61.7489533,-3.654838909,4.536079515e-07,-6.059225818e-06,0.05918867792,9.14335109e-07,-11.05508614,0.2800565232,98.27568954,-621.7243105,1.777995863,-0.04031030944,0.2771402806,46.39195177,39.75525365,23.91093884,-6.933496011e-08,3.964108448e-05,0.60145356,1.653612948e-05,-11.46488614,0.2671503166,-77.24694452,-797.2469445,1.729072613,0.05897328491,-0.2605598652,55.84391546,48.69984148,-27.32889192,6.066341788e-08,-4.530758581e-05,0.5611700385,1.586942865e-05,-19.22944004,0.1092768074,179.7583204,-540.2416796,1.24536648,-0.1092758352,0.0004609395913,40.14890521,40.14888773,0.03745974639,-4.425721342e-05,6.210316464e-08,0.0009330207761,1.272481397e-06,
104000,-21.14263581,0.08767347275,-4.501593518,-364.5015935,1.192197574,0.08740301335,-0.006881212258,59.57689374,59.57116476,-0.8261943148,1.852271268e-06,-1.264354896e-06,0.01386903073,9.333558431e-07,-11.47801606,0.2667467869,52.09913154,-667.9008685,1.727570728,0.1638617938,0.2104831605,68.58667029,62.47029484,28.31242844,-5.405173896e-08,4.332752824e-05,0.4532142598,1.606403223e-05,-11.91526885,0.2536509874,-123.4157228,-843.4157228,1.679711457,-0.1396880879,-0.2117216605,38.21562067,34.81620645,-15.75644096,9.712447091e-08,-2.411264869e-05,0.4525605332,1.599844012e-05,-20.73271356,0.09191032929,-167.2274228,-527.2274228,1.202425668,-0.08963603389,-0.02031969631,41.77690496,41.74186024,-1.71081598,8.945064865e-07,-2.618123269e-06,0.04098561899,9.513678031e-07,
112000,-20.07237653,0.09917019642,-5.931097969,-365.931098,1.220175212,0.09863932633,-0.01024749524,60.94209298,60.92904246,-1.261143145,1.126776356e-06,-1.792117549e-06,0.02069855514,8.720818526e-07,-11.83978998,0.2558647754,6.66317951,-713.3368205,1.687683547,0.2541365167,0.0296886201,84.02980441,83.86070527,5.328239972,-2.666971242e-07,7.571569013e-06,0.06353678943,1.567196763e-05,-12.2881084,0.2429934573,-168.7264576,-888.7264576,1.641985091,-0.2383049074,-0.04750359349,30.79265902,30.63688754,-3.09337539,4.593772493e-07,-4.395767716e-06,0.1009689834,1.560824709e-05,-19.49761235,0.1059544942,-171.4571381,-531.4571381,1.237022598,-0.1047789305,-0.01573945894,40.51799622,40.49747827,-1.289290829,1.102176674e-06,-1.832116148e-06,0.03183632374,9.645398181e-07,
120000,-21.13464608,0.08775415648,-20.36048289,-380.3604829,1.192391464,0.08227146791,-0.03053191032,58.95552589,58.84421291,-3.621138094,3.662636326e-07,-4.802683561e-06,0.06153770975,3.521364411e-07,-12.15127789,0.2468516902,-38.4679742,-758.4679742,1.65551947,0.1932740102,-0.1535607826,73.25242808,69.62346674,-22.77039962,5.824628528e-08,-3.020018047e-05,0.3270506438,1.539446146e-05,-12.75392155,0.2303052946,146.4987973,-933.5012027,1.598432841,-0.1920456517,0.1271180412,34.11287143,32.9461588,8.845259593,-1.499437273e-07,1.173138989e-05,0.2684762022,1.531748295e-05,-20.78177607,0.09139263452,173.2529766,-546.7470234,1.201170798,-0.09075970048,0.01073733736,41.68010803,41.67033825,0.9023943107,-1.469746846e-06,1.196837626e-06,0.02165555521,4.160961629e-07,
128000,-24.25046174,0.06130232031,-20.03505723,-380.0350572,1.130611424,0.05759249853,-0.02100187109,56.10834127,56.05853716,-2.363550505,5.260721065e-07,-2.938833954e-06,0.04216218661,-4.374976999e-07,-12.59277177,0.234618045,-82.11709142,-802.1170914,1.613074409,0.03217764652,-0.2324010028,53.14884991,47.69171256,-23.45849099,5.300417632e-08,-2.916824062e-05,0.4918777233,1.514520904e-05,-13.07257177,0.2220094247,103.0370373,-976.9629627,1.570725229,-0.05008107752,0.2162870092,45.4346137,41.35506261,18.81655968,-6.60799856e-08,2.339647254e-05,0.4550001498,1.506514598e-05,-24.05323074,0.06271024,175.6287474,-544.3712526,1.133811853,-0.0625278234,0.004779696782,44.11530951,44.11327803,0.423361085,-2.93696808e-06,5.264063234e-07,0.00959713501,-4.794983834e-07,
136000,-24.20368154,0.06163337113,-2.520378637,-362.5203786,1.131363093,0.06157374973,-0.002710310262,56.56133243,56.56049513,-0.307762068,3.802472936e-06,-3.601606943e-07,0.005441290203,-2.122633028e-07,-12.91825013,0.2259891005,-125.190978,-845.190978,1.583942941,-0.130238341,-0.1846863505,38.81993596,36.17591973,-14.08155744,8.31056465e-08,-1.647904024e-05,0.3892522303,1.49377161e-05,-13.39880786,0.2138255544,60.13077525,-1019.869225,1.543964652,0.1064898371,0.1854219035,61.47183048,57.29739725,22.26643688,-5.255699153e-08,2.605745216e-05,0.3886116639,1.486955296e-05,-23.58312566,0.06619782445,-166.7621503,-526.7621503,1.14178126,-0.06443880535,-0.01515890256,43.94753001,43.92716837,-1.337637059,8.748688045e-07,-1.565379044e-06,0.03045124711,-2.055280235e-07,
144000,-22.5796463,0.07430493956,-8.55118322,-368.5511832,1.160538697,0.07347892337,-0.01104861364,57.9295758,57.91528047,-1.286872225,8.588596746e-07,-1.422306081e-06,0.02221990836,7.675400556e-07,-13.17886025,0.2193092691,-168.0663288,-888.0663288,1.561833926,-0.2145694772,-0.04534859388,32.36499806,32.21908214,-3.06982831,3.600340308e-07,-3.392905208e-06,0.09527981886,1.467837721e-05,-13.6649819,0.2073723767,17.51945138,-1062.480549,1.523252964,0.1977533694,0.06242521534,74.52598405,73.89975104,9.641011061,-1.146397046e-07,1.065565671e-05,0.1304606704,1.463865404e-05,-21.98923114,0.07953136624,-174.544798,-534.544798,1.17280625,-0.07917115541,-0.007560844249,42.66409829,42.65915894,-0.6491847614,1.702508633e-06,-7.175066927e-07,0.01521794563,7.2842881e-07,
152000,-23.65549197,0.06564858978,-23.04582834,-383.0458283,1.140522268,0.06040930914,-0.0256992745,56.42478919,56.34976069,-2.908832239,3.599630051e-07,-3.045756773e-06,0.05162102204,1.356717288e-07,-13.49201959,0.2115431761,149.4035326,-930.5964674,1.536600533,-0.1820907412,0.1076730111,34.7505018,33.89977253,7.642172318,-1.370123507e-07,8.001904608e-06,0.2254343244,1.457866512e-05,-13.99534758,0.1996331323,-24.8639723,-1104.863972,1.498854064,0.1811288544,-0.08393882064,71.92434303,70.849523,-12.38774438,8.452483048e-08,-1.297086021e-05,0.1748458403,1.454176229e-05,-23.21629228,0.06905345072,171.2993528,-548.7006472,1.148351054,-0.06825879591,0.01044585265,43.61093098,43.60132545,0.9152703981,-1.144002905e-06,9.583540008e-07,0.02099180217,1.588884965e-07,
160000,-27.20889655,0.04360689582,-20.82490918,-380.8249092,1.091190318,0.04075810992,-0.01550283325,54.24792578,54.2217696,-1.684385067,5.905528455e-07,-1.67548881e-06,0.03106473801,-1.29197902e-06,-14.11577326,0.1968844139,109.2170214,-970.7829786,1.490301564,-0.06480395097,0.1859137444,44.10609945,41.13574454,15.91221323,-6.251288741e-08,1.58281712e-05,0.386822055,1.454020722e-05,-14.21805909,0.1945794831,-65.26220715,-1145.262207,1.483174886,0.08142494536,-0.1767233813,58.57097236,54.97865238,-20.1966974,4.925153726e-08,-2.00900264e-05,0.3673552647,1.451238856e-05,-26.44920172,0.0475926529,176.108621,-543.891379,1.099941801,-0.0474829281,0.003229883652,45.46699494,45.46604202,0.2943668103,-3.379179851e-06,2.928120809e-07,0.006474432285,-1.111693936e-06,
168000,-26.80091167,0.0457040216,1.662811449,-358.3371886,1.095785841,0.04568477586,0.00132621466,54.78716993,54.7869764,0.1456227678,-6.505513296e-06,1.379558531e-07,0.002657981464,-1.090825383e-06,-14.06624332,0.1980103239,66.23456921,-1013.765431,1.493797688,0.07979681113,0.1812196383,58.37104921,54.61437645,20.60216666,-4.598306902e-08,1.951748014e-05,0.3772297334,1.457124971e-05,-14.57714358,0.1866993564,-107.8797725,-1187.879773,1.459115231,-0.05732055798,-0.1776823101,44.73636763,41.98108857,-15.45738629,6.128790688e-08,-1.464356807e-05,0.3681987966,1.453614411e-05,-25.69773995,0.05189350474,-164.3768541,-524.3768541,1.109467671,-0.04997623963,-0.01397538214,45.24113786,45.22338054,-1.267441187,7.474515276e-07,-1.200711488e-06,0.02802623714,-6.992300057e-07,
176000,-24.55153015,0.05921387635,-2.301005234,-362.3010052,1.125881696,0.05916613166,-0.00237739705,56.28865275,56.28801199,-0.2685796235,3.366932449e-06,-2.428737198e-07,0.004771524415,4.445961464e-07,-14.31517219,0.1924160923,24.13916902,-1055.860831,1.476522849,0.175590232,0.07868940837,71.13514242,70.20377561,11.4733769,-7.881632909e-08,1.037525368e-05,0.1634296275,1.460624182e-05,-14.80423572,0.1818813689,-149.9510438,-1229.951044,1.44463324,-0.1574361245,-0.09107523846,36.49706256,35.86620266,-6.756558498,1.338387657e-07,-6.109884564e-06,0.1883823209,1.455373311e-05,-23.66828808,0.06555194705,-170.6983019,-530.6983019,1.140300891,-0.06468999967,-0.01059536243,43.92469632,43.91475227,-0.9346014689,9.675669036e-07,-8.451502477e-07,0.02128217559,8.631066689e-07,
184000,-24.98933488,0.05630322295,-16.5998948,-376.5998948,1.119324818,0.05395667911,-0.01608507677,55.70184076,55.67285634,-1.796699971,4.814229035e-07,-1.554096096e-06,0.03227245895,1.983908372e-07,-14.56192734,0.1870267094,-17.88353697,-1097.883537,1.460105422,0.1779900798,-0.0574327566,71.56368229,71.06205244,-8.458447057,1.022613857e-07,-7.316324239e-06,0.1190290284,1.458449306e-05,-15.03429924,0.1771271105,168.1599708,-1271.840029,1.430509044,-0.1733586037,0.03634291908,35.24256311,35.14375435,2.637192555,-3.279898979e-07,2.281099082e-06,0.07504014878,1.454486624e-05,-24.32528086,0.06077653786,174.7717263,-545.2282737,1.129418696,-0.06052368029,0.005538201694,44.29320395,44.29046693,0.4923978911,-1.756653577e-06,4.259106431e-07,0.01111746896,1.29253412e-07,
192000,-27.89259656,0.04030604373,-18.09574057,-378.0957406,1.083997703,0.03831245945,-0.0125192896,53.98322799,53.96625901,-1.353437214,6.124643144e-07,-1.12190741e-06,0.0250793225,-1.353575843e-06,-14.80879318,0.1817859612,-59.05380771,-1139.053808,1.444348184,0.09348031538,-0.1559088398,60.04045802,57.14279814,-18.42707846,4.498445031e-08,-1.527479491e-05,0.322474206,1.43803913e-05,-15.27372142,0.1723113675,127.1441644,-1312.855836,1.416367607,-0.1040454974,0.1373526187,40.73597908,39.19545744,11.096671,-7.47009617e-08,9.198385631e-06,0.2831111492,1.433240262e-05,-27.31504124,0.04307724676,174.1055948,-545.8944052,1.090032861,-0.04284949088,0.004423835362,45.89119181,45.88938902,0.4067690244,-2.037844441e-06,3.37183859e-07,0.00886411942,-1.426230045e-06,
