Frequency,S11_Magnitude,S11_Magnitude (linear),S11_Phase,S11_Unwrapped Phase,S11_VSWR,S11_Real,S11_Imaginary,S11_Impedance (absolute),S11_Resistance,S11_Reactance,S11_Capacitance,S11_Inductance,S11_Quality Factor,S11_Group delay,S12_Magnitude,S12_Magnitude (linear),S12_Phase,S12_Unwrapped Phase,S12_VSWR,S12_Real,S12_Imaginary,S12_Impedance (absolute),S12_Resistance,S12_Reactance,S12_Capacitance,S12_Inductance,S12_Quality Factor,S12_Group delay,S21_Magnitude,S21_Magnitude (linear),S21_Phase,S21_Unwrapped Phase,S21_VSWR,S21_Real,S21_Imaginary,S21_Impedance (absolute),S21_Resistance,S21_Reactance,S21_Capacitance,S21_Inductance,S21_Quality Factor,S21_Group delay,S22_Magnitude,S22_Magnitude (linear),S22_Phase,S22_Unwrapped Phase,S22_VSWR,S22_Real,S22_Imaginary,S22_Impedance (absolute),S22_Resistance,S22_Reactance,S22_Capacitance,S22_Inductance,S22_Quality Factor,S22_Group delay,
0,-13.40807742,0.213597482,-135.7714365,-135.7714365,1.543226852,-0.1530560445,-0.1489890318,36.98253026,35.30186865,-11.02205125,inf,-inf,0.3122228843,-1.848537721e-05,-13.57222813,0.2095987044,-134.9647288,-134.9647288,1.530360225,-0.1481174,-0.1482998742,37.34680076,35.66976351,-11.06578051,inf,-inf,0.310228592,5.330251137e-06,-16.70637774,0.1461103944,-164.2475004,-164.2475004,1.342223148,-0.1406229838,-0.03966640603,37.6887126,37.56548821,-3.045185183,inf,-inf,0.081063373,1.499392391e-05,-16.76981448,0.1450471754,-163.3577525,-163.3577525,1.33931036,-0.1389713899,-0.04154077367,37.81733852,37.68188173,-3.19794969,inf,-inf,0.08486703805,2.738858033e-05,
8000,-13.57324943,0.2095740607,64.27326156,64.27326156,1.530281334,0.09097181318,0.1887999367,59.62704766,55.45843917,21.9031125,-9.082895358e-07,0.000435748578,0.3949464289,-1.848537721e-05,-30.52673584,0.02976207508,66.80908781,66.80908781,1.061350055,0.01172018965,0.02735723429,51.18502062,51.1084413,2.798850374,-7.108049815e-06,5.568135901e-05,0.05476297658,5.330251137e-06,-24.76868492,0.05775183051,-111.5353964,-111.5353964,1.122583057,-0.02119930828,-0.05372023135,47.92992985,47.65384077,-5.137084284,3.872696414e-06,-0.0001021990446,0.1078000052,1.499392391e-05,-14.04540209,0.1984860072,-154.0110678,-154.0110678,1.495277709,-0.178414846,-0.08697607591,34.95946103,34.39998391,-6.229367724,3.193641597e-06,-0.0001239293332,0.1810863558,2.738858033e-05,
16000,7.572779709,2.391327099,-55.89115057,-55.89115057,nan,1.340977044,-1.979956026,76.30291886,-58.44736249,-49.0514143,2.027909712e-07,-0.0004879234407,-0.8392408521,-1.848537721e-05,-16.50833487,0.1494800575,16.58749995,16.58749995,1.351502769,0.1432594269,0.04267346013,66.6852411,66.43258493,5.79939999,-1.715209153e-06,5.768769846e-05,0.08729752118,5.330251137e-06,-18.90026126,0.1134976677,-118.3139697,-118.3139697,1.256057234,-0.05383226965,-0.09991900374,44.93983808,44.04629754,-8.916990518,1.115531515e-06,-8.869894491e-05,0.2024458585,1.499392391e-05,3.863573698,1.560194293,77.88298686,-282.1170131,nan,0.3274986553,1.525434647,60.64971591,-25.80241846,54.88736869,-1.812290183e-07,0.0005459747525,-2.127217988,2.738858033e-05,
24000,-7.319961252,0.4305285311,126.0551389,126.0551389,2.512028449,-0.2533933969,0.3480612051,31.6627292,24.07142461,20.56927169,-3.223962454e-07,0.0001364042194,0.8545099436,-4.600534258e-06,-21.99951757,0.07943723542,-72.03517953,-72.03517953,1.172584072,0.02450106394,-0.07556435824,52.4970196,51.90020211,-7.893420579,8.40124493e-07,-5.234487096e-05,0.1520884362,2.430881462e-05,-22.74146822,0.07293342164,129.8046461,-230.1953539,1.15734236,-0.0466899342,0.05602976028,45.55264541,45.26629122,5.099645354,-1.300375909e-06,3.381807359e-05,0.1126587846,2.634324273e-05,-6.78933458,0.4576497938,-50.52008951,-410.5200895,2.687654171,0.2909772298,-0.353235878,84.4817705,62.99367996,-56.29356831,1.178013077e-07,-0.0003733083192,0.8936383514,2.688999281e-05,
32000,-6.330591961,0.4824700976,99.52705671,99.52705671,2.864510999,-0.07985523722,0.4758156536,43.89223519,27.54862795,34.17018302,-1.455535655e-07,0.0001699485479,1.240358797,-4.409477158e-06,-19.87237234,0.101480216,-142.2982115,-142.2982115,1.225883098,-0.08029159783,-0.06206040249,42.59417369,42.26310797,-5.300314866,9.38357833e-07,-2.636160346e-05,0.1254123305,2.588335864e-05,-20.44138111,0.09504536534,39.16997406,-320.8300259,1.210055536,0.07368635247,0.06003284877,57.92379883,57.50326837,6.967108247,-7.138674749e-07,3.465155364e-05,0.121160213,2.975163547e-05,-5.661779015,0.5210879727,-69.49879834,-429.4987983,3.176132329,0.1824990909,-0.4880847847,67.1799903,40.17868763,-53.84072953,9.237601375e-08,-0.0002677818202,1.34003206,1.574078462e-05,
40000,-6.567098727,0.4695102346,52.81185123,52.81185123,2.770101009,0.2837881112,0.3740376563,82.74551712,59.70313664,57.29185002,-6.944920745e-08,0.0002279570282,0.9596120613,7.416187528e-06,-13.66419335,0.2073912038,156.205013,-203.794987,1.5233129,-0.1897619087,0.08367514226,34.14717971,33.63674484,5.882115129,-6.764358552e-07,2.340419246e-05,0.1748717112,2.48599685e-05,-14.4396019,0.1896792854,-29.62006369,-389.6200637,1.46815855,0.1648923585,-0.09374828763,69.53377457,68.25478775,-13.27515557,2.997233108e-07,-5.282016572e-05,0.1944941301,2.602890853e-05,-5.891493477,0.5074874727,-107.5360717,-467.5360717,3.060810414,-0.1529091071,-0.483903234,39.01180775,23.74551077,-30.95273594,1.28546749e-07,-0.0001231570232,1.303519484,6.762684586e-06,
48000,-13.55273011,0.2100697384,44.22696432,44.22696432,1.531869074,0.1505322838,0.1465241499,67.27428951,64.31947782,19.71889454,-1.681497903e-07,6.538249037e-05,0.3065773418,6.269616023e-06,-10.40766329,0.3017288486,69.74703932,-290.2529607,1.864216853,0.1044481287,0.2830739947,60.696176,51.51991398,32.08931667,-1.033280956e-07,0.0001063994452,0.6228526834,2.411719015e-05,-10.43429667,0.30080508,-107.0251657,-467.0251657,1.860432682,-0.08807323327,-0.2876226725,42.4813484,35.90299405,-22.7077075,1.460177334e-07,-7.529258115e-05,0.6324739232,2.363939251e-05,-13.17198276,0.2194829869,-120.2763206,-480.2763206,1.562404107,-0.1106569031,-0.1895463831,40.35261356,37.48866777,-14.93094806,2.220708268e-07,-4.950696228e-05,0.3982789721,6.558236911e-06,
56000,-10.69070284,0.2920551428,46.91208466,46.91208466,1.825078789,0.1995086375,0.2132897325,73.53303428,66.64227559,31.07916078,-9.14456016e-08,8.832860832e-05,0.4663580364,4.859719722e-06,-10.95738197,0.2832245541,3.958648726,-356.0413513,1.790274153,0.2825488185,0.01955283131,89.35951318,89.27885838,3.795792792,-7.487375394e-07,1.07878426e-05,0.04251614392,2.296852915e-05,-11.07677547,0.2793580732,-171.9140669,-531.9140669,1.775303414,-0.276580757,-0.03929399338,28.36258721,28.26010556,-2.408897403,1.179814695e-06,-6.846213019e-06,0.08524021248,2.230092483e-05,-10.28464763,0.3060325481,-122.5139864,-482.5139864,1.881979543,-0.164494169,-0.2580650864,36.65710691,31.85420649,-18.1398185,1.566748066e-07,-5.155431753e-05,0.5694638323,5.340019828e-06,
64000,-11.26682394,0.2733120647,12.19446927,12.19446927,1.752213024,0.2671451302,0.05773182934,86.27505915,85.6110956,10.6829837,-2.327810334e-07,2.656640098e-05,0.1247850366,3.600912758e-06,-10.0508153,0.314383131,-53.46256756,-413.4625676,1.917081085,0.1871673164,-0.2525968106,71.29791198,62.19189853,-34.86488218,7.132667115e-08,-8.670184905e-05,0.56060167,1.996585239e-05,-10.23799091,0.3076808413,129.9097236,-590.0902764,1.888841042,-0.1974018178,0.236008522,34.2736805,30.39107231,15.84512222,-1.569439447e-07,3.940358634e-05,0.5213742398,1.989384223e-05,-11.28091835,0.2728689267,-156.4484525,-516.4484525,1.750535733,-0.2501392069,-0.1090313182,30.191856,29.38723152,-6.92378453,3.591671542e-07,-1.721803958e-05,0.235605199,3.568985488e-06,
72000,-16.39469891,0.1514485272,-1.151865244,-1.151865244,1.356957785,0.1514179232,-0.00304449203,67.84343962,67.84212225,-0.4227869192,5.228367341e-06,-9.345642788e-07,0.006231923549,3.356735887e-06,-10.04529738,0.3145829141,-112.9370034,-472.9370034,1.917931346,-0.1225988754,-0.2897100716,39.84864712,33.51674958,-21.55324046,1.025593031e-07,-4.764312165e-05,0.6430587909,1.894537845e-05,-10.28489706,0.3060237602,70.77917415,-649.2208259,1.881943048,0.1007460474,0.2889650078,60.24316895,50.79531899,32.38942688,-6.824712673e-08,7.159635266e-05,0.6376458997,1.889900483e-05,-16.66069769,0.1468808292,-166.3462913,-526.3462913,1.344338363,-0.1427299994,-0.03467167805,37.52313349,37.42924972,-2.652699062,8.332966796e-07,-5.863752338e-06,0.07087235471,3.127792839e-06,
80000,-17.05330148,0.1403895965,16.40579556,16.40579556,1.326635406,0.1346736917,0.03965142588,65.53459611,65.32120164,5.284307244,-3.764801509e-07,1.051279523e-05,0.08089727548,1.998011121e-06,-11.40192872,0.2690937209,-159.3134091,-519.3134091,1.736328935,-0.2517443687,-0.09505894722,30.04223798,29.43043564,-6.032041188,3.298115392e-07,-1.200036465e-05,0.2049592898,1.824707039e-05,-11.19768605,0.2754962537,25.15688569,-694.8431143,1.760510226,0.2493646598,0.1171129893,82.58619797,80.0547178,20.29094017,-9.80455697e-08,4.036754285e-05,0.2534633901,1.814898653e-05,-17.03111035,0.1407487293,-149.7535592,-509.7535592,1.327607847,-0.1215881541,-0.07089799415,39.20837278,38.80444427,-5.613519497,3.544009761e-07,-1.11677422e-05,0.1446617675,1.892158162e-06,
88000,-16.43384437,0.1507675166,-3.530575257,-3.530575257,1.35506771,0.1504813717,-0.009284440731,67.71188355,67.69966386,-1.286346781,1.405980817e-06,-2.326459645e-06,0.01900078535,1.331145583e-06,-10.78169172,0.2890116931,144.0706198,-575.9293802,1.812985784,-0.2340245749,0.1695884933,31.49124512,29.5335744,10.9300733,-1.6546814e-07,1.976789993e-05,0.3700897544,1.741763523e-05,-11.13231309,0.2775775547,-31.68331756,-751.6833176,1.768463263,0.2362085261,-0.1457903669,80.04153823,76.32331109,-24.11223809,7.500667885e-08,-4.360888501e-05,0.3159223276,1.736188127e-05,-16.29896607,0.1531269726,-170.9016499,-530.9016499,1.361629117,-0.1512003842,-0.02421391205,36.87269224,36.82743649,-1.826295352,9.902992399e-07,-3.302999236e-06,0.04959061846,1.245395303e-06,
96000,-19.30257509,0.1083605612,-15.38753587,-15.38753587,1.243059148,0.1044761765,-0.02875308284,61.65560867,61.55148977,-3.581645895,4.628776934e-07,-5.937881757e-06,0.05818942659,1.670537398e-06,-11.11756675,0.2780492082,95.27580721,-624.7241928,1.770271911,-0.02556666381,0.2768712839,47.68054632,40.88320173,24.53565394,-6.756958648e-08,4.067677715e-05,0.6001402263,1.70110411e-05,-11.52866829,0.2651957657,-80.20443652,-800.2044365,1.721813385,0.04511860334,-0.2613294966,54.40910667,47.42777194,-26.66378326,6.217662267e-08,-4.420492611e-05,0.562197678,1.698771057e-05,-19.42029829,0.1069018166,178.5821493,-541.4178507,1.239395441,-0.1068690864,0.002645139818,40.34498258,40.3444049,0.2159004941,-7.678833702e-06,3.579336547e-07,0.005351435835,1.600993524e-06,
104000,-21.03129099,0.08880459752,-4.423695918,-4.423695918,1.194918888,0.08854004313,-0.006849620663,59.71358633,59.70789451,-0.8244547173,1.856179556e-06,-1.261692727e-06,0.01380813583,8.917440822e-07,-11.53812941,0.264907058,48.95444117,-671.0455588,1.720744393,0.1739535853,0.1997896383,70.0602135,64.36831657,27.66140521,-5.53238702e-08,4.233124396e-05,0.4297363467,1.612237781e-05,-11.98895073,0.2515083821,-126.551255,-846.551255,1.672040611,-0.1497837178,-0.2020428275,37.429016,34.36773938,-14.82530701,1.032245733e-07,-2.268770091e-05,0.4313727723,1.601942968e-05,-20.69404427,0.09232042318,-168.4478379,-528.4478379,1.203420735,-0.09045026934,-0.01848808571,41.70785731,41.67888295,-1.554373541,9.845355388e-07,-2.378713773e-06,0.0372940307,1.014054064e-06,
112000,-20.02865086,0.09967068821,-7.203382638,-7.203382638,1.221409404,0.09888401738,-0.0124978876,60.97158554,60.95216349,-1.538833729,9.234436772e-07,-2.186723166e-06,0.02524658095,7.618939179e-07,-11.89544524,0.2542305506,3.285688433,-716.7143116,1.681793953,0.2538126373,0.01457113639,84.00425721,83.9635156,2.615965849,-5.432128551e-07,3.717356212e-06,0.03115598281,1.573159435e-05,-12.33837592,0.2415912517,-172.0321778,-892.0321778,1.637100382,-0.2392589475,-0.03348863909,30.71189917,30.63450226,-2.17899556,6.521473946e-07,-3.09640995e-06,0.07112880574,1.565002676e-05,-19.56736913,0.1051069765,-174.034772,-534.034772,1.234904003,-0.1045378379,-0.01092323023,40.5366373,40.52675017,-0.8952563691,1.587284187e-06,-1.272182826e-06,0.0220905048,9.595589387e-07,
120000,-21.33035034,0.08579905079,-20.46376665,-20.46376665,1.187702826,0.08038457042,-0.0299966324,58.73250735,58.62553205,-3.543220404,3.743180048e-07,-4.699342015e-06,0.06043817907,2.627416604e-07,-12.3199135,0.2421053157,-42.09656122,-762.0965612,1.638889072,0.1796460367,-0.1623030666,71.1959039,67.30689084,-23.20860136,5.714653682e-08,-3.078136358e-05,0.3448176119,1.545349769e-05,-12.84101778,0.2280074886,143.5507657,-936.4492343,1.590698706,-0.1834054789,0.1354616003,34.74648517,33.40899607,9.54762868,-1.389131518e-07,1.266293583e-05,0.2857801731,1.537658815e-05,-21.02196548,0.08889999282,170.8044322,-549.1955678,1.195148704,-0.08775750612,0.01420664783,41.93376287,41.9165758,1.200475671,-1.104804724e-06,1.59218031e-06,0.02863964073,3.717238607e-07,
128000,-24.29430282,0.06099368309,-18.33877292,-18.33877292,1.129911124,0.0578959833,-0.01919073983,56.14298236,56.10136609,-2.16129395,5.753025833e-07,-2.68734856e-06,0.03852480075,-4.109973439e-07,-12.66205069,0.2327541674,-85.73365017,-805.7336502,1.606726443,0.01731529494,-0.2321092049,51.67043385,46.38473566,-22.76598409,5.461648344e-08,-2.830717892e-05,0.4908076712,1.520131807e-05,-13.13447797,0.2204327412,99.3841677,-980.6158323,1.565525909,-0.03594229485,0.217482746,46.68214594,42.45562155,19.40986729,-6.40600976e-08,2.413419003e-05,0.4571801467,1.514187891e-05,-24.3198111,0.06081482268,175.1383655,-544.8616345,1.129505499,-0.06059602727,0.005154040814,44.28674986,44.28437967,0.4581815587,-2.713766997e-06,5.697020305e-07,0.010346347,-4.756273504e-07,
136000,-23.88696469,0.06392220764,-2.639480688,-2.639480688,1.136574563,0.06385439093,-0.002943703059,56.82092581,56.81993299,-0.3358945024,3.484001454e-06,-3.930828707e-07,0.005911561044,-6.551615037e-08,-12.97894532,0.2244154402,-129.0662563,-849.0662563,1.578700123,-0.1414307968,-0.1742401203,37.93655156,35.61433762,-13.06908183,8.954392892e-08,-1.529418364e-05,0.3669612494,1.499660345e-05,-13.46357611,0.2122370471,56.31770291,-1023.682297,1.538834801,0.1177039812,0.1766078621,62.87915233,58.97432465,21.81322604,-5.364896197e-08,2.552707904e-05,0.3698766569,1.496697279e-05,-23.55131255,0.06644072652,-168.3872302,-528.3872302,1.142338528,-0.0650807121,-0.01337426833,43.89062848,43.87479597,-1.178790205,9.927609929e-07,-1.379487412e-06,0.02686713816,-9.738600802e-08,
144000,-22.54337313,0.07461589346,-10.19716387,-10.19716387,1.161264696,0.07343728859,-0.013209701,57.92427595,57.90384464,-1.53834976,7.184599298e-07,-1.700249781e-06,0.02656731637,6.378881891e-07,-13.2488649,0.2175488315,-172.1284442,-892.1284442,1.556070053,-0.2154989939,-0.0297939207,32.28430583,32.22133819,-2.015383017,5.484032816e-07,-2.227487288e-06,0.06254808555,1.489631829e-05,-13.74572316,0.2054536411,13.54129726,-1066.458703,1.517159606,0.1997423188,0.04810618139,74.88480489,74.50981954,7.48470412,-1.476668473e-07,8.272414294e-06,0.1004525869,1.480034208e-05,-22.15364659,0.07804007362,-177.5899069,-537.5899069,1.169291683,-0.07797104232,-0.003281714337,42.76694313,42.76601066,-0.2824116189,3.913587779e-06,-3.12133369e-07,0.006603646554,7.214947488e-07,
152000,-23.90447698,0.06379345901,-23.59113861,-23.59113861,1.136280738,0.0584618975,-0.02553060817,56.20488057,56.13115583,-2.877836751,3.63839955e-07,-3.013302265e-06,0.05126986445,-1.060167116e-07,-13.56829801,0.2096935632,145.1497462,-934.8502538,1.530663938,-0.1720846711,0.1198259422,35.50102235,34.43557944,8.632117722,-1.212995499e-07,9.038448716e-06,0.2506743856,1.4718912e-05,-14.07036895,0.1979162951,-29.05220724,-1109.052207,1.493505339,0.1730139902,-0.09610941208,70.68295229,69.30960185,-13.86574326,7.551502827e-08,-1.451843144e-05,0.2000551567,1.465565473e-05,-23.66030944,0.06561218912,168.570927,-551.429073,1.140438881,-0.06431114882,0.01300136526,43.95844964,43.94346744,1.147590472,-9.124091038e-07,1.201609844e-06,0.02611515519,5.424602305e-09,
160000,-26.95311945,0.04491010057,-17.04853388,-17.04853388,1.094043714,0.04293660488,-0.01316681795,54.48547238,54.46651409,-1.437200064,6.921224256e-07,-1.42960934e-06,0.026386856,-1.336290848e-06,-13.60696086,0.2087622443,102.6513652,-977.3486348,1.527685245,-0.04572270078,0.2036936653,45.79482974,42.13196079,17.94615032,-5.542795399e-08,1.785136583e-05,0.425950988,1.461060872e-05,-14.40196736,0.1905029178,-71.0558032,-1151.055803,1.470669807,0.06184622222,-0.180184368,56.37103294,52.80022911,-19.7440918,5.038055962e-08,-1.96398113e-05,0.3739395101,1.458280758e-05,-27.02859292,0.04452155804,176.2697625,-543.7302375,1.093192177,-0.04442723568,0.002896525481,45.74629265,45.74552201,0.2655324705,-3.74612714e-06,2.641300327e-07,0.005804556575,-1.177261347e-06,
168000,-26.33437769,0.048225986,2.312844963,2.312844963,1.101339153,0.04818669981,0.00194619814,55.06260078,55.06218172,0.2148234561,-4.409904156e-06,2.035131841e-07,0.003901470108,-9.024746352e-07,-14.13401516,0.1964713556,61.59150614,-1018.408494,1.489021411,0.0934721528,0.1728118926,59.97944018,56.44287305,20.29126232,-4.668762528e-08,1.922294464e-05,0.3595008763,1.456558231e-05,-14.64883965,0.185164624,-112.425175,-1192.425175,1.454483518,-0.07063596623,-0.1711621986,43.57898719,41.07471382,-14.56008274,6.506493599e-08,-1.379350679e-05,0.3544780083,1.455397798e-05,-25.71403333,0.05179625183,-165.3951792,-525.3951792,1.109251312,-0.05012260919,-0.01306046523,45.22775265,45.21224799,-1.184162919,8.000173255e-07,-1.12181775e-06,0.02619119757,-5.917379733e-07,
176000,-24.41355587,0.06016199185,-3.906567444,-3.906567444,1.128026301,0.06002220402,-0.004098815345,56.38537715,56.38346887,-0.4638898882,1.949362278e-06,-4.194907316e-07,0.008227409514,5.280440237e-07,-14.37624636,0.1910678787,19.25791024,-1060.74209,1.472395331,0.1803763878,0.06301819554,71.89756945,71.29020617,9.325609726,-9.696839949e-08,8.433050484e-06,0.1308119337,1.452086804e-05,-14.87202763,0.1804673406,-154.764648,-1234.764648,1.44041525,-0.1632442904,-0.07693999412,36.03944381,35.59201377,-5.661277765,1.597323938e-07,-5.119433753e-06,0.1590603387,1.451834204e-05,-23.89076271,0.06389426291,-173.6542904,-533.6542904,1.136510782,-0.06350278884,-0.007062056582,44.0291836,44.02475648,-0.624359576,1.448347209e-06,-5.646017772e-07,0.01418201089,8.870596225e-07,
184000,-25.21034888,0.05488865085,-17.16648708,-17.16648708,1.116152771,0.0524434252,-0.01620034396,55.53305892,55.50375626,-1.803794292,4.795294679e-07,-1.560232488e-06,0.03249859853,1.181016134e-07,-14.63955049,0.185362755,-22.89791162,-1102.897912,1.455080482,0.1707560936,-0.07212286359,70.45960853,69.68641134,-10.40963539,8.309344987e-08,-9.004048526e-06,0.1493782675,1.454593247e-05,-15.11410898,0.1755070438,163.2249322,-1276.775068,1.425733276,-0.168038373,0.05065399924,35.64607063,35.45291666,3.705813162,-2.334096402e-07,3.205426537e-06,0.1045277374,1.446133018e-05,-24.90712046,0.05683867917,172.0539803,-547.9460197,1.120528011,-0.05629295674,0.007857383267,44.6710185,44.66546788,0.7041823564,-1.228335969e-06,6.090983851e-07,0.01576569976,1.627374148e-07,
192000,-28.07997193,0.03944585769,-14.9127018,-14.9127018,1.082131461,0.03811728381,-0.01015127396,53.96235363,53.95120093,-1.097053832,7.555982862e-07,-9.093830218e-07,0.02033418743,-1.351539439e-06,-14.88259915,0.1802478289,-64.20442568,-1144.204426,1.43976176,0.07843692554,-0.1622865631,58.27342408,55.24746872,-18.53399994,4.472493784e-08,-1.536342555e-05,0.3354723822,1.440082516e-05,-15.34661305,0.170871388,122.0550178,-1317.944982,1.412171008,-0.09068714435,0.1448201405,41.84343652,40.0968928,11.96295816,-6.929155684e-08,9.916478777e-06,0.2983512518,1.432651712e-05,-28.04706952,0.03959556313,174.7715242,-545.2284758,1.082456019,-0.03943081516,0.003608245447,46.2065469,46.20534,0.333964007,-2.482099801e-06,2.768334507e-07,0.007227822737,-1.477051633e-06,
