Frequency,S11_Magnitude,S11_Magnitude (linear),S11_Phase,S11_Unwrapped Phase,S11_VSWR,S11_Real,S11_Imaginary,S11_Impedance (absolute),S11_Resistance,S11_Reactance,S11_Capacitance,S11_Inductance,S11_Quality Factor,S11_Group delay,S12_Magnitude,S12_Magnitude (linear),S12_Phase,S12_Unwrapped Phase,S12_VSWR,S12_Real,S12_Imaginary,S12_Impedance (absolute),S12_Resistance,S12_Reactance,S12_Capacitance,S12_Inductance,S12_Quality Factor,S12_Group delay,S21_Magnitude,S21_Magnitude (linear),S21_Phase,S21_Unwrapped Phase,S21_VSWR,S21_Real,S21_Imaginary,S21_Impedance (absolute),S21_Resistance,S21_Reactance,S21_Capacitance,S21_Inductance,S21_Quality Factor,S21_Group delay,S22_Magnitude,S22_Magnitude (linear),S22_Phase,S22_Unwrapped Phase,S22_VSWR,S22_Real,S22_Imaginary,S22_Impedance (absolute),S22_Resistance,S22_Reactance,S22_Capacitance,S22_Inductance,S22_Quality Factor,S22_Group delay,
0,-13.26058487,0.2172554883,-135.4134542,-135.4134542,1.555112134,-0.1547273831,-0.1525102754,36.87130686,35.11579046,-11.24164269,inf,-inf,0.3201307031,-1.85052901e-05,-13.49654519,0.2114329847,-134.6804835,-134.6804835,1.536246078,-0.1486696412,-0.150337104,37.31238645,35.59110841,-11.20210625,inf,-inf,0.3147445176,-3.154803414e-06,-16.46982623,0.1501442444,-164.2531958,-164.2531958,1.353340537,-0.1445093872,-0.04074716105,37.39236189,37.26307467,-3.106765744,inf,-inf,0.08337384317,-1.687260191e-05,-16.75255234,0.1453357256,-163.9164998,-163.9164998,1.340100154,-0.1396471362,-0.04026351313,37.76420942,37.63707021,-3.096200758,inf,-inf,0.08226465932,-1.01497787e-05,
8000,-11.17784621,0.2761262466,59.37606765,59.37606765,1.762912719,0.140658959,0.2376147329,65.34107293,58.10303226,29.89136084,-6.655557769e-07,0.0005946697292,0.5144544041,-1.85052901e-05,-28.27735421,0.03855957952,-177.3185053,-177.3185053,1.080212104,-0.03851735822,-0.001803964749,46.29113206,46.29082988,-0.1672627438,0.0001189408199,-3.327586558e-06,0.003613301905,-3.154803414e-06,-19.91678209,0.1009626859,28.83629665,28.83629665,1.22460177,0.08844344565,0.04869518324,59.67709302,59.39029935,5.843609643,-3.404465579e-06,0.00011625492,0.09839333539,-1.687260191e-05,-12.40795383,0.239663727,-156.5066131,-156.5066131,1.630415082,-0.219797064,-0.09554031953,32.12136264,31.48098288,-6.381978912,3.117272583e-06,-0.0001269654363,0.2027248938,-1.01497787e-05,
16000,-3.509922894,0.6675808271,114.5524134,114.5524134,5.01650014,-0.27739685,0.607219193,33.36664802,13.8552241,30.35401069,-3.277057534e-07,0.0003019369278,2.190798971,-1.85052901e-05,-13.51180542,0.2110618444,-137.2263857,-137.2263857,1.535052952,-0.154928402,-0.1433328029,36.82544961,35.27208145,-10.5827222,9.39945673e-07,-0.0001052682844,0.3000311229,-3.154803414e-06,-26.57236471,0.04692256716,94.29118371,94.29118371,1.098465383,-0.003510994501,0.0467910272,49.65089062,49.43394891,4.63633845,-2.145482702e-06,4.611851138e-05,0.09378855122,-1.687260191e-05,9.520396136,2.992401108,-111.9021623,-111.9021623,nan,-1.116233832,-2.776416111,39.80041642,-32.63522088,-22.78191179,4.366263917e-07,-0.0002266158672,-0.6980774506,-1.01497787e-05,
24000,-7.352088196,0.4289390546,121.5664152,121.5664152,2.502253159,-0.2245438314,0.3654706285,33.54140032,24.98386786,22.3792735,-2.963213244e-07,0.0001484071667,0.8957489537,5.489291124e-07,-23.02725258,0.07057280363,-59.42957262,-59.42957262,1.151863005,0.0358931222,-0.060763512,53.70871877,53.31255799,-6.51134641,1.018446193e-06,-4.317970697e-05,0.1221353215,3.21947224e-06,-22.65838674,0.07363438485,115.6325848,115.6325848,1.15897478,-0.03185412904,0.06638777821,46.92606614,46.51341353,6.20951248,-1.067951145e-06,4.117810856e-05,0.1334993932,6.101439499e-06,-6.60636243,0.4673926499,-48.63528789,-48.63528789,2.755111528,0.3088763178,-0.3507867009,87.41802931,65.05242863,-58.39600481,1.135600969e-07,-0.0003872505342,0.8976760136,-4.253704575e-06,
32000,-6.03202567,0.499342713,99.96754938,99.96754938,2.994748607,-0.08643142198,0.4918056062,43.50025434,26.39058128,34.58047639,-1.438265892e-07,0.0001719891797,1.310334017,6.219020255e-06,-20.60635667,0.09325715594,-148.1957807,-148.1957807,1.205697032,-0.07925495629,-0.04914823535,42.67301457,42.46475837,-4.210756392,1.181163551e-06,-2.094258419e-05,0.09915884497,1.748556955e-05,-20.79743679,0.09122800139,35.31412759,35.31412759,1.200772034,0.07444160041,0.05273515304,58.018658,57.69327729,6.135994728,-8.105600139e-07,3.051793412e-05,0.1063554545,2.021033055e-05,-5.750088933,0.5158168837,-71.69534913,-71.69534913,3.13066861,0.1620023624,-0.4897165426,64.95888323,38.9535234,-51.98345434,9.567644233e-08,-0.0002585444912,1.334499419,2.277564696e-06,
40000,-7.652114167,0.4143757117,58.76392045,58.76392045,2.415158899,0.2148809628,0.3543069323,73.45871858,55.81899125,47.75378049,-8.332059862e-08,0.0001900062554,0.8555113488,7.329423035e-06,-14.48410593,0.1887099084,141.805792,-218.194208,1.465209449,-0.1483107786,0.1166847997,37.23909828,36.19444122,8.758588088,-4.542825325e-07,3.484931472e-05,0.2419871061,2.734754938e-05,-14.35264574,0.1915877393,-29.53590407,-29.53590407,1.473985239,0.1666903284,-0.09444679075,69.78561499,68.48141736,-13.42860885,2.962982704e-07,-5.343073694e-05,0.196091281,2.664843914e-05,-7.573633588,0.418136732,-115.3566738,-115.3566738,2.437233642,-0.1790678592,-0.3778531837,36.4951014,26.91375226,-24.6483745,1.614253945e-07,-9.807276604e-05,0.9158282452,7.099622287e-06,
48000,-12.48120039,0.237651183,56.39976912,56.39976912,1.623470983,0.131514954,0.1979441883,64.47876843,59.45705988,24.94733671,-1.329090965e-07,8.271858238e-05,0.4195857777,7.462149286e-06,-11.15470558,0.2768628727,50.36373047,-309.6362695,1.765727169,0.1766140421,0.2132147519,70.29480429,63.81774151,29.47296014,-1.125006774e-07,9.772431862e-05,0.4618301971,2.538839453e-05,-11.1868888,0.2758389305,-124.1533318,-124.1533318,1.761816513,-0.1548586022,-0.2282672313,37.18247303,33.33489697,-16.47182275,2.012969682e-07,-5.46160836e-05,0.4941315034,2.549527046e-05,-11.89149954,0.2543460649,-111.3384009,-111.3384009,1.682209408,-0.09255032432,-0.2369100213,41.94609063,37.41853257,-18.95594734,1.74917556e-07,-6.285276501e-05,0.5065924834,7.011346959e-06,
56000,-9.873643851,0.3208616463,37.80661362,37.80661362,1.944908043,0.2535077362,0.1966876298,82.18234081,75.26367888,33.00478424,-8.611032069e-08,9.380133139e-05,0.4385220698,5.273215247e-06,-11.1048761,0.278455753,-12.5140393,-372.5140393,1.771832785,0.2718404639,-0.06033546709,87.13215277,86.39607131,-11.30180992,2.514687979e-07,-3.212033777e-05,0.1308139335,2.383901539e-05,-11.18856994,0.2757855474,171.6287909,-188.3712091,1.761612935,-0.2728472217,0.04015048849,28.59331242,28.48592967,2.47574757,-1.147957324e-06,7.036204707e-06,0.0869112435,2.421373159e-05,-9.649822279,0.3292371898,-131.0483229,-131.0483229,1.981679916,-0.2162085195,-0.2482962006,33.11782636,28.93284903,-16.11461045,1.763649555e-07,-4.57985698e-05,0.5569659052,4.601552044e-06,
64000,-12.49352212,0.2373142921,2.991253078,2.991253078,1.622312152,0.2369909545,0.0123838909,81.05343228,81.02552998,2.126587985,-1.16938307e-06,5.288390464e-06,0.02624590034,4.766703369e-06,-10.09997249,0.312608927,-76.62874629,-436.6287463,1.909551896,0.07229388284,-0.3041347328,57.08313223,47.33191874,-31.90883035,7.793441373e-08,-7.935075121e-05,0.6741503661,2.193436404e-05,-10.32403649,0.3046478906,107.5998855,-252.4001145,1.876240646,-0.09211576899,0.2903877104,42.17438269,35.51918227,22.73909071,-1.09362156e-07,5.65474795e-05,0.6401918416,2.173701701e-05,-12.61009499,0.2341505867,-164.8129208,-164.8129208,1.611479444,-0.225973017,-0.06134079239,31.62727409,31.36417353,-4.071005485,6.108554742e-07,-1.01237601e-05,0.1297979518,4.724750816e-06,
72000,-16.99038617,0.1414101853,9.533878922,9.533878922,1.329401032,0.1394570048,0.02342187737,66.19516982,66.11967775,3.16049386,-6.994113637e-07,6.986225284e-06,0.04779959563,3.539969794e-06,-10.54935085,0.2968468588,-137.9797913,-497.9797913,1.844330606,-0.2205301352,-0.1987071138,32.52463798,29.81607592,-12.99437156,1.70110983e-07,-2.872386759e-05,0.4358176307,2.05452483e-05,-10.78024371,0.2890598776,45.90975241,-314.0902476,1.813176436,0.2011251321,0.2076157366,73.83803678,67.25650907,30.47322863,-7.253859928e-08,6.736062457e-05,0.4530896571,2.038868471e-05,-16.83426153,0.1439749457,-154.8817633,-154.8817633,1.336380214,-0.1303597728,-0.06111558419,38.50604292,38.20954742,-4.76925856,4.634861568e-07,-1.054237604e-05,0.1248185043,3.424932641e-06,
80000,-15.24324684,0.1729169863,1.895607957,1.895607957,1.418136955,0.1728223583,0.005719845741,70.89216438,70.88723584,0.835922426,-2.379929915e-06,1.663014827e-06,0.01179228413,1.839565814e-06,-10.0438979,0.3146336041,157.2417643,-562.7582357,1.918147157,-0.2901379231,0.1217139695,27.78916973,26.82730038,7.248027928,-2.744797355e-07,1.441949341e-05,0.2701735853,1.895870788e-05,-10.89245037,0.2853497403,-14.30685748,-374.3068575,1.798571711,0.2764999497,-0.07051419769,87.93482752,86.91642757,-13.34423133,1.490859038e-07,-2.654750473e-05,0.1535294501,1.892313394e-05,-14.76378077,0.1827304658,-167.4580925,-167.4580925,1.447173076,-0.1783700486,-0.03968058621,34.88384618,34.76686407,-2.854450401,6.969596626e-07,-5.67874864e-06,0.08210261343,1.511414652e-06,
88000,-17.0301781,0.1407638365,-12.62112884,-12.62112884,1.327648771,0.1373624545,-0.03075733651,65.90576408,65.7763583,-4.128005361,4.381241643e-07,-7.465823389e-06,0.06275819257,1.67785299e-06,-11.31102156,0.2719248653,114.6991299,-605.3008701,1.746969241,-0.1136246962,0.2470476893,40.3331739,35.58492882,18.98625181,-9.525729021e-08,3.433813439e-05,0.5335475562,1.758782883e-05,-11.65519906,0.261360557,-61.01489745,-421.0148974,1.707681019,0.1266506722,-0.2286240319,63.67087821,57.15837535,-28.05175323,6.447293629e-08,-5.073380897e-05,0.4907724032,1.767717646e-05,-17.29831519,0.1364847852,-179.0447671,-179.0447671,1.316114373,-0.1364658174,-0.002275363373,37.99214355,37.99173509,-0.1761717494,1.026599841e-05,-3.186205085e-07,0.004637107228,1.431889698e-06,
96000,-20.14383191,0.09835770897,-12.42099076,-12.42099076,1.218174569,0.09605550347,-0.02115606692,60.62095341,60.56569831,-2.587697941,6.406713722e-07,-4.290051234e-06,0.04272547024,1.313235956e-06,-11.77489056,0.2577837114,64.0263996,-655.9736004,1.69463232,0.1128981737,0.2317465086,61.99174884,55.52493845,27.56733819,-6.013870397e-08,4.57028973e-05,0.4964857046,1.664015399e-05,-12.20096822,0.2454435303,-111.4309183,-471.4309183,1.650563716,-0.08967994926,-0.228473266,42.14905271,37.90559999,-18.43117288,8.994891435e-08,-3.055637782e-05,0.4862387848,1.689177902e-05,-20.23811778,0.097295804,-174.4957899,-174.4957899,1.215565197,-0.09684718792,-0.00933250598,41.17111056,41.16380312,-0.7756656963,2.137343444e-06,-1.285948227e-06,0.01884339243,1.098217244e-06,
104000,-19.92212936,0.1009005497,-7.468904782,-7.468904782,1.224448029,0.1000444644,-0.01311587095,61.11445482,61.09300479,-1.61905945,9.452006169e-07,-2.477704949e-06,0.02650155212,9.705993035e-07,-12.23346264,0.2445270272,15.36315583,-704.6368442,1.64734818,0.2357890914,0.06478403668,80.67559055,79.92027393,11.01366089,-1.389488933e-07,1.685460165e-05,0.1378080973,1.681174621e-05,-12.66958909,0.2325522499,-160.0795582,-520.0795582,1.606040606,-0.2186378646,-0.07923404,32.1553455,31.71339622,-5.312884732,2.880423854e-07,-8.130498722e-06,0.1675280911,1.681771678e-05,-19.44965264,0.106541147,-171.9821263,-171.9821263,1.238491446,-0.1054996651,-0.01486057371,40.4587617,40.44049184,-1.215737677,1.258771543e-06,-1.860487123e-06,0.03006238604,1.118171521e-06,
112000,-20.39821888,0.09551884356,-19.59110185,-19.59110185,1.211212457,0.08998921355,-0.03202797089,59.87758224,59.7528566,-3.862768825,3.678776396e-07,-5.489096005e-06,0.06464575996,2.188259188e-07,-12.65549688,0.2329298547,-32.7084662,-752.7084662,1.607323479,0.1959943878,-0.1258670615,73.88805225,71.40193527,-19.00547038,7.476932952e-08,-2.700727283e-05,0.266175844,1.646036692e-05,-13.10118532,0.2212792721,151.9838551,-568.0161449,1.568314838,-0.1953487201,0.1039393756,33.80966029,33.02981924,7.219707038,-1.968260305e-07,1.025939342e-05,0.218581488,1.643272366e-05,-20.14455038,0.09834957353,173.1962588,-186.8037412,1.218154554,-0.09765697367,0.01165135648,41.10425357,41.09287908,0.9669283143,-1.469629399e-06,1.374030543e-06,0.02353031318,4.58755597e-07,
120000,-23.18824376,0.06927679894,-23.01270327,-23.01270327,1.148866599,0.06376362661,-0.02708273978,56.80528014,56.72133047,-3.087154167,4.296161191e-07,-4.094465382e-06,0.05442668819,-7.90629281e-08,-13.25354156,0.2174317302,-79.0225826,-799.0225826,1.55568757,0.04140380261,-0.2134532324,54.12292668,49.3910893,-22.13168521,5.992725722e-08,-2.935305917e-05,0.4480906481,1.620780816e-05,-13.54004159,0.2103768367,105.1025943,-614.8974057,1.532853762,-0.05481331121,0.2031105963,44.99963678,41.41407319,17.60232519,-7.534749973e-08,2.334580886e-05,0.4250324547,1.612414059e-05,-23.40864854,0.06754101343,171.0075387,-188.9924613,1.144866454,-0.06671086109,0.01055696492,43.74677214,43.73693477,0.9276905,-1.429669909e-06,1.230387739e-06,0.02121068852,-2.553266286e-08,
128000,-23.70055768,0.06530886194,-7.800184743,-7.800184743,1.139744263,0.06470458535,-0.008863638215,56.91750722,56.90848924,-1.013153872,1.22725484e-06,-1.259753491e-06,0.01780321153,3.164820613e-09,-13.55773824,0.2099486507,-125.8100149,-845.8100149,1.531481026,-0.1228408367,-0.1702602854,39.33914508,37.0581148,-13.2009266,9.419020577e-08,-1.641400564e-05,0.3562222923,1.599863059e-05,-14.02677896,0.1989120312,59.34678474,-660.6532153,1.496604715,0.1014134368,0.1711178278,60.9262491,57.39148427,20.45055898,-6.080019592e-08,2.5428184e-05,0.3563343804,1.587684769e-05,-23.684539,0.06542941691,-172.5967029,-172.5967029,1.140020279,-0.06488398088,-0.008430754515,43.90735205,43.90105795,-0.7434206754,1.672536202e-06,-9.243677757e-07,0.01693400365,-2.299132642e-08,
136000,-22.30295509,0.07671004639,-12.22585717,-12.22585717,1.166166752,0.07497029518,-0.01624457014,58.10231208,58.07130803,-1.897854669,6.166209425e-07,-2.220977587e-06,0.03268145204,5.364949519e-07,-13.89278393,0.202004388,-171.4785073,-891.4785073,1.506279445,-0.1997743298,-0.02993309076,33.3619491,33.29715957,-2.078175349,5.631175131e-07,-2.431999114e-06,0.06241299188,1.581100495e-05,-14.39497108,0.1906564254,14.05135247,-705.9486475,1.471138417,0.1849517009,0.04628974902,72.63051799,72.29763903,6.945756494,-1.684851658e-07,8.128319702e-06,0.09607169178,1.566962482e-05,-22.26952928,0.07700581756,-178.7179751,-178.7179751,1.166860895,-0.07698654129,-0.001722904217,42.85169082,42.85143337,-0.1485386492,7.878467595e-06,-1.738283843e-07,0.003466363609,3.505427927e-07,
144000,-23.31714483,0.06825630251,-25.03009831,-25.03009831,1.146513044,0.06184605653,-0.02887885254,56.58643671,56.49140615,-3.278086328,3.371609378e-07,-3.623080854e-06,0.05802805331,2.839764568e-07,-14.28105764,0.1931733085,143.1392156,-936.8607844,1.478847095,-0.1545570801,0.1158794033,36.77087501,35.74950092,8.606418145,-1.284207485e-07,9.512180486e-06,0.2407423299,1.563215172e-05,-14.79436835,0.1820881075,-31.11713069,-751.1171307,1.445251155,0.1558879249,-0.094101189,68.27127893,67.01347515,-13.04460328,8.472796273e-08,-1.441745203e-05,0.1946564217,1.548267355e-05,-23.63308909,0.06581813094,168.3900908,-191.6099092,1.140910744,-0.06447152217,0.01324572342,43.94433276,43.92878655,1.168800388,-9.456214014e-07,1.29180805e-06,0.0266067078,-5.636084766e-09,
152000,-25.98488041,0.05020604137,-22.12327379,-22.12327379,1.105719858,0.04650965825,-0.0189076249,54.87599998,54.83660773,-2.078900192,5.036663126e-07,-2.17675817e-06,0.03791080955,-5.475633894e-07,-14.65278617,0.1850805118,98.82433089,-981.1756691,1.454230177,-0.02839236434,0.1828897741,47.32618487,44.25803018,16.76289172,-6.246368535e-08,1.755195446e-05,0.3787536782,1.548511732e-05,-15.17734799,0.1742338769,-75.3080454,-795.3080454,1.421993279,0.04418956518,-0.1685370173,54.48958124,51.46841186,-17.89181501,5.852240219e-08,-1.873401842e-05,0.3476271049,1.540816636e-05,-26.46374758,0.04751301838,175.4663256,-184.5336744,1.099766232,-0.04736435247,0.003755666497,45.47781886,45.47653017,0.3423622398,-3.058374646e-06,3.584779131e-07,0.007528328095,-7.185456403e-07,
160000,-25.83014962,0.05110842754,-6.94073741,-6.94073741,1.107722376,0.05073388829,-0.006176078373,55.34432272,55.34007896,-0.6853595377,1.451381851e-06,-6.817397389e-07,0.01238450596,-3.788871719e-07,-14.93547425,0.1791539085,53.9355813,-1026.064419,1.436510353,0.1054669158,0.1448200698,61.51716354,58.93499295,17.63598637,-5.640276498e-08,1.754284004e-05,0.2992447353,1.538634996e-05,-15.86895667,0.1608985634,-118.9240154,-838.9240154,1.383502057,-0.07781847589,-0.1408283796,42.91121939,41.222632,-11.91920136,8.345512119e-08,-1.185624884e-05,0.2891421723,1.536156167e-05,-25.42545937,0.05354599971,-169.6076937,-169.6076937,1.113150771,-0.05266761517,-0.009659005986,44.99719247,44.98875034,-0.8715922243,1.141265797e-06,-8.669888178e-07,0.01937355934,-1.639754473e-07,
168000,-24.23752612,0.06139368391,-13.38562481,-13.38562481,1.130818817,0.05972586259,-0.0142128731,56.35059348,56.3276686,-1.607213897,5.894366974e-07,-1.522595455e-06,0.02853329345,3.599002039e-07,-15.29250306,0.1719391784,10.13762041,-1069.86238,1.41528152,0.1692548333,0.03026355004,70.3507597,70.21432053,4.379335867,-2.163229495e-07,4.148767564e-06,0.06237097837,1.530795144e-05,-15.78724368,0.162419368,-163.9228008,-883.9228008,1.387829808,-0.1560670547,-0.04497916757,36.52434278,36.36943028,-3.360380405,2.819177407e-07,-3.183459239e-06,0.09239573946,1.531847742e-05,-23.89882504,0.06383498313,-179.3720256,-179.3720256,1.136375494,-0.06383114904,-0.0006996314678,43.99988244,43.99983902,-0.06181925149,1.532452802e-05,-5.856452055e-08,0.001404988129,8.192403167e-07,
176000,-25.24514145,0.05466922629,-23.94294753,-23.94294753,1.115661582,0.04996494014,-0.02218623583,55.25654297,55.20189976,-2.456787392,3.680780242e-07,-2.221646918e-06,0.04450548628,1.847517868e-07,-15.60885086,0.1657896662,-34.08086852,-1114.080869,1.397476894,0.1373148749,-0.09290230652,65.75650835,64.58826042,-12.33997595,7.328129758e-08,-1.115891005e-05,0.1910560196,1.519398701e-05,-16.08754723,0.1568998898,151.983759,-928.016241,1.372197531,-0.1385134948,0.07369930242,37.89271396,37.46731061,5.662014378,-1.59711613e-07,5.120099864e-06,0.1511187829,1.522936807e-05,-25.27621849,0.05447397605,168.1705128,-191.8294872,1.1152247,-0.05331705859,0.01116715404,44.93877664,44.92750586,1.006411195,-8.985288056e-07,9.100870258e-07,0.02240078046,3.078157281e-07,
184000,-27.40299652,0.04264323795,-18.80473167,-18.80473167,1.089085364,0.04036705462,-0.01374578641,54.20568045,54.18513347,-1.492348297,5.796049878e-07,-1.290840263e-06,0.02754165583,-7.126401329e-07,-15.91642298,0.1600216893,-77.60194495,-1157.601945,1.38101386,0.03435700446,-0.1562899143,53.47006201,50.9144245,-16.33306183,5.295838133e-08,-1.41276496e-05,0.3207943916,1.540389171e-05,-16.38865046,0.1515540257,108.6519926,-971.3480074,1.357250857,-0.04846989076,0.1435941934,45.46644612,43.62103961,12.82195873,-6.746024807e-08,1.109064191e-05,0.2939397787,1.519857572e-05,-27.90002895,0.04027156922,174.7801618,-185.2198382,1.083922843,-0.04010456133,0.003663802317,46.14422968,46.14298688,0.3386668141,-2.554051595e-06,2.929374866e-07,0.007339507844,-9.997950655e-07,
192000,-26.58861751,0.046834849,-6.891609712,-6.891609712,1.098272265,0.04649646365,-0.00561978191,54.87621897,54.87273785,-0.6181014465,1.341093764e-06,-5.123640653e-07,0.01126427204,-2.66496673e-07,-16.19530919,0.1549653282,-120.9880489,-1200.988049,1.366766793,-0.07978533593,-0.132847857,42.73056338,41.23006835,-11.22419306,7.38522574e-08,-9.304092752e-06,0.2722331908,1.526641208e-05,-16.65713573,0.1469410753,65.48568774,-1014.514312,1.344503928,0.06096886951,0.133695462,56.37102503,54.3769263,14.86076546,-5.577989894e-08,1.231856396e-05,0.273291752,1.513885604e-05,-26.91385591,0.04511357091,-171.1163339,-171.1163339,1.09448992,-0.04457238538,-0.006966831573,45.73315254,45.72869559,-0.6384676718,1.298314749e-06,-5.292462811e-07,0.01396207925,-5.308012449e-07,
