Frequency,S11_Magnitude,S11_Magnitude (linear),S11_Phase,S11_Unwrapped Phase,S11_VSWR,S11_Real,S11_Imaginary,S11_Impedance (absolute),S11_Resistance,S11_Reactance,S11_Capacitance,S11_Inductance,S11_Quality Factor,S11_Group delay,S12_Magnitude,S12_Magnitude (linear),S12_Phase,S12_Unwrapped Phase,S12_VSWR,S12_Real,S12_Imaginary,S12_Impedance (absolute),S12_Resistance,S12_Reactance,S12_Capacitance,S12_Inductance,S12_Quality Factor,S12_Group delay,S21_Magnitude,S21_Magnitude (linear),S21_Phase,S21_Unwrapped Phase,S21_VSWR,S21_Real,S21_Imaginary,S21_Impedance (absolute),S21_Resistance,S21_Reactance,S21_Capacitance,S21_Inductance,S21_Quality Factor,S21_Group delay,S22_Magnitude,S22_Magnitude (linear),S22_Phase,S22_Unwrapped Phase,S22_VSWR,S22_Real,S22_Imaginary,S22_Impedance (absolute),S22_Resistance,S22_Reactance,S22_Capacitance,S22_Inductance,S22_Quality Factor,S22_Group delay,
0,-13.56087831,0.2098727651,-135.5163008,-135.5163008,1.531237896,-0.1497336887,-0.1470591717,37.22239928,35.57660934,-10.94586113,inf,-inf,0.307670161,-2.104164999e-05,-13.79144328,0.204375031,-134.5291004,-134.5291004,1.513747152,-0.1433223707,-0.1456978083,37.69750043,36.06672779,-10.9678022,inf,-inf,0.3040975122,-5.173924852e-07,-16.49069195,0.1497839925,-162.8225021,-162.8225021,1.352343384,-0.1431027912,-0.04423613412,37.50303603,37.35038429,-3.380311329,inf,-inf,0.09050271885,-1.510737223e-05,-16.69067581,0.1463747646,-162.1523013,-162.1523013,1.342948541,-0.1393304164,-0.04486208623,37.79284055,37.6349766,-3.450700359,inf,-inf,0.0916886543,2.477569566e-05,
8000,-13.04104707,0.2228166531,-21.96533485,-21.96533485,1.573395336,0.2066424657,-0.08334357962,75.81058908,74.67072571,-13.09687512,1.519016384e-06,-0.0002605540519,0.1753950427,-2.104164999e-05,-23.21873859,0.06903400517,-130.187449,-130.187449,1.14830618,-0.04454697794,-0.05273765851,45.74663016,45.49186481,-4.821245442,4.126395995e-06,-9.59156305e-05,0.1059803871,-5.173924852e-07,-26.54808577,0.04705390934,52.85967661,52.85967661,1.098754609,0.02840969925,0.03750945711,52.91980947,52.77086699,3.967597684,-5.014209975e-06,7.893284796e-05,0.07518537994,-1.510737223e-05,-13.29337911,0.2164367703,118.1219236,-241.8780764,1.552442386,-0.1020173382,0.190885668,41.04187081,38.09939666,15.26011579,-1.303683941e-06,0.0003035903574,0.4005343161,2.477569566e-05,
16000,-9.123374243,0.3498092488,173.1974778,173.1974778,2.076020378,-0.3473466949,0.04143409358,24.2572386,24.14982272,2.280282206,-4.362260038e-06,2.268238655e-05,0.09442231655,-2.104164999e-05,-37.92464533,0.01269894768,114.0826299,-245.9173701,1.02572457,-0.005181852618,0.01159360494,49.48455498,49.47125345,1.147285352,-8.670191707e-06,1.141225843e-05,0.02319094973,-5.173924852e-07,-29.38801007,0.03393122167,-60.37390359,-60.37390359,1.070245975,0.01677348692,-0.02949538846,51.70445509,51.61451931,-3.048290175,3.263201129e-06,-3.032190309e-05,0.05905877292,-1.510737223e-05,-11.62666398,0.2622205966,-12.67344486,-372.6734449,1.7108374,0.2558319411,-0.05752963743,84.21545915,83.57991814,-10.32670533,9.63248551e-07,-0.0001027216374,0.1235548629,2.477569566e-05,
24000,-7.539602908,0.4197781745,124.3513084,124.3513084,2.446957546,-0.2368663809,0.3465660592,32.62513768,24.96403051,21.00468493,-3.157131841e-07,0.0001392916431,0.8413979835,-3.377546875e-06,-20.00623027,0.09992829706,-76.63177282,-76.63177282,1.222045192,0.02310426412,-0.09722066412,52.34239401,51.36116526,-10.08746322,6.573958011e-07,-6.689456809e-05,0.1964025381,2.381664033e-06,-22.75766893,0.07279751483,103.182459,103.182459,1.157026143,-0.0166016771,0.07087921051,48.37497654,47.89108372,6.825134059,-9.716228143e-07,4.526057595e-05,0.1425136691,2.074655374e-06,-6.055705113,0.4979832605,-45.98350462,-405.9835046,2.983930898,0.3460313567,-0.358119572,93.40465458,67.63620939,-64.41872924,1.029429801e-07,-0.0004271899661,0.9524296205,1.786487489e-05,
32000,-6.946380919,0.4494495543,94.32513748,94.32513748,2.632727964,-0.03389578484,0.4481695857,47.25527777,31.42216552,35.29460002,-1.409165132e-07,0.0001755409393,1.123238944,1.003664444e-05,-21.06495118,0.08846112154,-153.8564867,-153.8564867,1.194091823,-0.07941094772,-0.03897783223,42.65352757,42.52247699,-3.341012608,1.48864807e-06,-1.661683349e-05,0.07857050776,3.415424665e-05,-21.74687181,0.08178175188,29.56226675,29.56226675,1.178131402,0.07113540636,0.04034859233,57.64485115,57.45555889,4.667720751,-1.065529032e-06,2.321533845e-05,0.08124054211,8.899385106e-06,-6.132022681,0.4936269541,-76.86960474,-436.8696047,2.949657305,0.1121362317,-0.4807213697,60.00022644,37.09711894,-47.15751201,1.0546765e-07,-0.0002345422231,1.271190684,8.799333268e-06,
40000,-7.349217879,0.4290808241,66.10751032,66.10751032,2.503122831,0.1737870633,0.3923116239,67.65692942,48.7659482,46.89714697,-8.484255086e-08,0.0001865978189,0.9616781524,7.305660792e-06,-14.20422316,0.1948896798,149.4861472,-210.5138528,1.484131615,-0.1678987112,0.09895458593,35.74679768,35.01355479,7.203091357,-5.523841612e-07,2.866018988e-05,0.2057229379,2.611762977e-05,-13.92267523,0.2013104125,-21.98344594,-21.98344594,1.504101758,0.1866735447,-0.07535827675,72.78704427,71.90532195,-11.29506477,3.522665571e-07,-4.494163475e-05,0.1570824587,2.577512852e-05,-7.621486963,0.4158394156,-107.0341949,-467.0341949,2.423716104,-0.1218169914,-0.3975965797,40.4975113,29.19324564,-28.06782554,1.417592386e-07,-0.0001116783294,0.9614492984,7.040108383e-06,
48000,-12.3113822,0.2423432289,57.79169695,57.79169695,1.639717714,0.1291686737,0.2050504678,64.1390353,58.80048208,25.61872669,-1.294259477e-07,8.494472892e-05,0.4356890587,7.34357916e-06,-11.27463681,0.2730663339,49.2025182,-310.7974818,1.751282673,0.1784180836,0.2067177065,70.61069037,64.46964701,28.8016355,-1.151229062e-07,9.549838874e-05,0.4467472188,2.546642789e-05,-11.24953099,0.2738567505,-125.9420966,-125.9420966,1.754277481,-0.1607449728,-0.221717328,36.7278321,33.11889663,-15.87678611,2.088412578e-07,-5.264310396e-05,0.4793875318,2.554551196e-05,-12.01143546,0.2508581567,-108.8584988,-468.8584988,1.669721386,-0.08108539695,-0.2373920243,42.87345042,38.24462165,-19.37734931,1.711135991e-07,-6.425001929e-05,0.5066686104,6.967348815e-06,
56000,-9.818420368,0.3229081315,37.41651323,37.41651323,1.953808919,0.2564664044,0.1962005219,82.68652292,75.73774024,33.17914672,-8.565779523e-08,9.429687871e-05,0.4380794385,5.806922144e-06,-11.18276342,0.2759699716,-14.25514398,-374.255144,1.76231637,0.2674725267,-0.06795493106,86.26749682,85.34885833,-12.55601008,2.263499741e-07,-3.568484052e-05,0.1471139781,2.456229592e-05,-11.2792947,0.2729199388,169.77279,-190.22721,1.750728712,-0.2685836227,0.04845751345,28.87021446,28.7132209,3.006697306,-9.452406632e-07,8.545191761e-06,0.1047147346,2.488015763e-05,-9.832657854,0.3223792698,-131.3666183,-491.3666183,1.951503564,-0.2130523107,-0.2419444286,33.27959262,29.28275395,-15.81302013,1.79728637e-07,-4.494143426e-05,0.5400113716,5.158696034e-06,
64000,-12.5483978,0.2358197149,2.923096128,2.923096128,1.617183456,0.2355128856,0.01202574974,80.80048343,80.77429224,2.05714247,-1.208859387e-06,5.115693638e-06,0.02546778701,4.192044527e-06,-10.23326121,0.3078484274,-78.70240273,-438.7024027,1.889540498,0.06030905279,-0.3018832099,55.84883608,46.46240196,-30.98931582,8.024688252e-08,-7.706410618e-05,0.6669761896,2.090610846e-05,-10.40163279,0.3019384079,105.8287765,-254.1712235,1.865076696,-0.08235777158,0.2904892418,42.94442722,36.18305493,23.13029106,-1.075125246e-07,5.752031496e-05,0.6392575503,2.109972506e-05,-13.12212538,0.2207464514,-165.033216,-525.033216,1.566558732,-0.2132577844,-0.05700976387,32.47189859,32.24112893,-3.86442799,6.435094644e-07,-9.610044012e-06,0.1198601947,4.041890106e-06,
72000,-17.07439607,0.1400490594,9.922131864,9.922131864,1.325714068,0.1379543233,0.02413179873,65.9921211,65.91229985,3.244807515,-6.812377346e-07,7.17259938e-06,0.04922916546,3.149226885e-06,-10.64876095,0.2934688111,-140.2584535,-500.2584535,1.830731369,-0.225658783,-0.1876221115,32.12856612,29.72067723,-12.20352842,1.811349344e-07,-2.697572044e-05,0.4106073468,2.006763491e-05,-10.8951125,0.285262297,43.85684754,-316.1431525,1.798229325,0.2056949816,0.1976465347,74.63340305,68.55571019,29.50016019,-7.49312989e-08,6.520967105e-05,0.4303093077,2.013578014e-05,-17.12956357,0.1391623716,-153.2320592,-513.2320592,1.323318514,-0.1242494482,-0.06267567536,38.98731169,38.67264205,-4.943402672,4.471586612e-07,-1.092731904e-05,0.127826867,3.048729278e-06,
80000,-15.68156486,0.1644075497,11.17344644,11.17344644,1.393511334,0.1612912157,0.03185884725,69.20703211,69.05910522,4.522530249,-4.39894634e-07,8.997288055e-06,0.06548781995,1.729364002e-06,-11.68983147,0.2603205341,171.1562111,-548.8437889,1.703873897,-0.257225628,0.04002195364,29.56808967,29.45969513,2.529484099,-7.864990295e-07,5.032248722e-06,0.08586253482,1.903749428e-05,-11.32473554,0.2714958672,-6.820166296,-366.8201663,1.745351619,0.2695747006,-0.03224107179,86.84999252,86.64031599,-6.031322082,3.298508621e-07,-1.199893404e-05,0.06961334355,1.903202567e-05,-16.11410523,0.1564208849,-156.1289959,-516.1289959,1.370850539,-0.1430404656,-0.06330022458,37.53058727,37.21848383,-4.830056136,4.118868876e-07,-9.609091368e-06,0.1297757361,1.507989913e-06,
88000,-17.18611271,0.1382593035,-12.05752908,-12.05752908,1.320883774,0.135209075,-0.02888149972,65.61953971,65.5060545,-3.857566013,4.688393906e-07,-6.976712492e-06,0.05888869422,1.952876071e-06,-11.41867847,0.2685753044,111.8416065,-608.1583935,1.73438949,-0.09992128693,0.2492958695,41.40579691,36.47348063,19.59911295,-9.22786099e-08,3.544654212e-05,0.5373524166,1.823738947e-05,-11.77519529,0.2577746675,-63.85797257,-423.8579726,1.694599487,0.1135749437,-0.2314055128,62.07425986,55.61507004,-27.57132064,6.559638266e-08,-4.986490871e-05,0.4957526911,1.812100206e-05,-17.81076225,0.1286654335,-179.7204299,-539.7204299,1.295329575,-0.1286639018,-0.0006278099473,38.60033923,38.60030776,-0.04928318737,3.669768526e-05,-8.913253273e-08,0.001276756332,1.90801475e-06,
96000,-20.20714852,0.09764332822,-10.98991502,-10.98991502,1.216418477,0.09585262317,-0.01861435405,60.59733912,60.55457882,-2.276069283,7.283890708e-07,-3.773413305e-06,0.03758707149,1.895980799e-06,-11.92221423,0.2534482452,61.10764964,-658.8923504,1.678983724,0.1224574467,0.2219012995,63.20301336,57.10605797,27.08355665,-6.121293492e-08,4.49008533e-05,0.4742676628,1.785887154e-05,-12.35779928,0.2410516098,-114.3749831,-474.3749831,1.635225301,-0.09948362924,-0.2195652206,41.3353246,37.46377572,-17.46638395,9.491741367e-08,-2.895688899e-05,0.4662205988,1.76554138e-05,-20.76082562,0.09161334043,-173.5040853,-533.5040853,1.201705605,-0.09102517589,-0.01036443428,41.65774158,41.64864254,-0.8706364927,1.904197681e-06,-1.44339689e-06,0.0209043186,1.908674985e-06,
104000,-19.98683538,0.1001516782,-7.117602821,-7.117602821,1.222596799,0.09937990104,-0.01240942811,61.03270314,61.01353201,-1.529628804,1.000462326e-06,-2.340846012e-06,0.02507032053,8.354270839e-07,-12.37665181,0.2405289799,12.1474188,-707.8525812,1.633411871,0.2351433962,0.05061396441,80.63486641,80.17342465,8.614154665,-1.776536469e-07,1.318255092e-05,0.1074440153,1.698157434e-05,-12.82596309,0.228403022,-163.3081737,-523.3081737,1.592026741,-0.2187789133,-0.06560280116,32.11564812,31.81229997,-4.403683054,3.475127461e-07,-6.739114672e-06,0.1384270568,1.689790425e-05,-19.83377549,0.1019321596,-172.0199269,-532.0199269,1.227003251,-0.1009450906,-0.01415110796,40.83273592,40.81604712,-1.167313155,1.310990101e-06,-1.786381335e-06,0.02859936808,1.136903205e-06,
112000,-20.60920799,0.09322654736,-18.5986402,-18.5986402,1.205622578,0.08835788225,-0.02973337816,59.68270392,59.57560653,-3.5738289,3.976201205e-07,-5.078504778e-06,0.05998812446,1.638370106e-07,-12.80163563,0.2290436301,-36.16444526,-756.1644453,1.594180525,0.1849130279,-0.1351597448,72.17210588,69.40305686,-19.79971126,7.177005053e-08,-2.813590999e-05,0.2852858671,1.658146926e-05,-13.27100044,0.2169951255,148.6669756,-571.3330244,1.554262515,-0.1853483927,0.1128399656,34.5353324,33.6057304,7.958898669,-1.785455924e-07,1.130980415e-05,0.2368315931,1.65025225e-05,-20.68244624,0.0924437784,172.5358328,-547.4641672,1.203720224,-0.09166043743,0.01200901228,41.60469462,41.59249207,1.007580127,-1.410335754e-06,1.431797837e-06,0.02422504824,5.032274438e-07,
120000,-23.34933027,0.06800384776,-20.2833165,-20.2833165,1.145931606,0.06378692346,-0.02357438662,56.80923265,56.74560795,-2.687916133,4.934272972e-07,-3.564959493e-06,0.04736782687,-8.118907833e-08,-13.15505178,0.2199112318,-84.0570166,-804.0570166,1.563810789,0.02276933091,-0.2187293017,52.22118824,47.44804047,-21.8113722,6.080732475e-08,-2.892823084e-05,0.4596896306,1.627060657e-05,-13.8366351,0.2033144496,101.2912269,-618.7087731,1.510400746,-0.03980815404,0.1993792274,46.31276554,42.76107793,17.78658109,-7.456695505e-08,2.359018584e-05,0.4159525894,1.618728069e-05,-24.02458126,0.06291742457,170.8882049,-549.1117951,1.134283629,-0.06212348386,0.009963687478,44.15155994,44.14272647,0.8831446806,-1.501782462e-06,1.171307011e-06,0.02000657302,2.237504739e-08,
128000,-23.57504635,0.06625942802,-6.766311137,-6.766311137,1.141922564,0.06579792818,-0.007806692597,57.0427608,57.03574776,-0.8944480053,1.390128868e-06,-1.112154855e-06,0.0156822351,-2.629942841e-08,-13.73220481,0.2057736492,-129.56329,-849.56329,1.518173815,-0.131063448,-0.158635328,38.66877426,36.70676337,-12.16090562,1.022455096e-07,-1.512084564e-05,0.3312987718,1.600406667e-05,-14.21594385,0.1946268741,55.68899256,-664.3110074,1.483321005,0.1097082,0.160759855,61.97109796,58.77603026,19.64167125,-6.330408329e-08,2.442241461e-05,0.3341782554,1.593787223e-05,-24.04481796,0.06277100789,-172.2046264,-532.2046264,1.133950205,-0.06219092818,-0.008513981664,44.1454341,44.13898476,-0.7545701708,1.647822881e-06,-9.382310359e-07,0.01709532231,5.2472341e-08,
136000,-22.48802938,0.07509284026,-11.86464462,-11.86464462,1.162379196,0.07348855988,-0.01543911348,57.92969761,57.90178672,-1.798043562,6.50850157e-07,-2.104172947e-06,0.03105333468,2.682024965e-07,-14.10060646,0.1972285023,-175.4498934,-895.4498934,1.491368971,-0.1966069048,-0.01564631357,33.57312888,33.55534761,-1.092533533,1.071140518e-06,-1.278544943e-06,0.03255914813,1.576652403e-05,-14.58829283,0.1864598619,10.0839759,-709.9160241,1.458391303,0.1835794648,0.03264751455,72.4555574,72.29034203,4.890219621,-2.393055988e-07,5.722813423e-06,0.06764692882,1.571552233e-05,-22.74197225,0.07292918961,-179.971898,-539.971898,1.157332512,-0.07292918084,-3.576979751e-05,43.20279641,43.2027963,-0.003107236908,0.0003766230156,-3.636265539e-09,7.192212482e-05,3.522069448e-07,
144000,-23.70724162,0.06525862497,-22.42926437,-22.42926437,1.139629264,0.06032189337,-0.02489894201,56.41517307,56.34475552,-2.817849944,3.92229069e-07,-3.114407969e-06,0.05001086469,5.632136621e-08,-14.50135298,0.1883355701,139.0734332,-940.9265668,1.464072499,-0.142296902,0.1233769778,37.71001863,36.53344256,9.346286941,-1.182547323e-07,1.032991504e-05,0.2558282572,1.555075173e-05,-15.00068963,0.1778138227,-35.23475908,-755.2347591,1.432539071,0.1452374501,-0.1025857624,66.78054938,65.33033662,-13.84156396,7.984955049e-08,-1.529828698e-05,0.211870391,1.560814559e-05,-24.31771864,0.06082947494,167.2102825,-552.7897175,1.129538722,-0.05932024082,0.01346603319,44.40112159,44.38490777,1.199816875,-9.21176126e-07,1.326088794e-06,0.0270320912,2.293399638e-08,
152000,-25.98698376,0.05019388509,-16.31395583,-16.31395583,1.105692908,0.04817292368,-0.01409948669,55.06004109,55.03805216,-1.555936635,6.729528509e-07,-1.629177675e-06,0.02827019804,-5.709395054e-07,-14.88343719,0.180230439,94.58667585,-985.4133241,1.439710005,-0.01441250933,0.1796532514,48.62304501,45.58134687,16.92753153,-6.185615381e-08,1.772434419e-05,0.3713697092,1.547609453e-05,-15.39667328,0.1698894209,-79.55041879,-799.5504188,1.409317566,0.03081288106,-0.1670717861,53.09016954,50.20165341,-17.27310328,6.061863794e-08,-1.80861827e-05,0.3440743902,1.549968526e-05,-27.12992775,0.04400516083,176.1089704,-543.8910296,1.092061503,-0.04390372521,0.002986150132,45.79431049,45.79349064,0.2740231094,-3.82110836e-06,2.869219235e-07,0.005983887788,-6.744362974e-07,
160000,-25.01645115,0.05612772536,-5.352683206,-5.352683206,1.118930764,0.0558829716,-0.005235937306,55.91890011,55.91581492,-0.5873938822,1.693443572e-06,-5.842914994e-07,0.01050496864,-2.892134913e-07,-15.30291735,0.1717331486,51.48760043,-1028.5124,1.414680724,0.106935482,0.1343766238,61.73404491,59.49499562,16.4753694,-6.037609052e-08,1.6388353e-05,0.2769202557,1.544830157e-05,-15.30349401,0.1717217475,-124.2511067,-844.2511067,1.414647486,-0.09664858732,-0.1419415695,41.34734717,39.68445876,-11.6080511,8.569211025e-08,-1.154674195e-05,0.2925087416,1.541921178e-05,-25.83884186,0.05105730728,-170.5753101,-530.5753101,1.107608832,-0.0503681199,-0.008360689242,45.20503729,45.19868579,-0.7577596968,1.312709555e-06,-7.537575089e-07,0.01676508252,-6.941370398e-08,
168000,-24.21423306,0.06155854514,-12.18140633,-12.18140633,1.13119315,0.06017251892,-0.01298932047,56.40135348,56.38218584,-1.470304212,6.44323021e-07,-1.392893948e-06,0.02607746029,2.572978129e-07,-15.54710168,0.166972487,5.48726172,-1074.512738,1.400881086,0.1662073326,0.01596665202,69.92762637,69.88992863,2.295823466,-4.126409829e-07,2.174950316e-06,0.03284913164,1.543173308e-05,-16.03492679,0.1578532982,-168.603318,-888.603318,1.374883136,-0.1547408446,-0.03119190213,36.61107491,36.53637624,-2.337523775,4.052796647e-07,-2.214455139e-06,0.06397798621,1.534156842e-05,-24.54121646,0.05928422913,178.632781,-541.367219,1.126040683,-0.05926735119,0.001414534056,44.40488383,44.40470488,0.1260670122,-7.514660937e-06,1.194296914e-07,0.002839046279,7.94026029e-07,
176000,-25.47229148,0.05325807021,-20.33086484,-20.33086484,1.112508105,0.04994019398,-0.01850402841,55.25463312,55.21661855,-2.049272358,4.412734333e-07,-1.853135373e-06,0.03711332589,-6.930180552e-08,-15.87792148,0.1607325838,-38.83240238,-1118.832402,1.383030678,0.1252080272,-0.1007864744,64.14604157,62.81540372,-12.99768077,6.95731389e-08,-1.175366558e-05,0.2069186855,1.53885155e-05,-16.35393254,0.1521610067,147.2550408,-932.7449592,1.358938449,-0.1279805844,0.0823039609,38.72285156,38.18451368,6.434450084,-1.40538731e-07,5.818605323e-06,0.1685094156,1.522164331e-05,-26.16219942,0.04919149585,166.9479345,-553.0520655,1.103472982,-0.04792064567,0.01110922959,45.42761278,45.41634961,1.011529011,-8.939827126e-07,9.147150127e-07,0.0222723539,1.786938756e-07,
184000,-27.15494166,0.04387861564,-12.52995352,-12.52995352,1.091784613,0.04283354644,-0.009519464772,54.47461191,54.46470348,-1.038949977,8.325449118e-07,-8.986631763e-07,0.01907565653,-7.557819868e-07,-16.20321508,0.154824343,-82.47027913,-1162.470279,1.366371989,0.02028825375,-0.1534892959,52.0221922,49.62554956,-15.60811689,5.54181214e-08,-1.350059215e-05,0.3145177642,1.521341694e-05,-16.66586018,0.1467935559,103.7779222,-976.2220778,1.344098564,-0.0349602405,0.142569736,46.6872089,44.82270249,13.06219035,-6.621956147e-08,1.129843566e-05,0.2914190717,1.497824237e-05,-28.66756745,0.03686562724,175.9133733,-544.0866267,1.076553445,-0.03677189431,0.00262721536,46.45325559,46.45261259,0.2444142117,-3.538961629e-06,2.114115758e-07,0.0052615816,-1.075441715e-06,
