Frequency,S11_Magnitude,S11_Magnitude (linear),S11_Phase,S11_Unwrapped Phase,S11_VSWR,S11_Real,S11_Imaginary,S11_Impedance (absolute),S11_Resistance,S11_Reactance,S11_Capacitance,S11_Inductance,S11_Quality Factor,S11_Group delay,S12_Magnitude,S12_Magnitude (linear),S12_Phase,S12_Unwrapped Phase,S12_VSWR,S12_Real,S12_Imaginary,S12_Impedance (absolute),S12_Resistance,S12_Reactance,S12_Capacitance,S12_Inductance,S12_Quality Factor,S12_Group delay,S21_Magnitude,S21_Magnitude (linear),S21_Phase,S21_Unwrapped Phase,S21_VSWR,S21_Real,S21_Imaginary,S21_Impedance (absolute),S21_Resistance,S21_Reactance,S21_Capacitance,S21_Inductance,S21_Quality Factor,S21_Group delay,S22_Magnitude,S22_Magnitude (linear),S22_Phase,S22_Unwrapped Phase,S22_VSWR,S22_Real,S22_Imaginary,S22_Impedance (absolute),S22_Resistance,S22_Reactance,S22_Capacitance,S22_Inductance,S22_Quality Factor,S22_Group delay,
0,-13.42649272,0.2131451055,-134.3248007,-134.3248007,1.541764706,-0.1489298159,-0.1524819528,37.30021371,35.53100342,-11.35137607,inf,-inf,0.3194780609,1.21995696e-05,-13.58704323,0.2092415066,-133.194771,-133.194771,1.529217222,-0.1432217468,-0.1525435654,37.72701037,35.94195085,-11.4674967,inf,-inf,0.3190560452,-1.064703601e-06,-15.77445314,0.1626587172,-124.9764845,-124.9764845,1.388512356,-0.09324251375,-0.1332805009,41.60853721,40.13140903,-10.98819264,inf,-inf,0.2738053037,-1.343236418e-05,-15.88351277,0.1606291502,-123.9942277,-123.9942277,1.382737023,-0.08980926431,-0.1331766493,41.89217996,40.40907203,-11.04815097,inf,-inf,0.2734076883,-9.728603724e-06,
8000,-27.1732961,0.04378599216,-134.9038758,-134.9038758,1.091581993,-0.03090938502,-0.03101327179,47.00453339,46.91402767,-2.915504626,6.823644768e-06,-5.80021216e-05,0.06214569012,1.21995696e-05,-34.89520713,0.01799863806,-70.86847125,-70.86847125,1.036657053,0.005898834697,-0.01700455002,50.59321119,50.56395908,-1.720192,1.156520196e-05,-3.422213249e-05,0.03402012088,-1.064703601e-06,-45.52721149,0.005292238712,102.9145457,102.9145457,1.010640791,-0.001182802499,0.005158368815,49.88186263,49.8792081,0.5146051161,-3.865948329e-05,1.02377435e-05,0.01031702659,-1.343236418e-05,-38.90490087,0.01134370585,155.5876891,-204.4123109,1.022947724,-0.01032952045,0.004688354699,48.97763101,48.97547748,0.459287921,-4.331567842e-05,9.137242865e-06,0.009377916145,-9.728603724e-06,
16000,0.322994234,1.037886138,-135.0854189,-135.0854189,nan,-0.7349896336,-0.7328013883,20.68730868,-1.088293883,-20.658663,4.815018254e-07,-0.0002054955209,-18.98261428,1.21995696e-05,-25.86705862,0.05089171297,134.823734,134.823734,1.10724111,-0.03587499749,0.03609641262,46.54110083,46.41966553,3.359868749,-2.960587061e-06,3.342123247e-05,0.07238028775,-1.064703601e-06,-21.97403336,0.07967064479,-20.21771386,-20.21771386,1.173135072,0.0747618355,-0.02753324523,58.07362797,57.98465549,-3.213408304,3.095524441e-06,-3.196436348e-05,0.05541825292,-1.343236418e-05,-3.952294368,0.6344322942,24.31579752,24.31579752,4.470942779,0.5781516657,0.2612374158,161.1921603,121.3430597,106.107372,-9.374639815e-08,0.001055469547,0.8744412104,-9.728603724e-06,
24000,-7.34570287,0.4292544998,121.6225306,-238.3774694,2.504188818,-0.2250670594,0.3655191437,33.51018172,24.95545143,22.36420628,-2.965209621e-07,0.0001483072491,0.896165166,1.62117887e-05,-33.55776701,0.02099479553,-35.22524069,-35.22524069,1.042890059,0.01715045702,-0.01210963513,51.74471239,51.72952966,-1.253403937,5.290757248e-06,-8.311893009e-06,0.02422995037,1.8064212e-05,-29.8191863,0.03228796585,151.2579192,151.2579192,1.066730525,-0.0283098698,0.0155262362,47.24759722,47.22478679,1.467976773,-4.51741205e-06,9.734823321e-06,0.03108487878,6.149101677e-06,-5.233054328,0.5474535592,-45.72738655,-45.72738655,3.419435929,0.3821626113,-0.3919912473,98.1741001,65.40161841,-73.21736297,9.057217706e-08,-0.0004855377182,1.11950384,2.053702248e-05,
32000,-6.496179533,0.4733594191,101.7381939,-258.2618061,2.797656452,-0.0963002448,0.4634602491,42.66421202,27.3857378,32.7147727,-1.520289325e-07,0.0001627099309,1.194591613,1.603374711e-05,-25.40338184,0.05368227446,-135.6846544,-135.6846544,1.113455075,-0.03840997072,-0.03750280977,46.30608895,46.17563293,-3.473441673,1.431891605e-06,-1.727548162e-05,0.07522239442,3.405505424e-05,-26.47830764,0.04743343956,44.27787297,44.27787297,1.099590814,0.03396055928,0.03311512648,53.51145165,53.39394736,3.544269002,-1.403277225e-06,1.762774785e-05,0.06637960251,1.072052201e-05,-5.124370646,0.5543467015,-63.24479621,-63.24479621,3.487793553,0.2495555444,-0.4949972684,74.75182783,42.85504896,-61.24769827,8.120455319e-08,-0.0003046210604,1.429182786,1.09598818e-05,
40000,-7.082305512,0.4424709109,53.23456054,-306.7654395,2.587256771,0.2648367568,0.3544601518,80.47290943,60.36714079,53.2136962,-7.477160696e-08,0.0002117305698,0.8815010203,7.214426357e-06,-19.71763722,0.1033042381,164.2610701,-195.7389299,1.230410899,-0.0994311209,0.02802173827,40.96264895,40.8970822,2.316738355,-1.71744624e-06,9.218009027e-06,0.05664801083,2.65594959e-05,-20.89546358,0.09020421286,-17.88031188,-17.88031188,1.198295517,0.08584734598,-0.02769536434,59.38298883,59.29060663,-3.311091595,1.201680311e-06,-1.317441486e-05,0.05584512932,2.65113412e-05,-5.185348851,0.5504686084,-96.36513775,-96.36513775,3.4490775,-0.06102728534,-0.5470752775,45.51658448,24.45438415,-38.38935476,1.036452319e-07,-0.0001527463893,1.569835271,6.569644023e-06,
48000,-12.97232099,0.2245866568,28.22260771,-331.7773923,1.579269518,0.1978871044,0.1062066868,74.31502765,72.52265625,16.22305969,-2.043836394e-07,5.379125294e-05,0.2236964354,5.721008948e-06,-14.19736651,0.1950435865,84.68779748,-275.3122025,1.484606578,0.01805765191,0.1942058749,51.77093076,48.0054081,19.38324186,-1.710615801e-07,6.42695574e-05,0.4037720463,2.411685808e-05,-14.27986285,0.1931998823,-90.02411522,-90.02411522,1.478928741,-8.131587861e-05,-0.1931998652,49.99216163,46.394418,-18.62187431,1.780555451e-07,-6.174506971e-05,0.401381785,2.355376366e-05,-7.100404474,0.4415498853,-108.1876248,-108.1876248,2.581340477,-0.1378208461,-0.4194898278,39.53265534,27.37077802,-28.52492504,1.162396738e-07,-9.458089212e-05,1.042167125,6.066432296e-06,
56000,-11.48953857,0.2663931611,54.49258412,-305.5074159,1.726255937,0.1547233652,0.2168547822,67.31845204,60.99881873,28.47662371,-9.980300278e-08,8.093206118e-05,0.4668389372,4.978325118e-06,-13.98768146,0.1998094052,12.13179234,-347.8682077,1.499404533,0.1953470164,0.04199216119,74.22199264,73.93963219,6.467996911,-4.394022747e-07,1.838238715e-05,0.08747672553,2.375444333e-05,-14.18118303,0.195407329,-163.3544,-163.3544,1.485729826,-0.1872187654,-0.05597462044,34.27348051,34.04365353,-3.962463991,7.172437558e-07,-1.126153091e-05,0.1163936176,2.332395825e-05,-6.591768313,0.4681786277,-117.8588462,-117.8588462,2.7606612,-0.2187774903,-0.4139174279,34.34348453,23.56452572,-24.98375587,1.137560169e-07,-7.10051472e-05,1.060227401,4.912393192e-06,
64000,-10.32540988,0.3045997242,18.72665328,-341.2733467,1.876041425,0.2884745286,0.09779283384,89.95784085,87.93746051,18.95827444,-1.311720639e-07,4.714536076e-05,0.2155881501,3.542263679e-06,-12.54035006,0.2360383103,-46.90277184,-406.9027718,1.617932322,0.1612704491,-0.1723540721,68.55379528,64.3971939,-23.50796175,1.057852659e-07,-5.845950492e-05,0.3650463682,2.187504168e-05,-12.72754451,0.2310057418,137.8407204,-222.1592796,1.600799653,-0.171240353,0.1550496509,35.6821122,33.90909385,11.10794695,-2.238753927e-07,2.762319789e-05,0.3275801766,2.234823311e-05,-7.046734955,0.4442866383,-139.8545671,-139.8545671,2.598977707,-0.3396173269,-0.2864449131,26.27310942,21.38438066,-15.26383118,1.629208262e-07,-3.79580341e-05,0.7137841126,4.379965544e-06,
72000,-15.35488559,0.1707087258,-13.70534395,-373.7053439,1.41169787,0.1658481406,-0.04044580687,69.84223642,69.60106314,-5.799137708,3.811748284e-07,-1.281890878e-05,0.08331967137,3.597203218e-06,-11.60986618,0.2627282003,-112.0076292,-472.0076292,1.712703783,-0.09845215116,-0.2435842383,41.50053167,36.77034242,-19.24151885,1.148810205e-07,-4.253309496e-05,0.5232890852,2.073216046e-05,-11.86367468,0.2551621576,72.32227154,-287.6777285,1.685148211,0.07748323666,0.243113296,57.89069003,51.35973509,26.71160055,-8.275375774e-08,5.90456009e-05,0.520088363,2.092974178e-05,-9.135443873,0.3493235028,-151.2701286,-151.2701286,2.073724053,-0.3063202698,-0.1679130785,27.09477506,25.30666875,-9.679842587,2.283596351e-07,-2.139714995e-05,0.3825016514,4.128647544e-06,
80000,-18.30519179,0.1215459271,11.31297477,-348.6870252,1.276726879,0.1191843214,0.02384344594,63.52227733,63.44799944,3.071007145,-6.478124911e-07,6.109574592e-06,0.04840195391,1.445057236e-06,-11.75650806,0.2583298531,-168.2430919,-528.2430919,1.69661656,-0.2529103285,-0.05263723723,29.86173887,29.67354734,-3.347243069,5.943508577e-07,-6.659128501e-06,0.1128022555,2.007589961e-05,-11.16865544,0.2764185778,10.32299227,-349.6770077,1.764028952,0.2719442475,0.04953338672,87.21671028,86.71927473,9.301717188,-2.138784429e-07,1.850517837e-05,0.107262396,2.003706294e-05,-9.053425958,0.352637669,-154.5534875,-154.5534875,2.089459958,-0.3184271557,-0.1515172337,26.30580493,24.85926861,-8.603030702,2.312483656e-07,-1.711518577e-05,0.3460693409,3.197042018e-06,
88000,-16.78457563,0.1448008857,6.399697046,-353.600303,1.33863666,0.1438985602,0.01614003924,66.80336644,66.76708461,2.201404226,-8.215569304e-07,3.981413231e-06,0.03297139959,1.117979007e-06,-12.0597438,0.2494668308,134.2588418,-585.7411582,1.664772301,-0.1741031482,0.1786667106,35.57542825,33.24375028,12.66744499,-1.427737717e-07,2.291007371e-05,0.3810474114,1.900945847e-05,-12.34840627,0.2413124265,-40.98381758,-400.9838176,1.636131222,0.1821655069,-0.1582637523,71.59077413,67.86045531,-22.80783956,7.92963706e-08,-4.124977736e-05,0.3360991237,1.874049795e-05,-10.00273557,0.3161281877,-169.9619106,-169.9619106,1.92452469,-0.3112889279,-0.05510203618,26.32153118,26.12642061,-3.198929461,5.653700468e-07,-5.785516321e-06,0.1224404027,2.555972224e-06,
96000,-17.8921392,0.1274656134,-12.13469141,-372.1346914,1.292173272,0.1246175393,-0.02679461694,64.2239323,64.12885321,-3.493374657,4.745737727e-07,-5.79154005e-06,0.05447430419,2.603942139e-06,-12.25102538,0.2440330967,80.87103835,-639.1289616,1.645618467,0.03871759833,0.2409421089,53.79801059,47.87860765,24.53293445,-6.75770766e-08,4.067226861e-05,0.512398661,1.831460216e-05,-12.59249708,0.2346254648,-94.03994137,-454.0399414,1.613099741,-0.01652980203,-0.2340424628,48.45706194,43.4217133,-21.50910658,7.707730604e-08,-3.565917327e-05,0.4953537055,1.785368802e-05,-11.76579155,0.2580538974,-176.5460811,-176.5460811,1.695613594,-0.2575851619,-0.01554665126,29.52169304,29.50532712,-0.9828690983,1.686759705e-06,-1.629463285e-06,0.03331158113,2.369157204e-06,
104000,-20.52151619,0.09417251963,-18.08040856,-378.0804086,1.20792595,0.08952246022,-0.02922657301,59.8231829,59.71941534,-3.522022634,4.345048713e-07,-5.389877999e-06,0.05897617406,1.109813526e-06,-12.67613966,0.2323769338,29.69910377,-690.3008962,1.605445417,0.2018517288,0.1151300088,74.85986706,72.73622851,17.70425819,-8.643886542e-08,2.709346351e-05,0.2434035769,1.756751915e-05,-13.01386321,0.2235150854,-145.3594321,-505.3594321,1.575710052,-0.1838934834,-0.1270518797,34.68308725,33.50533288,-8.961540592,1.707670657e-07,-1.37141681e-05,0.2674660964,1.748499676e-05,-12.2986107,0.2426998259,-177.0798318,-177.0798318,1.640960703,-0.2423846769,-0.01236421838,30.49291824,30.48239696,-0.8009612081,1.910624355e-06,-1.225739764e-06,0.02627618849,1.823907294e-06,
112000,-22.26127542,0.07707902793,-13.94373923,-373.9437392,1.16703278,0.07480772559,-0.01857365713,58.08261021,58.04209742,-2.168994412,6.551544207e-07,-3.082198056e-06,0.03736933207,-5.657717236e-07,-13.11421329,0.220947624,-19.69349399,-739.693494,1.567221488,0.208024136,-0.07445677548,76.0757383,75.16023025,-11.76680703,1.207656652e-07,-1.672094199e-05,0.156556293,1.703545459e-05,-13.46907709,0.2121026749,165.417692,-554.582308,1.538401815,-0.2052702028,0.05340120356,33.01090656,32.80639355,3.668854559,-3.873215072e-07,5.213538737e-06,0.1118335227,1.699074295e-05,-12.66256323,0.2327404332,174.8896094,-185.1103906,1.606679782,-0.2318152733,0.02073133727,31.18793971,31.15801582,1.36588191,-1.04037272e-06,1.940954086e-06,0.0438372558,1.379886177e-06,
120000,-22.85434043,0.07199179112,-8.677093826,-368.6770938,1.15515335,0.07116779324,-0.0108610862,57.66109416,57.64735319,-1.258749615,1.053657675e-06,-1.669468528e-06,0.02183534101,-3.03182877e-07,-13.41660445,0.213387894,-68.43116777,-788.4311678,1.542549224,0.07844538408,-0.1984457483,58.16144893,53.70350834,-22.33130838,5.93915578e-08,-2.961781762e-05,0.4158258757,1.664436939e-05,-13.96945824,0.2002290505,117.5034124,-602.4965876,1.500715988,-0.09246606394,0.1775998302,41.77546712,39.17917052,14.49766365,-9.148309857e-08,1.92281236e-05,0.3700349817,1.659632983e-05,-14.16008813,0.1958824798,168.0559791,-191.9440209,1.487198637,-0.1916416765,0.04053903927,33.94083413,33.82083574,2.851541884,-4.651136986e-07,3.781974886e-06,0.08431317032,1.001348814e-06,
128000,-22.49574696,0.07502614844,-8.689235957,-368.689236,1.162223285,0.0741650198,-0.01133458372,58.00949137,57.99442274,-1.322127433,9.40452457e-07,-1.643930597e-06,0.02279749277,7.766789093e-07,-13.93336625,0.201062782,-115.374372,-835.374372,1.503325612,-0.08616164201,-0.1816656648,42.30289269,39.56191022,-14.9796525,8.300579688e-08,-1.862566985e-05,0.3786382512,1.633311699e-05,-14.30124317,0.1927249056,69.8619379,-650.1380621,1.477470213,0.06635199877,0.1809428128,56.86498142,53.22952825,20.00608492,-6.215099044e-08,2.487552584e-05,0.3758456177,1.63059314e-05,-15.32014758,0.1713928187,171.0156525,-188.9843475,1.413688953,-0.169290007,0.02676549702,35.53110896,35.47719546,1.956605809,-6.354872235e-07,2.432839736e-06,0.05515108462,6.98603528e-07,
136000,-22.70310769,0.07325623859,-16.34182677,-376.3418268,1.158093837,0.0702966972,-0.02061191051,57.55772605,57.50835358,-2.383505099,4.909815107e-07,-2.789313371e-06,0.0414462413,5.572492162e-07,-14.32730122,0.1921475887,-162.1393764,-882.1393764,1.475699734,-0.1828871144,-0.05893215798,34.58573789,34.32960679,-4.201352479,2.785429074e-07,-4.916661873e-06,0.1223827731,1.603425617e-05,-14.70880244,0.1838907474,23.43129545,-696.5687046,1.450652279,0.1687266682,0.07312399329,70.16389297,69.37365481,10.50085213,-1.114439972e-07,1.228869502e-05,0.1513665693,1.603228073e-05,-15.16783551,0.1744247963,170.4377238,-189.5622762,1.42255338,-0.1720012727,0.02897536467,35.33496482,35.27201897,2.108178466,-5.551033526e-07,2.46711047e-06,0.05976914641,6.883847627e-07,
144000,-24.53410571,0.05933278231,-21.29554905,-381.295549,1.12615042,0.05528150692,-0.02154841177,55.84875456,55.79659566,-2.413151245,4.580080353e-07,-2.667117701e-06,0.04324907669,-4.92695509e-07,-14.73859905,0.1832609982,151.9637256,-928.0362744,1.448762696,-0.1617553549,0.08613825296,36.16734263,35.60602576,6.347251571,-1.741293295e-07,7.015253213e-06,0.1782634101,1.5837797e-05,-15.14912432,0.1748009482,-22.35166169,-742.3516617,1.423657656,0.1616676634,-0.06647509381,69.18063212,68.53910857,-9.399492324,1.17585357e-07,-1.03887199e-05,0.1371405686,1.578104429e-05,-15.69406012,0.164171208,163.6388463,-196.3611537,1.392834537,-0.1575231246,0.04624554876,36.41709566,36.25368664,3.446021066,-3.20730094e-07,3.808689491e-06,0.09505298317,4.875998363e-07,
152000,-25.98772095,0.05018962518,-10.39832599,-370.398326,1.105683464,0.04936534815,-0.00905874594,55.19243399,55.18333215,-1.002308385,1.044660515e-06,-1.04948904e-06,0.01816324507,-7.324165696e-07,-15.09742155,0.175844554,107.0064946,-972.9935054,1.426726669,-0.05143103305,0.1681551546,45.23689753,42.73650133,14.83133009,-7.059865756e-08,1.552947037e-05,0.3470412791,1.568066676e-05,-15.52582418,0.1673820147,-67.25463039,-787.2546304,1.402061972,0.06471598497,-0.1543650872,56.74679724,54.0841162,-17.17868948,6.095179701e-08,-1.798732465e-05,0.317629106,1.565754243e-05,-17.13857894,0.1390180053,161.8316416,-198.1683584,1.322928949,-0.1320871784,0.04334723876,38.35209514,38.20310546,3.377267356,-3.100352693e-07,3.536242065e-06,0.08840295351,1.439027363e-07,
160000,-24.57459672,0.05905683443,-4.566171014,-364.566171,1.12552689,0.05886939136,-0.004701537328,56.25503021,56.25252597,-0.5307979705,1.874005648e-06,-5.279945049e-07,0.00943598463,1.215298092e-07,-15.54053214,0.1670988238,61.98841574,-1018.011584,1.401245258,0.07847797438,0.1475236403,58.31848027,55.80458405,16.93793199,-5.872726344e-08,1.684847252e-05,0.3035222336,1.559034024e-05,-16.00105414,0.1584700858,-112.0421369,-832.0421369,1.376623773,-0.05947198009,-0.1468872073,44.49905405,42.60659493,-12.83915419,7.74753835e-08,-1.277134284e-05,0.301341945,1.557596811e-05,-17.59187832,0.1319489942,168.2972559,-191.7027441,1.304012076,-0.1292061833,0.02676376783,38.56516303,38.50806645,2.097765117,-4.741800625e-07,2.086685549e-06,0.05447599193,1.205718569e-07,
168000,-24.19848128,0.06167028226,-14.15971718,-374.1597172,1.131446934,0.05979658972,-0.0150861384,56.35841839,56.33258651,-1.706171345,5.552495384e-07,-1.616342877e-06,0.03028746682,5.124591625e-07,-15.79267011,0.1623179296,17.04667715,-1062.953323,1.387540656,0.1551866946,0.04758361148,68.31904191,67.99501581,6.645999717,-1.425445218e-07,6.296093493e-06,0.09774245417,1.550057112e-05,-16.21119589,0.1546821519,-157.1920779,-877.1920779,1.365973941,-0.1425874868,-0.05996146043,37.56060274,37.28027967,-4.580352136,2.068292619e-07,-4.339200498e-06,0.1228626013,1.547525896e-05,-17.29204083,0.1365834122,166.0363195,-193.9636805,1.31637894,-0.13254722,0.03295850353,38.30795373,38.22182581,2.567362584,-3.689976856e-07,2.432193131e-06,0.06717006657,4.951121066e-07,
176000,-25.91552646,0.05060852468,-21.16488271,-381.1648827,1.106612553,0.04719474032,-0.01827236317,54.95150199,54.91465606,-2.011994243,4.494493224e-07,-1.819425167e-06,0.03663856587,-3.485754381e-07,-16.14514384,0.15586292,-27.55726516,-1107.557265,1.369283434,0.1381800984,-0.07210762941,65.93552057,65.22687735,-9.640920284,9.379700514e-08,-8.718182495e-06,0.1478059456,1.53761102e-05,-16.54654164,0.1488239812,158.3231212,-921.6768788,1.349690259,-0.1382994029,0.05497137932,37.88314117,37.64594391,4.232646012,-2.136463684e-07,3.827537132e-06,0.1124329894,1.53362873e-05,-17.76580248,0.1293331562,159.8002726,-200.1997274,1.297089885,-0.1213784772,0.04465792849,39.19546023,39.0347523,3.545732045,-2.550360371e-07,3.206368079e-06,0.09083526438,5.243090555e-07,
184000,-27.48754685,0.04223015324,-9.478382088,-369.4783821,1.088184345,0.04165361893,-0.006954270116,54.3461857,54.3409111,-0.7571530443,1.142401161e-06,-6.549165744e-07,0.01393338884,-7.945708971e-07,-16.44956659,0.150494861,-71.42888916,-1151.428889,1.354311832,0.04792981307,-0.14265846,54.92867997,52.72781699,-15.3927645,5.619344835e-08,-1.331431825e-05,0.2919287272,1.527351823e-05,-16.84953541,0.1437219926,114.7190114,-965.2809886,1.335690024,-0.06010001071,0.1305526708,44.42074401,42.92145375,11.44339576,-7.558704908e-08,9.898222829e-06,0.2666124923,1.530714946e-05,-19.07433032,0.1112457643,158.950519,-201.049481,1.250340893,-0.1038224,0.0399565931,40.60801602,40.47573154,3.275075764,-2.641076357e-07,2.832850526e-06,0.08091455397,6.710656256e-07,
192000,-25.90182146,0.05068844018,-1.887352254,-361.8873523,1.106789893,0.05066094223,-0.001669401177,55.33642777,55.33611775,-0.1852322808,4.475094685e-06,-1.535449641e-07,0.003347402896,4.183215222e-08,-16.72269447,0.1458361788,-115.189788,-1195.189788,1.341471215,-0.06207050485,-0.1319675849,44.25034675,42.72411154,-11.52143573,7.194693568e-08,-9.550486707e-06,0.2696705751,1.524979329e-05,-17.1353316,0.1390699888,71.15978126,-1008.840219,1.323069209,0.04490988759,0.13161901,54.61822982,52.75081837,14.15987959,-5.854089295e-08,1.173757724e-05,0.2684295719,1.524611308e-05,-19.52816469,0.1055824574,164.2901058,-195.7098942,1.236092099,-0.101638425,0.02858821206,40.78079617,40.71279608,2.354054281,-3.521295163e-07,1.951350912e-06,0.05782099261,2.32944658e-07,
