Frequency,S11_Magnitude,S11_Magnitude (linear),S11_Phase,S11_Unwrapped Phase,S11_VSWR,S11_Real,S11_Imaginary,S11_Impedance (absolute),S11_Resistance,S11_Reactance,S11_Capacitance,S11_Inductance,S11_Quality Factor,S11_Group delay,S12_Magnitude,S12_Magnitude (linear),S12_Phase,S12_Unwrapped Phase,S12_VSWR,S12_Real,S12_Imaginary,S12_Impedance (absolute),S12_Resistance,S12_Reactance,S12_Capacitance,S12_Inductance,S12_Quality Factor,S12_Group delay,S21_Magnitude,S21_Magnitude (linear),S21_Phase,S21_Unwrapped Phase,S21_VSWR,S21_Real,S21_Imaginary,S21_Impedance (absolute),S21_Resistance,S21_Reactance,S21_Capacitance,S21_Inductance,S21_Quality Factor,S21_Group delay,S22_Magnitude,S22_Magnitude (linear),S22_Phase,S22_Unwrapped Phase,S22_VSWR,S22_Real,S22_Imaginary,S22_Impedance (absolute),S22_Resistance,S22_Reactance,S22_Capacitance,S22_Inductance,S22_Quality Factor,S22_Group delay,
0,-13.67151352,0.2072164953,-134.2290636,-134.2290636,1.522756829,-0.1445394464,-0.1484824042,37.61493497,35.92525153,-11.14718061,inf,-inf,0.3102881717,-2.179580807e-05,-13.88615276,0.2021586655,-133.2593604,-133.2593604,1.506764081,-0.1385397326,-0.1472238721,38.06339635,36.38732983,-11.17069245,inf,-inf,0.3069940142,2.846630012e-06,-15.47382769,0.1683870217,-125.3283033,-125.3283033,1.404964872,-0.09737159948,-0.1373788946,41.27824276,39.72070501,-11.23204873,inf,-inf,0.2827756639,1.742427668e-05,-15.70295414,0.1640031891,-124.464999,-124.464999,1.392353624,-0.09280984532,-0.1352160443,41.64815173,40.12740297,-11.15168478,inf,-inf,0.2779069651,2.643511632e-05,
8000,-11.39576584,0.2692847182,-36.1012538,-36.1012538,1.737044167,0.2175758561,-0.1586663363,76.90052431,72.75966753,-24.89420456,7.991566004e-07,-0.0004952544637,0.3421429125,-2.179580807e-05,-20.66906195,0.09258633697,46.54361068,46.54361068,1.204066438,0.0636810916,0.06720824627,56.76843383,56.25377139,7.62681344,-2.608477058e-06,0.0001517306324,0.1355787044,2.846630012e-06,-20.51606433,0.09423164733,-75.81554365,-75.81554365,1.208070081,0.02309093541,-0.09135869998,52.34363903,51.47619877,-9.489863421,2.096380844e-06,-0.0001887948341,0.1843543938,1.742427668e-05,-14.280942,0.1931758802,106.2058471,-253.7941529,1.478854996,-0.05391328327,0.1855000771,45.04664948,42.03329495,16.19885011,-1.228134574e-06,0.0003222658835,0.3853814014,2.643511632e-05,
16000,-8.79936367,0.3631046549,175.2510781,175.2510781,2.140233345,-0.3618581386,0.03006123669,23.44935654,23.39332645,1.620061661,-6.1400033e-06,1.611505134e-05,0.06925315492,-2.179580807e-05,-36.80969251,0.01443827716,26.86583733,26.86583733,1.02929959,0.01287991255,0.006524699226,51.30474065,51.30037112,0.6695785665,-1.485588763e-05,6.660421165e-06,0.01305211935,2.846630012e-06,-30.91920843,0.02844720343,179.498757,-180.501243,1.058560283,-0.02844611485,0.0002488626388,47.23406869,47.23406283,0.02352862742,-0.0004227694105,2.340435848e-07,0.0004981283846,1.742427668e-05,-11.61887938,0.2624557132,-11.0305448,-371.0305448,1.711701569,0.2576069285,-0.05021625025,84.57377384,84.08604742,-9.069721648,1.096746331e-06,-9.021818955e-05,0.1078623853,2.643511632e-05,
24000,-7.588977526,0.4173987304,118.7309563,118.7309563,2.432879577,-0.2006424592,0.3660113436,35.02126875,26.20675439,23.23134282,-2.854529768e-07,0.0001540576268,0.8864639424,-5.612858378e-06,-24.55762863,0.05917231608,-35.90600313,-35.90600313,1.125787787,0.04792840437,-0.03470203229,55.02774368,54.89476207,-3.823306396,1.734481958e-06,-2.535408799e-05,0.06964792726,2.038054704e-05,-28.653217,0.03692658536,147.9491384,-212.0508616,1.076684882,-0.03129813743,0.01959590007,46.96630145,46.93017455,1.841789435,-3.600550549e-06,1.221374553e-05,0.03924531398,2.311851015e-05,-5.872043654,0.508625134,-46.53671787,-406.5367179,3.070212252,0.3498779298,-0.369167931,93.59288307,66.31262828,-66.04743062,1.004044503e-07,-0.0004379906275,0.996000797,1.482702341e-05,
32000,-7.305801249,0.4312309643,102.2144676,102.2144676,2.516365826,-0.09123622257,0.4214689743,42.81681188,29.74351318,30.79939614,-1.614834248e-07,0.0001531836294,1.035499605,1.189237824e-05,-24.91776863,0.05676904238,-133.0260256,-133.0260256,1.120371457,-0.03873524876,-0.04150065874,46.27710401,46.11749458,-3.840188677,1.295142606e-06,-1.909953158e-05,0.08326967266,2.388365354e-05,-25.77859671,0.05141267073,51.87977146,-308.1202285,1.108398392,0.03173774434,0.04044722854,53.27227016,53.09790034,4.306709584,-1.154847308e-06,2.141981621e-05,0.08110884907,2.182039479e-05,-5.45978788,0.5333479204,-68.75939149,-428.7593915,3.285848252,0.193224093,-0.4971161374,68.20328175,39.84023269,-55.35741594,8.984508917e-08,-0.0002753251995,1.389485257,8.012168303e-06,
40000,-6.18552227,0.4905958685,81.24221209,81.24221209,2.926155828,0.07469701202,0.4848759249,56.43122747,34.78981286,44.43143432,-8.955086953e-08,0.00017678706,1.277139216,6.94259506e-06,-19.80248311,0.1023000496,-166.9903352,-166.9903352,1.227915908,-0.09967422275,-0.02302931774,40.94043568,40.89615874,-1.903542411,2.090246876e-06,-7.573954601e-06,0.04654575073,2.456281293e-05,-19.73877308,0.1030531677,15.08740297,-344.912597,1.229786569,0.09950091289,0.02682393925,61.04061966,60.95108084,3.304995079,-1.203896975e-06,1.315015759e-05,0.05422373211,2.460139077e-05,-5.325304184,0.5416700095,-78.43886659,-438.4388666,3.36366819,0.1085579175,-0.5306802972,59.23369149,32.82541092,-49.30641546,8.069687363e-08,-0.0001961839937,1.502080677,6.322735969e-06,
48000,-10.28593896,0.3059870538,22.74520356,22.74520356,1.881790622,0.2821914631,0.118304925,88.49836857,85.62874136,22.35352081,-1.483313527e-07,7.411819444e-05,0.2610516102,5.659399797e-06,-13.82970148,0.2034768126,108.4833923,-251.5166077,1.510912465,-0.06450820562,0.192980581,44.145728,40.95101852,16.48815886,-2.010975276e-07,5.467024968e-05,0.4026312276,2.324835138e-05,-13.91400453,0.201511471,-68.28406018,-428.2840602,1.504732288,0.07456029812,-0.1872101356,57.761228,53.80863128,-20.99977762,1.578934806e-07,-6.962955025e-05,0.3902678273,2.322258345e-05,-6.661844169,0.4644166608,-110.454694,-470.454694,2.734246108,-0.1622981156,-0.4351346418,38.03034412,25.46022933,-28.25037692,1.17369336e-07,-9.367056524e-05,1.10958847,6.018493379e-06,
56000,-13.89824294,0.2018774698,58.49221941,58.49221941,1.505880895,0.1055040618,0.1721145135,61.41271688,57.80353489,20.74302651,-1.370124342e-07,5.895277149e-05,0.3588539446,5.704383107e-06,-13.1210594,0.2207735444,29.63478166,-330.3652183,1.566647969,0.1918952432,0.1091658076,73.38840296,71.52856361,16.41713364,-1.731150283e-07,4.665835662e-05,0.2295185701,2.402378038e-05,-13.29734711,0.2163379173,-146.2289729,-506.2289729,1.552120415,-0.1798342829,-0.1202569131,34.94823409,33.88616387,-8.550261051,3.323936589e-07,-2.430029127e-05,0.2523230745,2.383102838e-05,-6.895211603,0.4521051143,-116.7364646,-476.7364646,2.650335223,-0.2033964275,-0.4037684084,35.17957803,24.68982655,-25.06023095,1.134088733e-07,-7.12224934e-05,1.015002309,6.167512419e-06,
64000,-10.5661239,0.2962741802,32.09410686,32.09410686,1.842015944,0.2509965448,0.1574138631,82.36982067,77.86313603,26.8722795,-9.254131141e-08,6.68258768e-05,0.3451219778,4.086984506e-06,-12.35885022,0.2410224458,-26.11484391,-386.1148439,1.635124041,0.2164173243,-0.1060912866,77.20915086,75.32166161,-16.96762414,1.465612372e-07,-4.219501959e-05,0.2252688506,2.10602739e-05,-12.58261859,0.2348924568,158.1327578,-561.8672422,1.614011609,-0.2179917921,0.08748739828,32.21962206,31.68093193,5.867077487,-4.238559984e-07,1.459022474e-05,0.1851927052,2.094209151e-05,-6.597231137,0.4678842683,-136.2768972,-496.2768972,2.758580852,-0.3381345843,-0.3233893805,26.7548627,20.60707452,-17.0637381,1.457357099e-07,-4.243403541e-05,0.8280524286,4.159430861e-06,
72000,-12.74385801,0.2305722828,-5.575356296,-5.575356296,1.599334486,0.2294815098,-0.02240121088,79.76227874,79.67313475,-3.76997473,5.86339559e-07,-8.3334738e-06,0.04731801682,4.480598007e-06,-11.12082463,0.2779449376,-85.63365451,-445.6336545,1.769871862,0.02116088313,-0.2771382423,52.00448524,44.58007621,-26.7784109,8.254729263e-08,-5.919328421e-05,0.6006811378,1.952400274e-05,-11.36502998,0.2702392962,98.71218538,-621.2878146,1.740624412,-0.04093342856,0.2671211928,46.32025635,40.13221169,23.12945596,-9.557013897e-08,5.112732289e-05,0.5763314553,1.946092272e-05,-8.323380876,0.3835579212,-154.3399439,-514.3399439,2.244424852,-0.3457311048,-0.1660923903,24.89124887,23.194091,-9.033737489,2.446922244e-07,-1.996894411e-05,0.3894844376,3.944775556e-06,
80000,-19.3496439,0.1077749438,-4.073585474,-4.073585474,1.241586902,0.1075026653,-0.007656072933,62.04435227,62.03690813,-0.9610815702,2.069997855e-06,-1.912011033e-06,0.01549209332,1.676107591e-06,-12.02046461,0.2505975205,-137.1503338,-497.1503338,1.668792878,-0.1837232222,-0.1704256286,34.86320135,32.76363542,-11.91582992,1.669574677e-07,-2.370579041e-05,0.3636907129,1.912095172e-05,-11.77663799,0.2577318555,47.67924293,-672.3207571,1.69444407,0.1735258125,0.1905636422,70.08692961,64.88795684,26.49020119,-7.510085615e-08,5.270058078e-05,0.4082452658,1.906283259e-05,-10.14699701,0.3109210671,-151.5487588,-511.5487588,1.902425114,-0.273368909,-0.1481261274,28.92360351,27.48334985,-9.013341277,2.207213427e-07,-1.793147273e-05,0.3279564291,3.248831802e-06,
88000,-18.42727439,0.1198495149,12.05545428,12.05545428,1.27233869,0.1172063433,0.02503156629,63.26720641,63.18575245,3.209375876,-5.635297855e-07,5.804409487e-06,0.05079271436,3.588368281e-07,-11.35775519,0.2704657276,164.0068871,-555.9931129,1.741475042,-0.2599973033,0.07451920605,29.46228452,29.08861166,4.677486636,-3.866561338e-07,8.45960363e-06,0.1608013023,1.833422419e-05,-11.67419551,0.2607895737,-11.23950261,-731.2395026,1.705589544,0.2557878923,-0.05083065883,84.24311079,83.74635849,-9.135050945,1.97982355e-07,-1.652146038e-05,0.109079978,1.829569711e-05,-9.56323111,0.3325358285,-165.9053018,-525.9053018,1.996415516,-0.322524689,-0.08098087583,25.7470655,25.3305138,-4.612640531,3.920918802e-07,-8.342324333e-06,0.1820981828,2.563982905e-06,
96000,-17.69198435,0.1304369943,-0.85724774,-0.85724774,1.30000585,0.1304223951,-0.001951498833,64.99829495,64.9977826,-0.2580770678,6.423910519e-06,-4.278566775e-07,0.003970551879,1.654074117e-06,-11.50508173,0.2659168843,113.7231805,-606.2768195,1.724487129,-0.1069832019,0.243446881,40.83181784,36.16813205,18.95002829,-8.748609582e-08,3.141656952e-05,0.523942687,1.768976621e-05,-11.83178964,0.256100554,-61.39618751,-781.3961875,1.688535407,0.1226082115,-0.2248437685,63.20241903,56.95060074,-27.40756914,6.048927513e-08,-4.543802195e-05,0.4812516249,1.768525409e-05,-10.91142092,0.2847271977,-177.2773961,-537.2773961,1.796135955,-0.2844058014,-0.01352469018,27.86044404,27.84838187,-0.8197372235,2.022433462e-06,-1.359012825e-06,0.02943572188,2.40499609e-06,
104000,-19.20521822,0.1095819663,-12.35077549,-12.35077549,1.246135999,0.1070458455,-0.02343916177,61.9803758,61.91072452,-2.937545632,5.209573512e-07,-4.495431806e-06,0.04744809004,2.367611964e-06,-11.78156277,0.2575857665,64.91676007,-655.0832399,1.693913869,0.1091994955,0.233293586,61.54513506,55.05324557,27.5126117,-5.562307235e-08,4.21035399e-05,0.4997454994,1.66845195e-05,-12.12912835,0.2474819802,-110.2081378,-830.2081378,1.657743665,-0.08548806938,-0.2322479721,42.49975499,38.09181909,-18.84787767,8.119407492e-08,-2.884358555e-05,0.4948011966,1.666337336e-05,-12.40643561,0.2397056217,-178.396979,-538.396979,1.630560027,-0.2396118109,-0.006705607664,30.67115946,30.66805511,-0.4363691309,3.506975821e-06,-6.677913866e-07,0.01422878397,1.671939399e-06,
112000,-21.00965068,0.08902612413,-15.68913787,-15.68913787,1.195452639,0.08570928045,-0.02407426057,59.36841865,59.29862169,-2.877950571,4.937632675e-07,-4.089643387e-06,0.04853317816,5.105410417e-07,-12.18045213,0.2460239536,17.66209632,-702.3379037,1.652604164,0.2344269759,0.07464434826,80.38717606,79.39105638,12.61579336,-1.126386773e-07,1.792737388e-05,0.1589069844,1.621573668e-05,-12.52524896,0.2364490384,-157.5040984,-877.5040984,1.619340556,-0.218456899,-0.09046950358,32.19655027,31.6210468,-6.060301018,2.344811377e-07,-8.611846997e-06,0.1916540289,1.617849738e-05,-12.49014921,0.2374064641,-179.9348639,-539.9348639,1.622629102,-0.2374063107,-0.0002698931649,30.81420033,30.81419529,-0.01762654574,8.061853402e-05,-2.504778468e-08,0.000572026807,1.432731652e-06,
120000,-22.75434319,0.07282539361,-14.62221295,-14.62221295,1.157091001,0.07046667911,-0.01838437077,57.57809719,57.53880024,-2.126909419,6.235767167e-07,-2.82090123e-06,0.03696478568,-8.099786179e-07,-12.65275303,0.2330034483,-28.21965153,-748.2196515,1.607573653,0.2053089667,-0.1101763819,75.42975964,73.46198091,-17.11683382,7.748460997e-08,-2.270190594e-05,0.2330026172,1.582258109e-05,-12.94825561,0.225209766,156.8618764,-923.1381236,1.581343843,-0.2070939464,0.08849596632,32.95906584,32.40070347,6.041062422,-2.195460169e-07,8.012207883e-06,0.1864484957,1.576890983e-05,-13.05044773,0.2225756311,171.3475047,-548.6524953,1.572597516,-0.2200424888,0.03348454375,31.98175875,31.90266541,2.247850717,-5.900263671e-07,2.981304608e-06,0.07045965246,1.110989504e-06,
128000,-23.53821063,0.06654102227,-7.073320012,-7.073320012,1.142568712,0.06603460422,-0.008193820252,57.06983761,57.06210768,-0.9392721295,1.323788872e-06,-1.167889081e-06,0.01646052289,-3.815198315e-07,-12.86991314,0.227250236,-73.21522187,-793.2152219,1.588159962,0.06562474458,-0.2175685241,56.68339901,51.5191415,-23.63865016,5.260021128e-08,-2.939225017e-05,0.4588323771,1.552516084e-05,-13.26460119,0.2171550535,112.0984431,-967.9015569,1.554784327,-0.08169353262,0.2012025943,42.7217731,39.35603203,16.62084955,-7.4809533e-08,2.066633097e-05,0.4223202567,1.546285915e-05,-14.66096329,0.1849063542,167.2190262,-552.7809738,1.453705792,-0.1803249054,0.04090584676,34.74478707,34.62079959,2.932654767,-4.239837593e-07,3.646457052e-06,0.08470788665,5.875637317e-07,
136000,-22.70670635,0.07322589402,-4.994992322,-4.994992322,1.158023176,0.0729478049,-0.006375681534,57.8684447,57.8636898,-0.7418185716,1.577551411e-06,-8.681183276e-07,0.01282010487,8.873180123e-07,-13.19998513,0.2187765369,-117.4897486,-837.4897486,1.560086959,-0.1009850401,-0.1940752297,41.1340722,38.09055426,-15.52808978,7.536386965e-08,-1.817185475e-05,0.4076624792,1.529119965e-05,-13.6032865,0.208850575,67.91828987,-1012.08171,1.527967457,0.07851287898,0.1935311099,58.18554259,53.93577707,21.82863529,-5.361109014e-08,2.554511182e-05,0.4047153203,1.523882701e-05,-15.54123949,0.1670852163,172.0278271,-547.9721729,1.401206029,-0.1654704288,0.02317340557,35.80898546,35.76835462,1.70535847,-6.862234278e-07,1.995707575e-06,0.04767785624,3.637534173e-07,
144000,-22.59063216,0.07421101848,-15.00886261,-15.00886261,1.160319511,0.07167936748,-0.01921831266,57.71831528,57.67525422,-2.229118506,4.958205037e-07,-2.463716868e-06,0.03864947864,8.234464894e-07,-13.50847884,0.2111426938,-161.2651712,-881.2651712,1.535312767,-0.1999553424,-0.06781665122,33.40268376,33.07110093,-4.694844615,2.354162386e-07,-5.188942553e-06,0.1419621508,1.50146383e-05,-13.92336473,0.2012944328,24.30252316,-1055.697477,1.504051658,0.1834567576,0.08284362845,72.27380366,71.21972236,12.29853009,-8.986786648e-08,1.359286012e-05,0.1726843308,1.491756513e-05,-15.19508529,0.1738784402,171.2640572,-548.7359428,1.420951222,-0.1718612423,0.02640881267,35.34332326,35.29101912,1.922100045,-5.750182792e-07,2.124386967e-06,0.05446428279,5.308429617e-07,
152000,-24.70929435,0.05814806702,-23.43182102,-23.43182102,1.123476026,0.05335282361,-0.0231230169,55.63278716,55.57298857,-2.57874957,4.060386499e-07,-2.700136455e-06,0.04640293129,-7.850040181e-07,-13.84728365,0.2030653471,155.6120482,-924.3879518,1.509616055,-0.1849459295,0.08384830563,34.48731185,33.97157722,5.941937346,-1.762172728e-07,6.221636185e-06,0.1749090808,1.483836234e-05,-14.27832583,0.1932340733,-18.67927251,-1098.679273,1.479033799,0.1830557006,-0.06188713539,72.29921263,71.70891148,-9.219987077,1.135654514e-07,-9.653990254e-06,0.1285751922,1.4774188e-05,-15.64518705,0.1650975572,164.08694,-555.91306,1.395489458,-0.1587708271,0.04526618914,36.32314955,36.16685094,3.366019304,-3.11071298e-07,3.524464544e-06,0.09306918396,5.178211902e-07,
160000,-27.47054376,0.04231290197,-9.712535109,-9.712535109,1.088364774,0.04170641352,-0.007138399256,54.35192228,54.34636405,-0.7772837239,1.279736554e-06,-7.731784177e-07,0.01430240528,-1.545863297e-06,-14.5535831,0.187206466,114.0230882,-965.9769118,1.460649496,-0.07621263909,0.1709909195,43.10677409,40.63060492,14.39958044,-6.907967898e-08,1.432352754e-05,0.354402315,1.474988209e-05,-14.94101373,0.1790396884,-59.41571356,-1139.415714,1.436171361,0.09109634868,-0.1541319736,59.76533383,56.94714001,-18.13610687,5.484740476e-08,-1.804031911e-05,0.318472655,1.472922567e-05,-17.37091369,0.1353487707,163.5453311,-556.4546689,1.313071366,-0.1298054456,0.03833844069,38.52599701,38.40901189,3.000041885,-3.315681689e-07,2.984196847e-06,0.07810776007,-1.768400709e-08,
168000,-25.45043809,0.05339223435,3.660901787,3.660901787,1.112807514,0.05328328335,0.003409164807,55.62814899,55.62684857,0.3803665114,-2.490626339e-06,3.603405385e-07,0.006837822404,-4.107904054e-07,-14.39152254,0.1907321363,71.19370403,-1008.806296,1.471369604,0.06148626465,0.1805496804,56.33075145,52.74877884,19.76663577,-4.792676217e-08,1.872593924e-05,0.3747316281,1.473430051e-05,-14.84847659,0.1809573262,-102.970899,-1182.970899,1.441875209,-0.04061698206,-0.1763400541,46.21026326,43.414373,-15.82973935,5.98462698e-08,-1.499631705e-05,0.364619785,1.475081077e-05,-17.89920713,0.1273619335,168.430565,-551.569435,1.291900934,-0.1247742418,0.02554311431,38.91326291,38.8609025,2.017990905,-4.694524883e-07,1.911745403e-06,0.05192856509,-1.163560214e-07,
176000,-24.04361332,0.06277971415,-6.294792542,-6.294792542,1.133970028,0.06240121053,-0.006883417234,56.65509018,56.64967958,-0.7829726859,1.1549438e-06,-7.08033939e-07,0.01382130829,9.825850469e-07,-14.67114611,0.184689708,28.54569881,-1051.454301,1.453053788,0.1622381352,0.08825574045,69.18253127,68.05548266,12.43679675,-7.271080067e-08,1.124646408e-05,0.1827449643,1.470931544e-05,-15.1108607,0.1755726908,-145.6525133,-1225.652513,1.425926431,-0.1449582493,-0.09905996016,37.4492807,36.69051311,-7.50032482,1.205667049e-07,-6.782464601e-06,0.2044213663,1.474595723e-05,-17.33336281,0.1359351777,169.3468944,-550.6531056,1.314641157,-0.1335922572,0.02512929264,38.22182061,38.1718115,1.954578676,-4.626518545e-07,1.767504875e-06,0.05120476602,4.485721564e-07,
184000,-25.39022311,0.05376366227,-19.22531047,-19.22531047,1.113636858,0.05076531664,-0.01770350268,55.34625613,55.31139508,-1.964088121,4.403939455e-07,-1.698882245e-06,0.03550964712,5.054742424e-08,-14.95760271,0.1786980711,-13.8231844,-1093.823184,1.435158046,0.1735225603,-0.04269568715,70.94780305,70.6733925,-6.233967396,1.387515304e-07,-5.392210468e-06,0.08820812438,1.451710921e-05,-15.37976655,0.1702204258,172.0274523,-1267.972548,1.41027866,-0.1685751836,0.02360933738,35.58137575,35.53938147,1.728196991,-5.005057416e-07,1.494842901e-06,0.04862766091,1.445810257e-05,-17.48755631,0.1335433248,162.8616851,-557.1383149,1.308251592,-0.1276134897,0.03935246935,38.69864687,38.57499112,3.091169674,-2.79820459e-07,2.673776812e-06,0.08013403461,3.46061605e-09,
192000,-28.48802997,0.03763557032,-12.41865366,-12.41865366,1.078214799,0.03675498513,-0.008093653171,53.81548638,53.80841715,-0.8722488169,9.503389161e-07,-7.230349522e-07,0.01621026715,-1.585613243e-06,-15.21360375,0.1735081233,-55.28260995,-1135.28261,1.419866494,0.09881791302,-0.1426186837,60.72104919,58.25410005,-17.13200636,4.838499226e-08,-1.420126822e-05,0.294090997,1.441339714e-05,-15.61516508,0.1656691888,130.7433268,-1309.256673,1.397130698,-0.1081275603,0.1255177709,40.38067247,39.09916477,10.09227543,-8.213529257e-08,8.36581001e-06,0.258119975,1.434154553e-05,-18.84009214,0.1142866211,159.870332,-560.129668,1.258066828,-0.1073055575,0.03933127379,40.32298562,40.19551349,3.203726751,-2.587399175e-07,2.655671608e-06,0.0797035906,-4.550565484e-07,
