Frequency,S11_Magnitude,S11_Magnitude (linear),S11_Phase,S11_Unwrapped Phase,S11_VSWR,S11_Real,S11_Imaginary,S11_Impedance (absolute),S11_Resistance,S11_Reactance,S11_Capacitance,S11_Inductance,S11_Quality Factor,S11_Group delay,S12_Magnitude,S12_Magnitude (linear),S12_Phase,S12_Unwrapped Phase,S12_VSWR,S12_Real,S12_Imaginary,S12_Impedance (absolute),S12_Resistance,S12_Reactance,S12_Capacitance,S12_Inductance,S12_Quality Factor,S12_Group delay,S21_Magnitude,S21_Magnitude (linear),S21_Phase,S21_Unwrapped Phase,S21_VSWR,S21_Real,S21_Imaginary,S21_Impedance (absolute),S21_Resistance,S21_Reactance,S21_Capacitance,S21_Inductance,S21_Quality Factor,S21_Group delay,S22_Magnitude,S22_Magnitude (linear),S22_Phase,S22_Unwrapped Phase,S22_VSWR,S22_Real,S22_Imaginary,S22_Impedance (absolute),S22_Resistance,S22_Reactance,S22_Capacitance,S22_Inductance,S22_Quality Factor,S22_Group delay,
0,-13.45486916,0.2124499053,-135.8870652,-135.8870652,1.539520995,-0.1525324831,-0.1478810464,37.01752366,35.3601351,-10.95252957,inf,-inf,0.3097422997,8.892719444e-06,-13.63094516,0.2081865853,-135.0763088,-135.0763088,1.525847583,-0.147406076,-0.1470139553,37.39568118,35.74545546,-10.98632718,inf,-inf,0.3073489213,3.805390277e-06,-16.70101591,0.1462006167,-162.7493552,-162.7493552,1.342470654,-0.1396240169,-0.04335613248,37.76881356,37.62141835,-3.33349049,inf,-inf,0.0886061886,1.59918891e-05,-16.76407244,0.1451430945,-161.8896113,-161.8896113,1.339572842,-0.1379526163,-0.04511755224,37.89918645,37.73919832,-3.478684267,inf,-inf,0.09217695187,-9.030242577e-06,
8000,-16.76876889,0.1450646369,133.3024287,-226.6975713,1.339358139,-0.09949246543,0.1055698735,41.04274794,40.12021469,8.653064908,-2.299112291e-06,0.0001721472566,0.2156784298,8.892719444e-06,-22.73053645,0.07302527107,30.30436086,30.30436086,1.157556121,0.06304688975,0.03684806518,56.71915106,56.56410889,4.19090474,-4.747034142e-06,8.337540067e-05,0.07409123597,3.805390277e-06,-19.6093509,0.1046001856,-80.58788457,-80.58788457,1.23363906,0.01710574673,-0.1031920164,51.72168656,50.63114164,-10.56505355,1.883035215e-06,-0.0002101850621,0.2086671011,1.59918891e-05,-10.59434773,0.2953130326,-128.2588626,-128.2588626,1.838139617,-0.1828623825,-0.2318860416,35.23389358,31.41195216,-15.95984081,1.246526712e-06,-0.0003175109445,0.5080817879,-9.030242577e-06,
16000,-13.38111811,0.2142614771,157.9518224,-202.0481776,1.545376028,-0.1985922217,0.08043077818,33.52376277,33.05720422,5.57350152,-1.78472795e-06,5.544064483e-05,0.1686017209,8.892719444e-06,-34.93706904,0.01791210177,77.30749375,77.30749375,1.036477594,0.003935622133,0.01747438892,50.39499615,50.36422794,1.760733133,-5.649455761e-06,1.751433635e-05,0.03495999453,3.805390277e-06,-34.88427114,0.01802131356,-137.48375,-137.48375,1.036704083,-0.01328325249,-0.01217879081,48.68927982,48.67483339,-1.185986397,8.387266472e-06,-1.179722485e-05,0.02436549474,1.59918891e-05,-14.69584262,0.1841653273,-24.27239694,-24.27239694,1.451477079,0.1678853746,-0.07570580416,70.03378605,69.18917877,-10.84383371,9.173124753e-07,-0.0001078656086,0.1567273077,-9.030242577e-06,
24000,-6.827123019,0.4556630881,123.2574171,-236.7425829,2.674195073,-0.2498863141,0.3810323869,32.19398257,23.20400797,22.31650797,-2.971547328e-07,0.0001479909398,0.961752297,7.247326105e-06,-23.81606529,0.06444611404,-61.56394929,-61.56394929,1.137771036,0.03068779546,-0.0566706346,53.15547047,52.81450161,-6.011028257,1.103214904e-06,-3.986186918e-05,0.1138139729,2.443002702e-05,-22.09068228,0.07860784419,133.2154313,-226.7845687,1.170628421,-0.05382620344,0.05728815752,44.90821065,44.61270477,5.143341015,-1.289328462e-06,3.410783944e-05,0.1152887062,2.715770411e-05,-6.75891455,0.459255401,-49.89317415,-49.89317415,2.698603747,0.2958591047,-0.3512590405,85.31182241,63.71833815,-56.7281273,1.16898905e-07,-0.000376190078,0.8902951482,8.567276942e-07,
32000,-6.29905211,0.4842252082,101.0802806,-258.9197194,2.877661397,-0.09306044608,0.4751987012,42.95252272,26.94385021,33.45068227,-1.486843207e-07,0.0001663700448,1.241496,1.015849995e-05,-20.20286474,0.09769149658,-143.9397737,-143.9397737,1.216536797,-0.07897367875,-0.05750466563,42.70316965,42.41815926,-4.925491188,1.009765683e-06,-2.449738343e-05,0.1161175137,3.081909817e-05,-20.37503734,0.09577411177,40.06578379,-319.9342162,1.211836695,0.07329649527,0.0616466079,57.87690323,57.43395834,7.14677248,-6.959214087e-07,3.554513023e-05,0.1244346148,2.834096903e-05,-6.095838459,0.4956876254,-71.03696246,-71.03696246,2.965796004,0.1610777174,-0.4687858689,65.14685917,40.83661606,-50.75907849,9.798428419e-08,-0.0002524549452,1.242979546,8.900237374e-06,
40000,-7.388254615,0.4271567458,57.37670374,-302.6232963,2.491356467,0.2302858737,0.3597656207,75.43232746,56.62468144,49.83654761,-7.983846731e-08,0.0001982933225,0.8801205824,7.288404737e-06,-15.37860549,0.170243181,149.1356056,-210.8643944,1.410344759,-0.1461340009,0.08733610053,37.33593755,36.74613864,6.610107963,-6.019377595e-07,2.630078392e-05,0.1798857841,2.566280185e-05,-15.17248095,0.1743315343,-20.43359058,-380.4335906,1.422279744,0.1633621535,-0.06086288401,69.43761724,68.89681288,-8.649385109,4.600180853e-07,-3.441480987e-05,0.1255411498,2.644982182e-05,-7.428541993,0.4251800712,-117.2134587,-117.2134587,2.479350489,-0.1944377535,-0.3781164543,35.51435853,26.09562731,-24.08916555,1.651727441e-07,-9.584774432e-05,0.9231111889,6.704603694e-06,
48000,-13.57935331,0.2094268373,44.60977978,-315.3902202,1.529810136,0.1490922609,0.1470751438,67.07776554,64.11240147,19.72375745,-1.681083328e-07,6.539861447e-05,0.3076434044,6.50038669e-06,-10.51305738,0.2980898106,68.16270264,-291.8372974,1.849367384,0.1108811124,0.2767000435,61.47166004,52.53992577,31.9111452,-1.039050138e-07,0.0001058086771,0.6073694383,2.392718843e-05,-10.58211274,0.2957293051,-108.7691931,-468.7691931,1.839817154,-0.09515287118,-0.2800031304,41.89649039,35.70870355,-21.91356652,1.513093717e-07,-7.265942568e-05,0.6136757805,2.410323547e-05,-13.39319533,0.2139637661,-118.7756729,-118.7756729,1.544411967,-0.1029982117,-0.1875416263,40.95343657,38.1145991,-14.98203264,2.213136268e-07,-4.967634485e-05,0.393078584,6.183904201e-06,
56000,-10.66316788,0.2929824499,46.5396393,-313.4603607,1.828784094,0.2015287313,0.2126614361,73.83485353,66.94393553,31.14634958,-9.124833546e-08,8.851956242e-05,0.4652602112,5.141630368e-06,-11.08327791,0.2791490179,2.840465846,-357.1595342,1.774498544,0.278806052,0.01383327889,88.6478373,88.60796034,2.65865039,-1.068983183e-06,7.556024134e-06,0.03000464495,2.258575023e-05,-11.17605188,0.2761832945,-173.2445144,-533.2445144,1.763130479,-0.2742658089,-0.03248812445,28.49582121,28.4255837,-1.999504425,1.421378478e-06,-5.68269666e-06,0.07034171913,2.297153715e-05,-10.47009089,0.2995680244,-122.5701122,-122.5701122,1.855380779,-0.1612668301,-0.252455958,36.85248648,32.22669866,-17.87583994,1.589884763e-07,-5.080407657e-05,0.5546903866,4.717344637e-06,
64000,-11.33352397,0.2712213053,12.89324445,-347.1067556,1.744317328,0.2643831408,0.06051901575,85.74902183,85.02643092,11.10859084,-2.238624163e-07,2.76247991e-05,0.1306486785,3.635540936e-06,-10.20773893,0.3087543276,-55.34371732,-415.3437173,1.893327336,0.1755737822,-0.2539745692,69.7085832,60.78292446,-34.12803342,7.286666521e-08,-8.486945652e-05,0.5614740279,2.023129289e-05,-10.39280126,0.3022455651,129.3846549,-590.6153451,1.866337926,-0.1917819243,0.2336066676,34.63682602,30.8033636,15.8386397,-1.570081796e-07,3.938746562e-05,0.5141853956,1.998812425e-05,-11.64983496,0.2615220139,-157.4068562,-157.4068562,1.708273012,-0.2414518199,-0.1004727945,30.71724477,30.02668071,-6.476694555,3.839606708e-07,-1.610621802e-05,0.215697986,3.694157693e-06,
72000,-16.40417285,0.1512834282,-0.8045058941,-360.8045059,1.356499291,0.1512685151,-0.002124142676,67.82279729,67.82215626,-0.2948766185,7.496305852e-06,-6.518204366e-07,0.004347791853,3.330632087e-06,-10.18052878,0.3097230739,-114.3459878,-474.3459878,1.897387881,-0.1276820218,-0.2821802329,39.43490633,33.45210852,-20.8822478,1.058547596e-07,-4.615990222e-05,0.6242430963,1.908251294e-05,-10.42427977,0.3011521801,69.69935041,-650.3006496,1.861853386,0.1044836301,0.2824461128,60.7041236,51.56409182,32.03334288,-6.900576468e-08,7.080923421e-05,0.6212335319,1.899747341e-05,-17.08964186,0.1398034559,-165.8276298,-165.8276298,1.325050029,-0.1355483325,-0.03422945874,38.07571592,37.98323794,-2.652127194,8.334763602e-07,-5.862488232e-06,0.06982362059,3.155100926e-06,
80000,-17.53463925,0.1328213952,15.9300629,-344.0699371,1.306329963,0.1277207125,0.03645466528,64.6195389,64.44229537,4.782820858,-4.159546944e-07,9.515119769e-06,0.07421866076,1.955574439e-06,-11.65780891,0.2612820377,-164.5746882,-524.5746882,1.707393216,-0.2518701347,-0.06949631987,29.96300081,29.63507048,-4.42086138,4.500111218e-07,-8.795024266e-06,0.1491766784,1.821146586e-05,-11.98437069,0.2516410365,21.92988538,-698.0701146,1.672514258,0.2334326882,0.09398080307,80.08526367,78.51995011,15.75648731,-1.262614407e-07,3.134653552e-05,0.2006685854,1.821959495e-05,-17.47171684,0.1337870747,-150.3427848,-150.3427848,1.308901128,-0.116261135,-0.06619916793,39.62605526,39.27080644,-5.294149301,3.757802577e-07,-1.053237538e-05,0.1348113212,1.880346358e-06,
88000,-16.53996922,0.1489366356,-2.939871984,-362.939872,1.350001285,0.1487406213,-0.007638652335,67.47178354,67.46354994,-1.054042096,1.715850729e-06,-1.906318294e-06,0.01562387537,1.298690093e-06,-10.94470365,0.2836382633,142.6677649,-577.3322351,1.791885576,-0.225529979,0.1720084097,32.05310901,30.02099111,11.23129067,-1.610303706e-07,2.031267532e-05,0.3741145864,1.729298096e-05,-11.27856095,0.2729429949,-33.08074676,-753.0807468,1.750815942,0.2286995297,-0.1489778628,78.77844802,74.98816178,-24.14165417,7.491528485e-08,-4.366208631e-05,0.3219395381,1.732583305e-05,-16.71575187,0.1459527918,-171.5356012,-171.5356012,1.341790923,-0.1443630032,-0.02148349931,37.39005328,37.3540724,-1.639926447,1.102841473e-06,-2.965936368e-06,0.0439022131,1.25194006e-06,
96000,-19.28326197,0.1086017695,-14.19934444,-374.1993444,1.24366611,0.1052837852,-0.02663961154,61.75785205,61.66828717,-3.32485289,4.986277726e-07,-5.51215388e-06,0.05391511654,1.649112594e-06,-11.27436252,0.2730749571,93.904298,-626.095702,1.75131531,-0.01859370963,0.2724411976,48.29859094,41.6201461,24.50545501,-6.765285483e-08,4.062671144e-05,0.5887882987,1.676327182e-05,-11.70917222,0.2597415269,-81.58746378,-801.5874638,1.701759011,0.03800004934,-0.2569467981,53.69610321,47.02807515,-25.91585708,6.397102691e-08,-4.296496624e-05,0.5510720351,1.686981086e-05,-19.96615962,0.1003903617,178.3701419,-181.6298581,1.223186497,-0.1003497467,0.002855358217,40.88026367,40.87958345,0.2358284411,-7.029957807e-06,3.909714804e-07,0.005768856265,1.559164146e-06,
104000,-20.9280741,0.08986618281,-4.440939569,-364.4409396,1.197479054,0.08959637574,-0.006958467301,59.84086287,59.83497397,-0.8394991567,1.82291546e-06,-1.284715774e-06,0.01403024186,9.153241558e-07,-11.70007202,0.2600138003,47.39559331,-672.6044067,1.702753107,0.1760118132,0.1913818643,70.42511051,65.14912365,26.74486638,-5.721980321e-08,4.092863161e-05,0.410517669,1.613575933e-05,-12.14944147,0.2469038868,-128.0339709,-848.0339709,1.655703522,-0.1521245417,-0.1944727568,37.22507788,34.39170711,-14.24489049,1.074305199e-07,-2.179946861e-05,0.4141955049,1.608417412e-05,-21.16899,0.08740786249,-168.21203,-168.21203,1.191559534,-0.08556445723,-0.01785659776,42.12030696,42.09305744,-1.514851258,1.01022195e-06,-2.318231401e-06,0.03598814982,1.020823505e-06,
112000,-20.10560637,0.09879152314,-7.066624657,-367.0666247,1.21924233,0.09804107987,-0.01215367034,60.86799727,60.84966752,-1.493671481,9.513646711e-07,-2.122546425e-06,0.02454691278,6.756111973e-07,-12.05591215,0.2495769036,1.670283433,-718.3297166,1.665163172,0.2494708614,0.007274621778,83.23683151,83.22681423,1.291321861,-1.100443135e-06,1.835002298e-06,0.01551569495,1.575467965e-05,-12.5112586,0.2368301936,-173.518779,-893.518779,1.620648751,-0.2353165894,-0.02673281426,30.96256677,30.91301602,-1.75099456,8.115537934e-07,-2.488209282e-06,0.05664263103,1.569441697e-05,-20.02204117,0.09974656335,-174.4565341,-174.4565341,1.221596629,-0.09928006874,-0.009635603334,40.96939864,40.96163958,-0.7973129892,1.782269067e-06,-1.133002709e-06,0.01946486999,9.73224762e-07,
120000,-21.38851437,0.08522642698,-19.68689972,-379.6868997,1.186333382,0.08024473733,-0.02871107778,58.71671206,58.61873269,-3.390642064,3.911622541e-07,-4.496978706e-06,0.0578422956,2.307795021e-07,-12.37125846,0.2406783785,-43.57016217,-763.5701622,1.633930002,0.174378921,-0.165885725,70.41961198,66.42104547,-23.39158971,5.669948938e-08,-3.102405941e-05,0.3521713569,1.547408053e-05,-12.95978939,0.2249109139,141.2728036,-938.7271964,1.580348551,-0.1754605469,0.1407071985,35.32785196,33.87124536,10.03971422,-1.321044766e-07,1.331558455e-05,0.2964081809,1.540056997e-05,-21.60391777,0.08313886889,170.1778784,-189.8221216,1.181355422,-0.08192022832,0.0141826553,42.42967311,42.412376,1.211413596,-1.094829377e-06,1.606687182e-06,0.02856273828,3.943372102e-07,
128000,-24.10423117,0.06234310685,-16.3051656,-376.3051656,1.132976374,0.05983566609,-0.01750302929,56.36230312,56.32753145,-1.979498509,6.281378781e-07,-2.461304472e-06,0.03514264619,-3.373320284e-07,-12.83419538,0.2281866493,-87.48021116,-807.4802112,1.591300083,0.01003209745,-0.2279660149,50.96282744,45.92666204,-22.08962413,5.628878e-08,-2.74661943e-05,0.480976042,1.522972903e-05,-13.31462141,0.2159080968,97.75954465,-982.2404553,1.550721404,-0.02915104596,0.213931117,47.28816074,43.14271965,19.3617119,-6.421942437e-08,2.407431371e-05,0.4487828319,1.515150686e-05,-24.92505637,0.05672143136,175.1607512,-184.8392488,1.120264434,-0.05651923672,0.004785045058,44.65054625,44.64848847,0.4286692246,-2.900600093e-06,5.330064535e-07,0.009600979547,-4.377917853e-07,
136000,-23.69359022,0.06536127105,-3.144893926,-363.1448939,1.139864247,0.06526283636,-0.003585797537,56.98184873,56.98037085,-0.4103933867,2.851549202e-06,-4.802657067e-07,0.007202364263,-4.151515336e-08,-13.16099074,0.2197609192,-130.855919,-850.855919,1.563316872,-0.1437586047,-0.1662177041,37.73342228,35.62271816,-12.44319525,9.404794438e-08,-1.456173552e-05,0.3493050471,1.502766282e-05,-13.65200002,0.207682546,54.55865964,-1025.44134,1.524240745,0.1204287029,0.1692009676,63.25417571,59.63468863,21.09015547,-5.548830289e-08,2.468090068e-05,0.3536558327,1.49468593e-05,-24.03174708,0.06286553937,-168.6991285,-168.6991285,1.134165463,-0.06164668204,-0.01231919775,44.19412896,44.18061447,-1.092858512,1.070821997e-06,-1.278925252e-06,0.02473615466,-9.542060282e-09,
144000,-22.60669995,0.07407386447,-10.48004634,-370.4800463,1.159999511,0.07283818743,-0.01347352403,57.85449225,57.83326618,-1.56703402,7.05308657e-07,-1.731952849e-06,0.02709572057,6.302037458e-07,-13.43462426,0.212945657,-173.9949361,-893.9949361,1.541120595,-0.2117771504,-0.02227759951,32.5309147,32.49554249,-1.516617686,7.287549597e-07,-1.676230566e-06,0.04667156075,1.487501141e-05,-13.93290315,0.2010735022,11.65659414,-1068.343406,1.503359202,0.1969265937,0.04062597666,74.46930369,74.20376101,6.283235202,-1.759034359e-07,6.94449959e-06,0.08467542772,1.486690778e-05,-22.68319249,0.07342439479,-178.713829,-178.713829,1.158485491,-0.07340589596,-0.001648086462,43.16142109,43.16118408,-0.1430378637,7.726923707e-06,-1.58091549e-07,0.003314039381,8.993302737e-07,
152000,-24.05185982,0.06272013854,-22.00164114,-382.0016411,1.133834388,0.05815242681,-0.02349704312,56.17066328,56.10825168,-2.647169496,3.955439935e-07,-2.771777043e-06,0.04717968243,-1.609733498e-07,-13.76918089,0.2048995269,143.2888556,-936.7111444,1.51540537,-0.1642596292,0.1224850616,36.07581899,34.95125993,8.937233627,-1.171584002e-07,9.357927035e-06,0.255705621,1.472322708e-05,-14.2703544,0.1934114942,-30.91049509,-1110.910495,1.479579098,0.165941419,-0.09935517868,69.65649232,68.21811875,-14.08244286,7.435300851e-08,-1.474533153e-05,0.2064325889,1.469802056e-05,-24.31191949,0.06087010141,167.2525741,-192.7474259,1.129630846,-0.05936978944,0.01343120798,44.39670207,44.38057341,1.19660304,-8.750370499e-07,1.252929531e-06,0.0269623159,7.802437658e-08,
160000,-26.9094018,0.04513671099,-15.95172594,-375.9517259,1.094540677,0.04339865832,-0.01240480291,54.53602387,54.51917916,-1.355360652,7.339141749e-07,-1.348202171e-06,0.02486025418,-1.238140154e-06,-14.09336802,0.1973929325,101.2472372,-978.7527628,1.491879378,-0.03850011544,0.1936019393,46.42204024,43.05855106,17.34840053,-5.733775818e-08,1.725677312e-05,0.4029025618,1.463607201e-05,-14.24569928,0.1939612777,-73.58935003,-1153.58935,1.481270371,0.05479789484,-0.1860595817,55.59207255,51.85091071,-20.04897973,4.961441469e-08,-1.994308892e-05,0.3866659129,1.460469121e-05,-27.354832,0.04288035774,174.2345439,-185.7654561,1.089602921,-0.04266344554,0.004307608945,45.90829763,45.90658774,0.3962238026,-2.51049631e-06,3.941311047e-07,0.008631088088,-1.158351715e-06,
168000,-25.94404024,0.05044266088,1.908962109,-358.0910379,1.106244581,0.05041466609,0.001680321217,55.30910851,55.30879459,0.1863472356,-5.08379343e-06,1.765362123e-07,0.003369215274,-8.048191818e-07,-14.34287231,0.1918034368,59.50852426,-1020.491476,1.474645514,0.09732301391,0.1652779154,60.46205129,57.18814849,19.62588391,-4.827048077e-08,1.859259784e-05,0.3431809637,1.460616923e-05,-14.85462847,0.1808292065,-114.4698643,-1194.469864,1.441493295,-0.07490209292,-0.1645869934,43.20393859,40.90055082,-13.91852193,6.806404131e-08,-1.318572361e-05,0.3403015767,1.455358006e-05,-26.30886562,0.04836784287,-166.296866,-166.296866,1.101652393,-0.0469911085,-0.01145792064,45.51235884,45.5003574,-1.045123982,9.064482954e-07,-9.900990943e-07,0.02296957742,-5.753507334e-07,
176000,-24.36243128,0.06051714568,-4.606129749,-364.6061297,1.128830761,0.06032169302,-0.00485986349,56.41923634,56.41655185,-0.5503691117,1.643059958e-06,-4.976929809e-07,0.009755454624,3.321950913e-07,-14.59494381,0.1863171402,17.1357926,-1062.864207,1.457960096,0.1780463625,0.05489598855,71.57966266,71.12109873,8.089340012,-1.117877908e-07,7.315104826e-06,0.113740369,1.457139367e-05,-15.08483471,0.1760995575,-156.8712747,-1236.871275,1.427477759,-0.1619454998,-0.06917159276,36.12123836,35.75863448,-5.105283631,1.771281509e-07,-4.616654123e-06,0.142770654,1.448661208e-05,-24.53030267,0.05935876634,-175.2588442,-175.2588442,1.126209152,-0.05915565684,-0.004906261767,44.41495616,44.41280291,-0.4373426344,2.067691046e-06,-3.954843301e-07,0.00984721985,8.405135801e-07,
184000,-25.29797321,0.05433771099,-16.08504301,-376.085043,1.114919907,0.05221047188,-0.01505501452,55.50733614,55.48204233,-1.675513004,5.162433922e-07,-1.4492727e-06,0.03019919479,-8.614973261e-08,-14.86472155,0.1806192033,-24.98425898,-1104.984259,1.440867553,0.1637175554,-0.07628799806,69.43785077,68.58996811,-10.81810495,7.995601083e-08,-9.357363469e-06,0.1577213877,1.456866094e-05,-15.33607754,0.1710787716,161.1589144,-1278.841086,1.412774497,-0.1619120163,0.05524893719,36.10252604,35.87088199,4.083161977,-2.118388939e-07,3.531822892e-06,0.1138294279,1.449367745e-05,-25.67991691,0.05200009708,170.2843188,-189.7156812,1.109704857,-0.05125427624,0.008775492176,45.12482249,45.11783632,0.7940094488,-1.089373078e-06,6.867963513e-07,0.01759857107,-5.049142643e-09,
