Frequency,S11_Magnitude,S11_Magnitude (linear),S11_Phase,S11_Unwrapped Phase,S11_VSWR,S11_Real,S11_Imaginary,S11_Impedance (absolute),S11_Resistance,S11_Reactance,S11_Capacitance,S11_Inductance,S11_Quality Factor,S11_Group delay,S12_Magnitude,S12_Magnitude (linear),S12_Phase,S12_Unwrapped Phase,S12_VSWR,S12_Real,S12_Imaginary,S12_Impedance (absolute),S12_Resistance,S12_Reactance,S12_Capacitance,S12_Inductance,S12_Quality Factor,S12_Group delay,S21_Magnitude,S21_Magnitude (linear),S21_Phase,S21_Unwrapped Phase,S21_VSWR,S21_Real,S21_Imaginary,S21_Impedance (absolute),S21_Resistance,S21_Reactance,S21_Capacitance,S21_Inductance,S21_Quality Factor,S21_Group delay,S22_Magnitude,S22_Magnitude (linear),S22_Phase,S22_Unwrapped Phase,S22_VSWR,S22_Real,S22_Imaginary,S22_Impedance (absolute),S22_Resistance,S22_Reactance,S22_Capacitance,S22_Inductance,S22_Quality Factor,S22_Group delay,
0,-13.38050307,0.2142766493,-137.2261232,-137.2261232,1.545425178,-0.1572875396,-0.1455167081,36.6591072,35.06405137,-10.69590772,inf,-inf,0.3050391299,-1.950937175e-05,-13.52287349,0.2107930683,-136.3919455,-136.3919455,1.534189602,-0.1526299717,-0.1453884775,37.00204058,35.39937653,-10.7719612,inf,-inf,0.3042980486,5.44710955e-06,-16.54917737,0.1487788275,-163.4179467,-163.4179467,1.349565618,-0.1425914156,-0.04245971863,37.54041597,37.39965649,-3.247849382,inf,-inf,0.08684169018,1.425261427e-05,-16.64602062,0.1471292323,-162.7474404,-162.7474404,1.345021163,-0.140509402,-0.04363621136,37.70106515,37.55195606,-3.34976253,inf,-inf,0.08920340991,-1.003316416e-05,
8000,-16.02459495,0.1580411759,23.4155771,23.4155771,1.375413076,0.1450259506,0.06280515042,66.8830565,66.33485309,8.545789142,-2.327973176e-06,0.0001700130731,0.1288280405,-1.950937175e-05,-28.97227387,0.03559477947,84.77828294,84.77828294,1.073817061,0.003239482585,0.03544706022,50.32459192,50.19828287,3.563277743,-5.583165086e-06,7.08891583e-05,0.07098405641,5.44710955e-06,-31.62829093,0.02621714847,-144.5871142,-144.5871142,1.053845985,-0.02136691033,-0.01519190629,47.90848119,47.88635212,-1.455970693,1.366398924e-05,-2.896561661e-05,0.03040471092,1.425261427e-05,-14.87223636,0.1804630038,-160.0564615,-160.0564615,1.440402336,-0.1696404939,-0.06155484202,35.54456567,35.26021783,-4.487002003,4.433777358e-06,-8.926606856e-05,0.1272539502,-1.003316416e-05,
16000,4.951766852,1.768431909,-87.42027774,-87.42027774,nan,0.07959612335,-1.766639713,51.96717255,-26.80526821,-44.52038431,2.234298759e-07,-0.0004428524519,-1.660881882,-1.950937175e-05,-19.03203795,0.1117887506,-0.2321303704,-0.2321303704,1.251716584,0.1117878332,-0.000452904094,62.58570995,62.58568362,-0.05740803711,0.0001732716261,-5.710483049e-07,0.000917271072,5.44710955e-06,-20.47883326,0.09463642736,-137.5631807,-137.5631807,1.20905729,-0.06984375298,-0.063858465,43.49650342,43.13975117,-5.559467468,1.789233232e-06,-5.530104553e-05,0.1288711065,1.425261427e-05,1.185765987,1.146273624,53.26982062,53.26982062,nan,0.6855259411,0.9186933141,98.84566752,-16.64790036,97.43363588,-1.02091889e-07,0.0009691902984,-5.852608063,-1.003316416e-05,
24000,-7.802245704,0.4072749648,120.4965969,120.4965969,2.374245866,-0.2066868255,0.3509322628,34.51422061,26.40902094,22.22149944,-2.984252246e-07,0.0001473608949,0.8414359431,-9.424922034e-06,-20.65102822,0.09277876539,-55.31317763,-55.31317763,1.204533937,0.05279950665,-0.07628965463,55.54013315,54.89381755,-8.4483836,7.849378385e-07,-5.60250838e-05,0.1539041003,2.450335515e-05,-22.43290653,0.07557091373,124.5575168,-235.4424832,1.163497482,-0.0428663355,0.06223696879,45.90480408,45.54926182,5.702261376,-1.162951946e-06,3.78142952e-05,0.1251888867,2.194556378e-05,-6.906340141,0.4515262389,-50.2714077,-50.2714077,2.646482552,0.2885937592,-0.3472601137,84.29151597,63.51833085,-55.4119239,1.19675613e-07,-0.0003674617331,0.8723768897,6.340437585e-07,
32000,-6.836598805,0.4551662579,95.16832,95.16832,2.6708446,-0.04100225118,0.4533157153,46.71135969,30.74912621,35.16308237,-1.41443572e-07,0.0001748868242,1.143547369,-7.166016344e-06,-20.41041401,0.09538482771,-144.7845927,-144.7845927,1.210884873,-0.07792843717,-0.05500385475,42.7908941,42.52960912,-4.721542734,1.053382814e-06,-2.348302703e-05,0.1110177787,2.518516764e-05,-21.27307246,0.08636671019,36.77209236,-323.2279076,1.189062091,0.06918172549,0.05170200661,57.41097105,57.10192362,5.948942468,-8.360464063e-07,2.95876125e-05,0.1041811219,2.748330387e-05,-5.884489507,0.5078968562,-73.16240332,-73.16240332,3.064188627,0.1471173598,-0.4861231315,63.45510197,38.49859507,-50.44212667,9.859996593e-08,-0.0002508785563,1.310232921,1.395418954e-05,
40000,-6.996645504,0.446856135,67.84015552,67.84015552,2.615695891,0.1685504705,0.4138491805,66.73850705,46.39106469,47.97809334,-8.293104832e-08,0.0001908987679,1.034209791,7.239800138e-06,-14.92279051,0.1794157126,164.2062,-195.7938,1.437287712,-0.1726423122,0.04883267322,35.30828781,35.12986687,3.545086961,-1.122362758e-06,1.410545284e-05,0.1009137602,2.608666389e-05,-14.65545228,0.1850237104,-7.770869119,-367.7708691,1.454059125,0.1833245848,-0.02501739433,72.42988105,72.33287145,-3.747449265,1.061755156e-06,-1.491062686e-05,0.05180838518,2.564039733e-05,-7.12400945,0.4403515481,-105.9705796,-105.9705796,2.573671996,-0.1211599669,-0.4233553452,40.69892401,28.06273507,-29.47686069,1.349829488e-07,-0.0001172847021,1.050391582,6.710308251e-06,
48000,-13.15284539,0.2199671006,42.0985783,42.0985783,1.563994418,0.1632139337,0.1474677497,68.99792301,65.90514444,20.42609398,-1.623280488e-07,6.772737135e-05,0.3099317079,6.904026491e-06,-10.77447334,0.2892519749,67.34176684,-292.6582332,1.813936767,0.1114295328,0.2669272639,61.59932288,53.22520695,31.00893297,-1.069281547e-07,0.0001028171867,0.582598636,2.43357543e-05,-10.76189527,0.2896711453,-107.1585634,-467.1585634,1.815597292,-0.0854579444,-0.2767784532,42.64933037,36.50271699,-22.05713112,1.503245351e-07,-7.313544683e-05,0.6042599822,2.435566339e-05,-12.99950957,0.2238847545,-119.8209227,-119.8209227,1.576936881,-0.111335831,-0.1942388119,40.31458467,37.31452577,-15.26079631,2.172709677e-07,-5.060064933e-05,0.4089773618,6.434525569e-06,
56000,-10.69529971,0.2919006179,42.77834575,42.77834575,1.824462287,0.2142511417,0.1982483771,75.91128909,69.65044105,30.18840627,-9.414384218e-08,8.579703716e-05,0.4334273525,6.326489307e-06,-11.16986727,0.2763800152,2.975682623,-357.0243174,1.763881653,0.2760073602,0.0143474711,88.11122177,88.06872884,2.736128779,-1.038713008e-06,7.776221787e-06,0.03106810799,2.361355892e-05,-11.26266787,0.2734428719,-172.6988769,-532.6988769,1.752708524,-0.2712257839,-0.03475022781,28.68608421,28.60549351,-2.148759757,1.322647888e-06,-6.106888157e-06,0.07511703149,2.398207348e-05,-10.19187259,0.3093188382,-123.5705868,-123.5705868,1.895692124,-0.1710421482,-0.2577260702,36.19887798,31.44893173,-17.92549749,1.585480434e-07,-5.094520596e-05,0.5699874848,5.435045006e-06,
64000,-11.24745275,0.2739222829,8.281243403,8.281243403,1.754526069,0.2710660934,0.03945364487,87.10115033,86.78593052,7.403556724,-3.35892069e-07,1.841113514e-05,0.08530825998,4.411352236e-06,-10.25270508,0.3071600617,-54.60419592,-414.6041959,1.886669618,0.1779137045,-0.2503877338,70.06466806,61.31538929,-33.90399307,7.334817409e-08,-8.431231386e-05,0.5529442683,2.003296423e-05,-10.37679816,0.302802943,128.5145434,-591.4854566,1.868629436,-0.1885594098,0.2369281986,34.87466607,30.91997404,16.13063977,-1.541659861e-07,4.011361023e-05,0.5216899519,2.063499688e-05,-11.37171124,0.2700315057,-157.0195679,-157.0195679,1.739844275,-0.2486013313,-0.1054248176,30.27660355,29.52268543,-6.714444712,3.703650998e-07,-1.669745416e-05,0.2274333996,3.631347159e-06,
72000,-16.26683181,0.1536945293,-6.352623053,-6.352623053,1.363212893,0.1527508067,-0.01700586374,68.02273067,67.98149715,-2.368107613,9.334395568e-07,-5.234667116e-06,0.03483459047,3.851807442e-06,-10.26346274,0.3067798729,-114.8560671,-474.8560671,1.885086456,-0.1289519107,-0.2783618061,39.32208251,33.50126635,-20.58862126,1.073644171e-07,-4.551084508e-05,0.6145624779,1.907448011e-05,-10.49781952,0.2986132155,69.05071928,-650.9492807,1.851493704,0.1067665831,0.2788740741,60.98608289,52.00959267,31.84814872,-6.940702708e-08,7.039986524e-05,0.6123514354,1.930963608e-05,-16.78922125,0.1447234602,-165.6359051,-165.6359051,1.33842495,-0.1401992334,-0.03590341038,37.71813388,37.61709477,-2.758949855,8.012053269e-07,-6.098618156e-06,0.07334298068,3.047892947e-06,
80000,-16.02559436,0.1580229926,3.140590508,3.140590508,1.375361776,0.1577856592,0.008657479388,68.73291066,68.72207538,1.220394703,-1.630158492e-06,2.427898119e-06,0.01775840873,2.298407022e-06,-10.46477509,0.2997514176,-162.2170432,-522.2170432,1.856128595,-0.2854293796,-0.09154770143,27.95139855,27.40241426,-5.51256508,3.608913019e-07,-1.096689977e-05,0.2011707811,1.830637525e-05,-9.880912219,0.320593261,14.82268332,-705.1773167,1.943744719,0.3099246169,0.08201689372,94.43292921,92.89322106,16.98315635,-1.171417578e-07,3.378691603e-05,0.1828244963,1.823577641e-05,-16.16683585,0.1554741559,-151.0796627,-151.0796627,1.368192772,-0.1360854293,-0.07518622934,38.08196419,37.63771366,-5.799871267,3.430139562e-07,-1.153847727e-05,0.1540973322,1.830300327e-06,
88000,-16.68145336,0.146530264,-10.11735496,-10.11735496,1.343375419,0.1442517208,-0.02574022788,66.84347563,66.75116194,-3.511782128,5.150031616e-07,-6.351335054e-06,0.05261005241,1.437041223e-06,-11.03185077,0.2808066973,142.1095926,-577.8904074,1.780893527,-0.2216089723,0.1724582982,32.3114433,30.25969205,11.33050773,-1.596202873e-07,2.049211719e-05,0.3744422684,1.741289491e-05,-11.41086143,0.2688171229,-33.91170649,-753.9117065,1.735293813,0.2230908763,-0.1499770198,77.86714045,74.0908535,-23.95489489,7.549934606e-08,-4.332431741e-05,0.3233178423,1.71322714e-05,-16.22570698,0.1544239478,-170.4301979,-170.4301979,1.36525147,-0.1522749527,-0.02567283493,36.79257603,36.74178327,-1.932618147,9.358180257e-07,-3.4952924e-06,0.05260000944,1.257437837e-06,
96000,-19.44281797,0.1066250141,-22.93345176,-22.93345176,1.238701589,0.09819716629,-0.04154768552,60.86797857,60.65410834,-5.098034651,3.251966893e-07,-8.451848071e-06,0.08405093721,1.50748803e-06,-11.43503235,0.2680701038,93.30117065,-626.6988293,1.73250213,-0.01543666275,0.2676252791,48.57998296,42.08347874,24.26923077,-6.831135303e-08,4.023508376e-05,0.5766925999,1.69881312e-05,-11.81243203,0.2566719433,-82.599424,-802.599424,1.690602059,0.03306077491,-0.254533832,53.20420534,46.71723749,-25.45952056,6.511764379e-08,-4.220842235e-05,0.5449705916,1.644796169e-05,-19.32123808,0.1081279815,179.0212537,-180.9787463,1.24247421,-0.1081122057,0.001846989637,40.24359912,40.24331802,0.1504166025,-1.102181516e-05,2.493702689e-07,0.003737678947,1.482073445e-06,
104000,-21.35047952,0.08560044536,-14.00899553,-14.00899553,1.187227662,0.08305449399,-0.02072166194,59.053466,59.00206812,-2.46329143,6.212565726e-07,-3.769663532e-06,0.04174923877,1.189922714e-06,-11.85391627,0.255448988,46.63913922,-673.3608608,1.686182636,0.1753889815,0.1857226174,70.39027647,65.41476016,25.99423348,-5.88721338e-08,3.977991105e-05,0.3973756597,1.612145203e-05,-12.30550427,0.2425072834,-128.9429352,-848.9429352,1.640289413,-0.1524269988,-0.188615462,37.17827971,34.50961415,-13.83152246,1.106411818e-07,-2.116687664e-05,0.4008020027,1.607470549e-05,-20.68883607,0.0923757966,-168.7934682,-168.7934682,1.203555164,-0.09061446784,-0.01795288322,41.69390487,41.66659071,-1.508947155,1.014174675e-06,-2.30919614e-06,0.03621479774,8.424277732e-07,
112000,-20.56907193,0.09365832869,-16.62141685,-16.62141685,1.206673337,0.08974488274,-0.02679064303,59.85148004,59.76422843,-3.230582509,4.398668889e-07,-4.590742638e-06,0.05405545415,1.045779249e-06,-12.21103138,0.2451593328,0.8890942665,-719.1109057,1.649565778,0.2451298166,0.003804137258,82.47244657,82.46974467,0.6675758327,-2.12863649e-06,9.486428005e-07,0.00809479689,1.575042531e-05,-12.68167254,0.2322289577,-174.5123507,-894.5123507,1.604943257,-0.2311646142,-0.0222083297,31.23184972,31.19748633,-1.464678668,9.701966096e-07,-2.081346875e-06,0.04694861157,1.568562607e-05,-19.66393982,0.1039448577,-173.2398851,-173.2398851,1.232005493,-0.103222201,-0.01223563091,40.64485428,40.63242274,-1.005187234,1.41369312e-06,-1.428397474e-06,0.02473855031,7.687741158e-07,
120000,-21.75174006,0.08173592782,-30.40825949,-30.40825949,1.178022707,0.07049239185,-0.04137130151,57.56983388,57.37113624,-4.778964273,2.77526911e-07,-6.338298224e-06,0.0832991045,5.369326769e-07,-12.68722554,0.2320805384,-43.83327841,-763.8332784,1.604439788,0.1674131756,-0.1607302241,69.48599489,65.79224868,-22.35360149,5.933232698e-08,-2.964738477e-05,0.3397604115,1.548089484e-05,-13.08393189,0.2217192523,140.5689979,-939.4310021,1.569766766,-0.1712537365,0.1408246589,35.62912341,34.16193104,10.11913547,-1.310676388e-07,1.342092025e-05,0.2962108746,1.540581306e-05,-21.02543997,0.08886443855,173.5694116,-186.4305884,1.195063045,-0.08830532731,0.009952768892,41.88672286,41.87829438,0.8402452944,-1.57845715e-06,1.114409933e-06,0.0200639808,4.441055137e-07,
128000,-24.74333268,0.05792064189,-29.79304097,-29.79304097,1.122963403,0.05026502787,-0.02877894595,55.287909,55.19593945,-3.187655866,3.900665709e-07,-3.963524906e-06,0.05775163713,-1.674776598e-07,-13.00041826,0.2238613338,-88.26874495,-808.2687449,1.576859119,0.006763187385,-0.2237591474,50.64824509,45.81794026,-21.58613168,5.760170518e-08,-2.68401528e-05,0.4711283736,1.524904175e-05,-13.50005866,0.2113474766,96.77159413,-983.2284059,1.535971091,-0.02492033295,0.2098731352,47.66880359,43.64206913,19.17510465,-6.484439151e-08,2.384228663e-05,0.4393720332,1.515512717e-05,-23.78469884,0.06467926228,176.7694666,-183.2305334,1.13830392,-0.06457647883,0.00364490766,43.93414462,43.93296748,0.3216086392,-3.866183433e-06,3.998875365e-07,0.007320439699,-2.70077457e-07,
136000,-24.7405684,0.057939078,-15.15501401,-15.15501401,1.123004949,0.05592407598,-0.01514709496,55.92224039,55.89642414,-1.69904046,6.887752012e-07,-1.98831388e-06,0.03039622813,9.103223748e-08,-13.33074578,0.2155076598,-131.7068269,-851.7068269,1.549419411,-0.1433814081,-0.1608891645,37.74303948,35.76177221,-12.06783649,9.697321768e-08,-1.412246933e-05,0.3374507397,1.506595002e-05,-13.84737846,0.2030631305,53.5713844,-1026.428616,1.509609075,0.1205831118,0.163384051,63.30213278,59.9177115,20.42126007,-5.730581417e-08,2.389812121e-05,0.340821763,1.495911382e-05,-23.34240575,0.0680580831,-170.1932634,-170.1932634,1.146056491,-0.06706361017,-0.01159201735,43.71592029,43.70406687,-1.017951656,1.149619364e-06,-1.191264984e-06,0.0232919206,-6.560032759e-08,
144000,-23.48050584,0.06698455988,-21.83636129,-21.83636129,1.143587248,0.06217841509,-0.02491537596,56.62568722,56.55488135,-2.8308742,3.904245058e-07,-3.128802932e-06,0.05005534681,8.724914578e-07,-13.63093156,0.2081869114,-174.7603326,-894.7603326,1.525848624,-0.2073169842,-0.01901205243,32.83365908,32.80775432,-1.304003329,8.475765635e-07,-1.441240108e-06,0.03974680242,1.489375603e-05,-14.14062607,0.1963218766,10.75262473,-1069.247375,1.488558469,0.192874828,0.03662758444,73.85533849,73.64189535,5.61090661,-1.969811186e-07,6.201413348e-06,0.07619177349,1.483329529e-05,-22.29883441,0.07674644711,-177.4694322,-177.4694322,1.166252157,-0.0766716046,-0.003388538449,42.87890739,42.87791103,-0.292308603,3.781081532e-06,-3.23071938e-07,0.006817230502,5.052096261e-07,
152000,-24.7778154,0.05769115451,-35.69746356,-35.69746356,1.122446382,0.04685152651,-0.03366309213,54.90959906,54.78474612,-3.700765055,2.829339281e-07,-3.874967445e-06,0.06755101223,1.23699652e-07,-13.94596323,0.200771396,142.4628351,-937.5371649,1.502412939,-0.1592033449,0.1223251749,36.44558676,35.31609833,9.002999085,-1.16302577e-07,9.426788204e-06,0.2549262096,1.473558595e-05,-14.47181588,0.1889771113,-31.83275635,-1111.832756,1.466021647,0.1605533078,-0.09967438964,68.89658708,67.46990732,-13.94816541,7.506879675e-08,-1.460473337e-05,0.2067316521,1.468685083e-05,-23.67106865,0.0655309656,171.6335057,-188.3664943,1.140252835,-0.06483355827,0.009535049858,43.9119124,43.9038609,0.840861925,-1.24523654e-06,8.804429725e-07,0.01915234578,3.627355931e-09,
160000,-27.96392867,0.03997638936,-32.08569319,-32.08569319,1.083282096,0.0338701792,-0.02123493976,53.50412123,53.45577979,-2.273894465,4.374514339e-07,-2.261884651e-06,0.04253785978,-1.173418355e-06,-13.78357705,0.2045602038,100.1763372,-979.8236628,1.514332335,-0.03614134059,0.2013421974,46.64341961,43.00024338,18.07173658,-5.504276748e-08,1.797628879e-05,0.4202705649,1.464479613e-05,-14.62764814,0.1856169333,-74.12578767,-1154.125788,1.455846741,0.05077111867,-0.1785383416,55.1744714,51.74909135,-19.13775949,5.197674236e-08,-1.903668139e-05,0.369818271,1.461123685e-05,-26.35940018,0.04808725549,178.5810634,-181.4189366,1.101032906,-0.04807251002,0.001190764728,45.41325201,45.41312262,0.1084033595,-9.176084572e-06,1.078308157e-07,0.002387049232,-8.802526475e-07,
168000,-27.79320207,0.04076992349,-11.81162305,-11.81162305,1.085005515,0.03990665642,-0.008345384044,54.15623725,54.14867023,-0.9052876541,1.046463903e-06,-8.576250302e-07,0.01671855745,-8.560004168e-07,-14.53350442,0.1876397211,58.63240058,-1021.367599,1.461961831,0.0976715164,0.1602152921,60.52224528,57.43724342,19.07630054,-4.966114105e-08,1.807194956e-05,0.3321242351,1.460219314e-05,-15.06949884,0.1764107548,-115.4800613,-1195.480061,1.428394994,-0.07589137314,-0.1592521707,43.10952806,40.95343555,-13.46282014,7.036793494e-08,-1.275401413e-05,0.328734817,1.457407719e-05,-25.28205102,0.05443740933,-168.2707451,-168.2707451,1.1151429,-0.05330070947,-0.01106643144,44.9402393,44.92917057,-0.9973667999,9.498520022e-07,-9.448562873e-07,0.02219864705,-4.110046782e-07,
176000,-25.85117429,0.05098486639,-16.88205723,-16.88205723,1.107447952,0.04878765183,-0.01480613486,55.1278123,55.10353178,-1.63599334,5.527464126e-07,-1.479411516e-06,0.02968944615,5.518093085e-07,-14.79083939,0.1821621026,16.26982034,-1063.73018,1.445472393,0.1748670561,0.05103473639,71.12381669,70.73074086,7.467234922,-1.211009776e-07,6.752541756e-06,0.1055726949,1.455845777e-05,-15.31231678,0.1715474082,-157.8255335,-1237.825533,1.414139348,-0.1588595689,-0.06474681942,36.3424121,36.02320377,-4.806215515,1.8815e-07,-4.346209982e-06,0.1334199908,1.45170627e-05,-24.00050729,0.0630920495,-174.8416687,-174.8416687,1.134681426,-0.06283652975,-0.005672498549,44.08802594,44.08516624,-0.5021449245,1.800853509e-06,-4.540843573e-07,0.01139033755,6.13354749e-07,
184000,-26.58350027,0.04686244961,-30.97287553,-30.97287553,1.098333026,0.04018038116,-0.02411692669,54.18370364,54.1205073,-2.616185992,3.306234799e-07,-2.262928982e-06,0.04834001236,3.165082685e-07,-15.05042288,0.176798614,-25.85548767,-1105.855488,1.429539155,0.1591005163,-0.07710237096,68.78405557,67.92883558,-10.81293663,7.999422789e-08,-9.352893009e-06,0.1591803619,1.43698446e-05,-15.54604896,0.1669927251,160.150405,-1279.849595,1.400939416,-0.1570712208,0.05670274987,36.46366572,36.21804824,4.225150825,-2.047199148e-07,3.654639343e-06,0.1166587111,1.426885352e-05,-24.99370782,0.05627488409,174.2633391,-185.7366609,1.119261177,-0.05599304913,0.0056250359,44.69775239,44.6949061,0.5044183262,-1.714792013e-06,4.363079892e-07,0.01128581242,8.357591499e-08,
192000,-29.67611953,0.03282419041,-30.45112099,-30.45112099,1.067876368,0.02829648158,-0.0166354022,52.91121913,52.88189538,-1.761320893,4.706308762e-07,-1.460015242e-06,0.03330668995,-1.307815225e-06,-15.29530105,0.1718838005,-67.22151057,-1147.221511,1.415120005,0.06654815888,-0.1584783374,56.94167226,54.12786123,-17.67848066,4.68893233e-08,-1.465425825e-05,0.3266059338,1.433306053e-05,-15.78222353,0.1625132679,119.0132762,-1320.986724,1.388097534,-0.0788209288,0.1421190466,42.82887073,41.11259863,12.00276645,-6.906174493e-08,9.949477145e-06,0.2919486205,1.424536642e-05,-27.41236849,0.04259725126,178.4817129,-181.5182871,1.08898502,-0.04258229618,0.001128657118,45.91569469,45.91557729,0.1038342963,-7.983219656e-06,8.607157042e-08,0.002261417638,-1.172110731e-06,
