Frequency,S11_Magnitude,S11_Magnitude (linear),S11_Phase,S11_Unwrapped Phase,S11_VSWR,S11_Real,S11_Imaginary,S11_Impedance (absolute),S11_Resistance,S11_Reactance,S11_Capacitance,S11_Inductance,S11_Quality Factor,S11_Group delay,S12_Magnitude,S12_Magnitude (linear),S12_Phase,S12_Unwrapped Phase,S12_VSWR,S12_Real,S12_Imaginary,S12_Impedance (absolute),S12_Resistance,S12_Reactance,S12_Capacitance,S12_Inductance,S12_Quality Factor,S12_Group delay,S21_Magnitude,S21_Magnitude (linear),S21_Phase,S21_Unwrapped Phase,S21_VSWR,S21_Real,S21_Imaginary,S21_Impedance (absolute),S21_Resistance,S21_Reactance,S21_Capacitance,S21_Inductance,S21_Quality Factor,S21_Group delay,S22_Magnitude,S22_Magnitude (linear),S22_Phase,S22_Unwrapped Phase,S22_VSWR,S22_Real,S22_Imaginary,S22_Impedance (absolute),S22_Resistance,S22_Reactance,S22_Capacitance,S22_Inductance,S22_Quality Factor,S22_Group delay,
0,-13.36512122,0.2146564481,-135.4976339,-135.4976339,1.546656168,-0.1530975948,-0.1504610155,36.98445073,35.27109191,-11.12653009,inf,-inf,0.315457489,1.207037457e-05,-13.57757538,0.2094697097,-134.6713274,-134.6713274,1.529947334,-0.1472653561,-0.1489646743,37.41253538,35.71863911,-11.12998758,inf,-inf,0.3116016694,3.681134684e-08,-15.83635013,0.1615037064,-172.1706497,-172.1706497,1.385222231,-0.1599981994,-0.02200053138,36.21293425,36.17603205,-1.634415035,inf,-inf,0.04517949986,9.808502065e-06,-16.11258443,0.1564482749,-172.0219214,-172.0219214,1.370927521,-0.1549340502,-0.02171411523,36.59063949,36.55443491,-1.627324931,inf,-inf,0.04451785221,-4.976548542e-06,
8000,-29.92242304,0.03190647658,-143.8701634,-143.8701634,1.065916104,-0.02577031718,-0.01881260216,47.48857785,47.45493135,-1.787321022,1.11308308e-05,-3.555762194e-05,0.03766354668,1.207037457e-05,-33.93239109,0.02010853565,-92.04151984,-92.04151984,1.041042373,-0.0007163405206,-0.02009577225,49.9284461,49.88813613,-2.005892332,9.917963974e-06,-3.990596e-05,0.04020780266,3.681134684e-08,-40.19154949,0.009781884383,88.27938926,-271.7206107,1.01975703,0.000293708993,0.009777473964,50.02937672,50.01981212,0.9782284233,-2.033713948e-05,1.946123613e-05,0.01955681923,9.808502065e-06,-30.61496757,0.02946128068,8.855242525,8.855242525,1.060711191,0.02911011455,0.00453522769,52.99822851,52.99604469,0.4811158514,-4.135047272e-05,9.571495743e-06,0.009078335076,-4.976548542e-06,
16000,-1.64131455,0.8278168698,107.1980894,-252.8019106,10.61553979,-0.2447657427,0.7908037058,37.07483128,7.235549398,36.36192981,-2.735603967e-07,0.0003616988044,5.025455264,1.207037457e-05,-13.57724334,0.2094777174,-163.4222672,-163.4222672,1.529972961,-0.2007704683,-0.05976732497,33.33152411,33.07404982,-4.13493991,2.405641717e-06,-4.113100788e-05,0.1250206713,3.681134684e-08,-25.96405256,0.05032657462,95.47202947,-264.5279705,1.105987118,-0.004799132629,0.05009722986,49.52356893,49.27559807,4.949678293,-2.00966272e-06,4.923536044e-05,0.100448873,9.808502065e-06,11.02102203,3.556731664,-141.7917196,-141.7917196,nan,-2.794764191,-2.199916645,32.3637132,-30.2765586,-11.43415634,8.699534665e-07,-0.0001137376563,-0.3776570676,-4.976548542e-06,
24000,-6.608893589,0.4672564666,123.855041,-236.144959,2.754151622,-0.2603056063,0.3880329844,31.67141763,22.47551601,22.31434235,-2.971835718e-07,0.0001479765786,0.9928289231,1.217029937e-05,-24.6536535,0.05852175276,-63.74174651,-63.74174651,1.124318863,0.02589106983,-0.05248283576,52.65042396,52.36078891,-5.514973025,1.202445766e-06,-3.657230074e-05,0.1053263929,8.726282051e-06,-22.55354294,0.07452858105,117.1225774,-242.8774226,1.161060795,-0.03397725663,0.06633291359,46.72786659,46.31751898,6.179073691,-1.073211988e-06,4.097625507e-05,0.1334068367,1.118328382e-05,-6.733523278,0.4605998966,-47.63027496,-47.63027496,2.707822797,0.3104038414,-0.3402965177,88.02908363,66.61494494,-57.54623077,1.152370168e-07,-0.0003816152951,0.8638636693,6.781815084e-06,
32000,-6.319295256,0.4830979974,96.8263701,-263.1736299,2.869205362,-0.0574214933,0.4796732713,45.54224571,28.43054312,35.57808823,-1.397936825e-07,0.000176950894,1.251403748,6.16973476e-06,-20.55376123,0.09382356668,-149.3512974,-149.3512974,1.207075716,-0.08071726078,-0.04782870976,42.54701901,42.35025955,-4.087094674,1.216901581e-06,-2.032754126e-05,0.09650695691,1.567556542e-05,-21.2742356,0.08635514542,32.16532649,-327.8346735,1.189034382,0.07310096826,0.04597237845,57.86857845,57.62186997,5.337834183,-9.31762172e-07,2.654820924e-05,0.09263555982,2.085552548e-05,-5.60355128,0.5245929333,-72.11686367,-72.11686367,3.206921058,0.161090175,-0.4992471344,64.73265989,38.02670642,-52.38594139,9.494134952e-08,-0.0002605462975,1.377609221,2.716169372e-07,
40000,-7.883929922,0.4034628053,46.06338539,-313.9366146,2.352682813,0.2799475702,0.290536733,84.51892907,69.43404261,48.19090265,-8.256482777e-08,0.0001917455092,0.6940529579,7.299315085e-06,-14.07004897,0.1979235862,135.2645337,-224.7354663,1.493528005,-0.1405977774,0.1393054592,37.88354835,36.38475438,10.55049213,-3.771268228e-07,4.197907438e-05,0.2899701349,2.696517025e-05,-14.6516327,0.1851050917,-41.10654633,-401.1065463,1.454304205,0.139474517,-0.1216994416,65.92855611,63.92937269,-16.11241191,2.469446288e-07,-6.410925001e-05,0.2520345693,2.670353495e-05,-7.249542191,0.4340331397,-123.6403226,-123.6403226,2.53377581,-0.2404446332,-0.3613462948,32.55127668,24.3104253,-21.64691283,1.838078995e-07,-8.613032949e-05,0.8904374384,6.946739035e-06,
48000,-12.33714956,0.2416253645,57.24973669,-302.7502633,1.637219003,0.1307140877,0.2032157573,64.34415069,59.0759583,25.49903681,-1.300334599e-07,8.454786983e-05,0.4316313698,6.762104357e-06,-11.13011784,0.2776477179,51.34645067,-308.6535493,1.768732168,0.1734214696,0.2168253885,69.82004373,63.1918976,29.69213,-1.116702635e-07,9.845102625e-05,0.4698724223,2.505394507e-05,-11.21189766,0.2750458629,-125.7329756,-485.7329756,1.758795209,-0.1606291207,-0.223267804,36.74384177,33.08555265,-15.98299452,2.074534891e-07,-5.299526217e-05,0.4830807783,2.489405606e-05,-11.79801141,0.2570984329,-107.6979796,-107.6979796,1.692146697,-0.07815778682,-0.2449305301,43.13499899,38.19898561,-20.03660741,1.65483503e-07,-6.643593982e-05,0.5245324473,6.54501095e-06,
56000,-9.757274221,0.3251893313,38.53322047,-321.4667795,1.96379428,0.2543784072,0.2025826427,82.22534302,74.89656203,33.93393626,-8.375251646e-08,9.644203025e-05,0.4530773555,4.36318123e-06,-11.12439731,0.2778306368,-12.38907219,-372.3890722,1.769433462,0.2713608548,-0.05960829811,87.0471872,86.32975903,-11.15282506,2.548280404e-07,-3.169691496e-05,0.1291886504,2.344804963e-05,-11.20512747,0.27526033,171.5408251,-548.4591749,1.7596116,-0.272265754,0.04049207929,28.62967202,28.52039404,2.499048655,-1.13725379e-06,7.102427615e-06,0.08762321627,2.340726313e-05,-9.573631494,0.3321378923,-129.8727591,-129.8727591,1.994630144,-0.2129285593,-0.2549058809,33.37517345,28.95782556,-16.59356928,1.712743357e-07,-4.715979596e-05,0.5730253897,3.912351899e-06,
64000,-12.41322147,0.2395184247,3.217149819,-356.7828502,1.629912499,0.2391409463,0.0134418594,81.42247263,81.38937897,2.321215146,-1.071333689e-06,5.772388507e-06,0.02851987784,4.44966056e-06,-10.10985088,0.3122536015,-76.30130345,-436.3013034,1.908048671,0.07394666257,-0.3033713941,57.2599898,47.51943701,-31.94698012,7.784134766e-08,-7.944562191e-05,0.6722929001,2.154654853e-05,-10.23930866,0.3076341663,107.3672335,-612.6327665,1.888646295,-0.09182726933,0.2936094904,42.20949703,35.41289023,22.96886686,-1.082681179e-07,5.711888589e-05,0.6486018708,2.122501875e-05,-12.70658937,0.2315637272,-163.2488031,-163.2488031,1.602688174,-0.2217373993,-0.06674043398,31.91995899,31.60712096,-4.457991277,5.578288137e-07,-1.108611481e-05,0.1410438895,4.474278443e-06,
72000,-17.0710729,0.1401026517,10.24986911,-349.7501309,1.325859015,0.137866768,0.02493004762,65.97961028,65.89444486,3.351284839,-6.59593388e-07,7.407965941e-06,0.05085838185,3.355843025e-06,-10.5102129,0.298187446,-138.5635038,-498.5635038,1.849763785,-0.2235480497,-0.1973373315,32.32058603,29.65746149,-12.84738339,1.720572395e-07,-2.839895238e-05,0.4331922809,2.037669905e-05,-10.75746186,0.2898190357,45.27875999,-674.72124,1.816183621,0.2039335275,0.2059276324,74.27110449,67.73901551,30.4568997,-7.257748958e-08,6.732452971e-05,0.4496212334,2.024304261e-05,-16.76532749,0.1451221239,-152.2027782,-152.2027782,1.339515451,-0.1283755516,-0.06767679502,38.66973378,38.30531902,-5.29630491,4.173636825e-07,-1.170740426e-05,0.1382655215,3.218639375e-06,
80000,-16.00947467,0.1583165314,7.316300304,-352.6836997,1.376190189,0.1570275583,0.02016110231,68.61863555,68.56002284,2.835562151,-7.016022511e-07,5.641171661e-06,0.0413588274,1.724779421e-06,-10.981278,0.2824464367,164.1633677,-555.8366323,1.78724837,-0.2717258188,0.07707833043,28.74048217,28.34550112,4.748460976,-4.189645442e-07,9.446762956e-06,0.1675207983,1.904949486e-05,-11.75267858,0.2584437719,-8.24221302,-728.242213,1.697030817,0.2557742751,-0.03705001293,84.30014849,84.03564493,-6.672736795,2.981440524e-07,-1.327498806e-05,0.0794036483,1.900940563e-05,-15.32257066,0.1713450123,-160.9625796,-160.9625796,1.413549704,-0.1619734241,-0.05589027757,36.09886191,35.86184183,-4.129906995,4.817146708e-07,-8.21618891e-06,0.1151615975,1.446527346e-06,
88000,-17.16911352,0.1385301562,-11.84049433,-371.8404943,1.321613478,0.1355825967,-0.02842470138,65.66993212,65.55989821,-3.799964676,4.759462398e-07,-6.872535929e-06,0.05796172324,1.745345014e-06,-11.26659197,0.2733193641,113.9541259,-606.0458741,1.75224067,-0.1109690499,0.2497785915,40.54850179,35.68050506,19.26350323,-9.388629252e-08,3.483956545e-05,0.5398887486,1.789842238e-05,-11.64089544,0.261791311,-62.15426528,-782.1542653,1.709260985,0.1222807797,-0.2314780798,63.11923983,56.52279633,-28.09291603,6.437846811e-08,-5.080825514e-05,0.4970192179,1.797992462e-05,-17.25549492,0.1371592981,-177.3642778,-177.3642778,1.317924961,-0.1370141964,-0.006307380989,37.95007914,37.94694309,-0.4878697898,3.707093443e-06,-8.823510071e-07,0.01285662955,1.558900844e-06,
96000,-20.30959229,0.09649846065,-10.57449212,-370.5744921,1.213609953,0.09485964141,-0.01770879275,60.47644026,60.43782987,-2.160682177,7.672872985e-07,-3.582117176e-06,0.0357504924,1.58175992e-06,-11.77304702,0.2578384305,63.12715574,-656.8728443,1.694830994,0.1165460607,0.229994939,62.43764964,56.00745059,27.59756457,-6.007283673e-08,4.575300852e-05,0.4927480947,1.722197714e-05,-12.20807473,0.2452427987,-112.651695,-832.651695,1.649858785,-0.09444990069,-0.2263255323,41.75909922,37.62301794,-18.11990313,9.149408685e-08,-3.004033491e-05,0.4816174811,1.741883936e-05,-20.16827901,0.09808126291,-171.4980471,-171.4980471,1.217494679,-0.09700343073,-0.01450064003,41.15912841,41.14149292,-1.204745531,1.376111343e-06,-1.997304233e-06,0.0292829804,1.329022028e-06,
104000,-19.96745183,0.1003754276,-5.937702874,-365.9377029,1.223149591,0.09983690946,-0.01038354369,61.08963848,61.07620028,-1.281284015,1.19437687e-06,-1.960795043e-06,0.02097845001,8.561948616e-07,-12.22963396,0.2446348368,14.21731989,-705.7826801,1.647726024,0.2371419535,0.06008242048,80.93093329,80.27786305,10.2606368,-1.491462977e-07,1.570222179e-05,0.1278140251,1.693751871e-05,-12.6911474,0.2319757727,-161.4274135,-881.4274135,1.604084518,-0.2198946853,-0.07388563092,32.05863295,31.674675,-4.946808085,3.0935827e-07,-7.570278455e-06,0.1561754962,1.681503321e-05,-19.23818028,0.1091669021,-169.3832167,-169.3832167,1.245089461,-0.1072981201,-0.02011283021,40.31349575,40.28013,-1.63983745,9.332241992e-07,-2.50950227e-06,0.04071082815,1.020235891e-06,
112000,-20.52485787,0.09413629615,-18.41243828,-378.4124383,1.20783766,0.08931722055,-0.0297334217,59.79813209,59.69079045,-3.581359616,3.967840234e-07,-5.089206123e-06,0.0599985289,1.47232297e-07,-12.67031176,0.2325329021,-33.96470021,-753.9647002,1.605974908,0.1928585878,-0.1299119537,73.38646882,70.76548645,-19.43758559,7.310713933e-08,-2.762131989e-05,0.2746760682,1.654447026e-05,-13.15046722,0.2200273352,150.5630743,-929.4369257,1.564192427,-0.1916212023,0.1081357622,34.08137495,33.23385693,7.553202768,-1.881355924e-07,1.073329961e-05,0.2272743361,1.644691995e-05,-19.9743404,0.1002958538,175.9089726,-184.0910274,1.222952966,-0.1000402967,0.007155230898,40.90618824,40.90191478,0.5912730573,-2.403333384e-06,8.402145516e-07,0.0144558772,4.825626334e-07,
120000,-23.4671898,0.06708733034,-20.25072726,-380.2507273,1.143823388,0.06294045733,-0.02322086826,56.71292633,56.65131241,-2.642880161,5.018355399e-07,-3.50522868e-06,0.04665170229,-1.263737925e-07,-13.13400446,0.2204447585,-81.40021559,-801.4002156,1.565565458,0.03296346253,-0.2179662857,53.2489276,48.40918666,-22.18104907,5.979388928e-08,-2.941853003e-05,0.4581991685,1.624266221e-05,-13.77194767,0.2048342691,104.1018718,-975.8981282,1.515198936,-0.04990719302,0.1986613951,45.41912402,41.95423307,17.39940096,-7.622625602e-08,2.307667225e-05,0.4147233709,1.616437637e-05,-23.09733048,0.0700057118,174.2408155,-185.7591845,1.150550842,-0.06965235414,0.007024901923,43.4886204,43.48428641,0.6139545627,-2.160243238e-06,8.142825291e-07,0.01411899823,3.738388783e-08,
128000,-23.77151672,0.06477749716,-5.538125003,-365.538125,1.138528525,0.06447512887,-0.006251551534,56.89157779,56.88709391,-0.7142623318,1.740814177e-06,-8.881123497e-07,0.01255578872,-6.207608553e-08,-13.59031395,0.2091627304,-127.3044483,-847.3044483,1.528965284,-0.1267631056,-0.1663735641,39.02372519,36.85613156,-12.82484676,9.695226896e-08,-1.594638873e-05,0.3479705065,1.599159933e-05,-14.10082064,0.1972236392,57.7480151,-1022.251985,1.491353878,0.1052471751,0.1667938728,61.40425939,58.00938989,20.13439235,-6.175493013e-08,2.503506304e-05,0.3470885039,1.593785782e-05,-23.19729608,0.06920463715,-170.2589651,-170.2589651,1.148700004,-0.06820688242,-0.01170909874,43.61564791,43.60357787,-1.02603115,1.211852089e-06,-1.275765073e-06,0.02353089357,2.148811707e-08,
136000,-22.45638652,0.07536690381,-10.5550769,-370.5550769,1.16302013,0.07409164117,-0.013805756,58.00039309,57.97804306,-1.610006543,7.268647073e-07,-1.884121321e-06,0.02776924604,3.533780617e-07,-13.96857171,0.200249488,-173.0071418,-893.0071418,1.500779893,-0.198759899,-0.02437949876,33.42809483,33.38505212,-1.695823973,6.900816082e-07,-1.984549764e-06,0.05079590611,1.576229188e-05,-14.47306889,0.1889498518,12.2130964,-1067.786904,1.465938764,0.1846734566,0.03997200183,72.60438639,72.35615855,5.998603422,-1.950882317e-07,7.019907252e-06,0.08290384042,1.574288319e-05,-21.92982545,0.08007717201,-176.8375758,-176.8375758,1.174095412,-0.07995522716,-0.004417592861,42.59656594,42.59488196,-0.3787624517,3.08968571e-06,-4.432493856e-07,0.008892205689,3.274531511e-07,
144000,-23.61599167,0.06594781582,-22.36636783,-382.3663678,1.14120799,0.06098653259,-0.0250949647,56.49037619,56.41873929,-2.844021517,3.886196548e-07,-3.143333908e-06,0.05040916463,2.655709209e-08,-14.36869172,0.1912341343,141.5597326,-938.4402674,1.472903574,-0.1497854211,0.1188899565,37.13448846,36.05267945,8.898007511,-1.242123766e-07,9.834457493e-06,0.24680572,1.55366229e-05,-14.88465286,0.1802052158,-32.99769063,-1112.997691,1.439634941,0.1511367665,-0.09814070319,67.60028475,66.25072361,-13.44024256,8.223383285e-08,-1.485472945e-05,0.20286937,1.543959332e-05,-23.32781463,0.06817250753,171.1387393,-188.8612607,1.146320018,-0.06735881712,0.01050145413,43.68986085,43.68013762,0.9216934852,-1.199143401e-06,1.01869496e-06,0.02110097485,8.852058716e-09,
152000,-26.15055592,0.0492574816,-16.92524994,-376.9252499,1.103618973,0.04712391252,-0.0143400266,54.94437032,54.92167721,-1.578987721,6.631286489e-07,-1.653313821e-06,0.02874980884,-6.812604038e-07,-14.74651569,0.1830940434,97.19069085,-982.8093091,1.448262231,-0.02291825451,0.1816540182,47.8295735,44.77081914,16.82979068,-6.22153902e-08,1.762200249e-05,0.3759098225,1.545111285e-05,-15.28966035,0.1719954596,-77.2227932,-1157.222793,1.415445692,0.03803861039,-0.167736407,53.84175402,50.88685118,-17.59155629,5.952128265e-08,-1.841962592e-05,0.3456994465,1.539111212e-05,-25.89890132,0.05070548414,178.8266379,-181.1733621,1.10682772,-0.05069485181,0.001038326652,45.17511677,45.17501886,0.09405467103,-1.113258898e-05,9.848201195e-08,0.002082006237,-6.523369513e-07,
160000,-25.5723144,0.05264829121,-2.735460609,-362.7354606,1.111148353,0.05258830002,-0.002512621744,55.55069656,55.54999125,-0.2799281485,3.55347756e-06,-2.784496784e-07,0.005039211388,-3.793842971e-07,-15.56020561,0.1667207745,53.86926555,-1026.130734,1.400155841,0.098303519,0.1346559869,60.68513681,58.48275436,16.20040963,-6.140081745e-08,1.611484545e-05,0.2770117415,1.540860375e-05,-16.03795961,0.1577981908,-119.8641839,-1199.864184,1.374727741,-0.0785749365,-0.1368438833,42.84000027,41.24612384,-11.57682558,8.59232427e-08,-1.151568136e-05,0.2806766916,1.538298119e-05,-24.87221557,0.05706754916,-168.2185416,-168.2185416,1.121042709,-0.05586533649,-0.01165201042,44.70972959,44.69751472,-1.045035186,9.518515816e-07,-1.039515722e-06,0.02338016313,-1.484823227e-07,
168000,-24.20990637,0.06158921681,-10.56038069,-370.5603807,1.131262807,0.060546038,-0.0112875555,56.44393447,56.42944739,-1.278751639,7.40840381e-07,-1.211426455e-06,0.02266106968,3.079479193e-07,-15.42455871,0.1693448776,8.342066724,-1071.657933,1.407738117,0.1675531302,0.02456900779,70.1127812,70.02323584,3.542390419,-2.674326485e-07,3.35588658e-06,0.05058878494,1.538693511e-05,-15.94211149,0.1595491246,-165.9856715,-1245.985671,1.379675075,-0.1548001762,-0.03863714027,36.61279826,36.49823962,-2.894045815,3.273448011e-07,-2.741676768e-06,0.0792927507,1.537545036e-05,-23.52566139,0.06663722914,-177.7652832,-177.7652832,1.142789559,-0.06658654972,-0.00259840395,43.75708175,43.75648561,-0.2284083018,4.147620048e-06,-2.163827993e-07,0.00521998736,6.983853814e-07,
176000,-25.40676527,0.05366136756,-20.08566857,-380.0856686,1.113408384,0.05039769298,-0.01842864376,55.30533983,55.26759619,-2.04289629,4.426506886e-07,-1.847369561e-06,0.03696372614,4.310731108e-08,-15.7628271,0.1628765813,-35.89984931,-1115.899849,1.389133974,0.1319370643,-0.09550597787,65.03822936,63.82123393,-12.52283424,7.221124487e-08,-1.132426688e-05,0.1962173631,1.532956136e-05,-16.26178533,0.1537838515,149.8688193,-1290.131181,1.363462342,-0.1330043264,0.07719664578,38.32343137,37.85307546,5.985822462,-1.510718794e-07,5.412916098e-06,0.158133055,1.532014373e-05,-24.89986575,0.05688617233,171.5728454,-188.4271546,1.120634796,-0.05627197162,0.0083367747,44.67293851,44.66668973,0.7471701277,-1.210285872e-06,6.756580634e-07,0.01672768079,2.455504184e-07,
184000,-27.33069833,0.04299966612,-12.68459599,-372.684596,1.08986343,0.04195019969,-0.00944203539,54.37829948,54.36857027,-1.028601784,8.409206848e-07,-8.897122742e-07,0.01891905156,-7.336814954e-07,-16.08483298,0.1569489271,-79.49661727,-1159.496617,1.372335514,0.02861078121,-0.1543191139,52.87481207,50.41118137,-15.95175676,5.422427949e-08,-1.379783119e-05,0.3164329088,1.529410428e-05,-16.57358882,0.1483612758,106.50422,-1333.49578,1.348413644,-0.04214735602,0.1422486152,46.0328813,44.20066086,12.85798355,-6.727124153e-08,1.112180239e-05,0.2909002558,1.51067926e-05,-27.06518113,0.04433441103,178.8741949,-181.1258051,1.092782269,-0.04432585291,0.0008710710173,45.75555651,45.7554868,0.07986954366,-1.082981669e-05,6.908496019e-08,0.001745573028,-8.185529839e-07,
