Frequency,S11_Magnitude,S11_Magnitude (linear),S11_Phase,S11_Unwrapped Phase,S11_VSWR,S11_Real,S11_Imaginary,S11_Impedance (absolute),S11_Resistance,S11_Reactance,S11_Capacitance,S11_Inductance,S11_Quality Factor,S11_Group delay,S12_Magnitude,S12_Magnitude (linear),S12_Phase,S12_Unwrapped Phase,S12_VSWR,S12_Real,S12_Imaginary,S12_Impedance (absolute),S12_Resistance,S12_Reactance,S12_Capacitance,S12_Inductance,S12_Quality Factor,S12_Group delay,S21_Magnitude,S21_Magnitude (linear),S21_Phase,S21_Unwrapped Phase,S21_VSWR,S21_Real,S21_Imaginary,S21_Impedance (absolute),S21_Resistance,S21_Reactance,S21_Capacitance,S21_Inductance,S21_Quality Factor,S21_Group delay,S22_Magnitude,S22_Magnitude (linear),S22_Phase,S22_Unwrapped Phase,S22_VSWR,S22_Real,S22_Imaginary,S22_Impedance (absolute),S22_Resistance,S22_Reactance,S22_Capacitance,S22_Inductance,S22_Quality Factor,S22_Group delay,
0,-13.28131757,0.216737531,-135.0546271,-135.0546271,1.553422485,-0.1534026265,-0.15311039,36.9710345,35.19864948,-11.30983938,inf,-inf,0.321314583,-2.044097268e-05,-13.51890282,0.2108894524,-134.1182195,-134.1182195,1.534499135,-0.1468088193,-0.1513985856,37.45463369,35.7047811,-11.31451242,inf,-inf,0.3168906817,8.857752165e-07,-15.84425348,0.1613568199,-170.3941652,-170.3941652,1.384804465,-0.1590944438,-0.02692547648,36.2830489,36.22771639,-2.003048468,inf,-inf,0.05529049766,-1.65233214e-05,-16.11217076,0.1564557259,-170.1517238,-170.1517238,1.370948463,-0.1541502153,-0.026760144,36.65231744,36.59728035,-2.007845826,inf,-inf,0.05486325231,2.580459996e-05,
8000,-14.11740163,0.1968475068,-1.657174048,-1.657174048,1.490187128,0.1967651763,-0.005692654896,74.49556627,74.49034145,-0.8822831518,2.254873376e-05,-1.75524656e-05,0.01184426242,-2.044097268e-05,-30.98177777,0.02824301858,-82.41687927,-82.41687927,1.05812774,0.003727072253,-0.02799601813,50.37380745,50.29490343,-2.818362174,7.058840085e-06,-5.606953393e-05,0.05603673497,8.857752165e-07,-30.53709339,0.02972660624,33.38384425,33.38384425,1.061274701,0.02482180687,0.01635692582,52.54466257,52.51651889,1.719537113,-1.156960657e-05,3.420910393e-05,0.0327427855,-1.65233214e-05,-13.17971006,0.2192878134,164.2709534,-195.7290466,1.561763521,-0.2110764583,0.05944639471,32.62422688,32.37270156,4.043312127,-4.920314648e-06,8.043913894e-05,0.124898817,2.580459996e-05,
16000,4.463800658,1.671821988,-85.85691258,-85.85691258,nan,0.1207849871,-1.667453072,53.29082521,-25.25720817,-46.92531819,2.119790409e-07,-0.0004667747716,-1.857898065,-2.044097268e-05,-27.58183511,0.04177420988,110.7357391,110.7357391,1.087190744,-0.01479050459,0.03906821707,48.54469598,48.39666723,3.788153651,-2.625866018e-06,3.768146117e-05,0.0782730272,8.857752165e-07,-24.18250764,0.06178380028,-34.77257079,-34.77257079,1.131704825,0.05075059335,-0.03523656129,55.33938998,55.20143195,-3.905124068,2.547213295e-06,-3.884498743e-05,0.07074316608,-1.65233214e-05,1.415235608,1.176960209,53.6843287,-306.3156713,nan,0.6970353709,0.948354905,97.63446427,-19.43346933,95.68087,-1.039620976e-07,0.0009517552137,-4.923509456,2.580459996e-05,
24000,-7.520735399,0.4206910087,123.0044199,123.0044199,2.452389019,-0.2291519616,0.352803491,33.14669037,25.16439494,21.57443649,-3.073756279e-07,0.0001430699255,0.8573397668,-1.084236456e-05,-20.25028651,0.09715959027,-65.63216062,-65.63216062,1.215230929,0.04008738531,-0.08850416669,54.14229391,53.29802502,-9.524101971,6.962814954e-07,-6.31586628e-05,0.1786952137,1.846980961e-05,-21.97742752,0.07963951817,106.2899071,106.2899071,1.173061577,-0.02233869615,0.07644236723,47.82736614,47.27111252,7.273161167,-9.117707982e-07,4.823164798e-05,0.153860588,1.872894654e-06,-6.045662178,0.4985593794,-44.24843583,-404.2484358,2.988508146,0.3571285496,-0.3478802292,95.83314137,70.31933554,-65.10900118,1.018516003e-07,-0.0004317674741,0.9259046703,2.365747614e-05,
32000,-6.718718036,0.4613856662,96.96458247,96.96458247,2.713232037,-0.05594567664,0.4579812379,45.58173496,29.70796456,34.5706726,-1.438673765e-07,0.0001719404197,1.163683649,-8.006207524e-06,-21.2081535,0.08701463947,-155.2657419,-155.2657419,1.190615629,-0.07903175684,-0.03640781362,42.68472113,42.57029003,-3.123431581,1.592348621e-06,-1.553467423e-05,0.07337116046,3.459224569e-05,-21.2992821,0.08610649175,31.08863161,31.08863161,1.188438786,0.07373897811,0.04446224272,57.94388165,57.71273927,5.170410763,-9.619336257e-07,2.571551346e-05,0.08958872563,1.118421516e-05,-6.377777438,0.4798562195,-77.47826861,-437.4782686,2.845090675,0.1040375752,-0.4684422849,59.3109949,37.65153188,-45.82746188,1.085286369e-07,-0.0002279270965,1.21714734,1.34004454e-05,
40000,-7.641413688,0.4148865115,63.06212813,63.06212813,2.418140309,0.1879535796,0.3698706116,69.71773526,51.98722583,46.45310496,-8.565355493e-08,0.0001848310319,0.8935484481,7.240291896e-06,-13.93968498,0.200916568,144.6186029,-215.3813971,1.502867561,-0.1638104593,0.1163340051,36.09078769,35.07458625,8.504019936,-4.678814969e-07,3.383642023e-05,0.2424553172,2.698906324e-05,-13.77727774,0.2047086117,-26.51643997,-26.51643997,1.51480153,0.1831745547,-0.09139309718,72.19045388,70.91149114,-13.52856442,2.941090756e-07,-5.382844753e-05,0.1907809892,2.625840277e-05,-7.786567573,0.4080107647,-110.8154044,-470.8154044,2.378439811,-0.1449900051,-0.3813799713,38.78787325,28.61497534,-26.18553603,1.519492888e-07,-0.0001041889374,0.915099025,7.028291788e-06,
48000,-12.14299143,0.2470873026,59.40362165,59.40362165,1.656350473,0.1257642268,0.2126863757,63.66756114,57.99384788,26.27302703,-1.262027393e-07,8.711421087e-05,0.4530312781,7.456529054e-06,-11.18707414,0.2758330445,47.48201951,-312.5179805,1.761794065,0.1864139145,0.2033069623,71.76855934,65.68846052,28.90938021,-1.146938453e-07,9.585564088e-05,0.4400983062,2.537873321e-05,-11.27200261,0.27314916,-129.4220956,-129.4220956,1.751596187,-0.1734574916,-0.2110046498,35.77400176,32.54917239,-14.84353659,2.233785703e-07,-4.92171296e-05,0.4560342245,2.567871794e-05,-11.69503699,0.2601645686,-105.9986007,-465.9986007,1.703303891,-0.07170496619,-0.2500879857,43.67989276,38.49053895,-20.64973228,1.605700227e-07,-6.846889513e-05,0.5364885203,6.761661495e-06,
56000,-9.656627,0.3289793589,37.52469701,37.52469701,1.980534245,0.2609105239,0.2003824272,83.36253698,76.03708159,34.17125686,-8.317085224e-08,9.711650787e-05,0.4494025303,5.550180929e-06,-11.07863719,0.2792982023,-15.64855195,-375.6485519,1.775072861,0.2689458303,-0.07533675185,86.48358399,85.35137013,-13.94825856,2.037568018e-07,-3.964168389e-05,0.1634216128,2.439057704e-05,-11.17091064,0.2763468178,168.4242709,-191.5757291,1.763754861,-0.2707260174,0.05545256721,28.75064295,28.54559424,3.42761129,-8.291641947e-07,9.741451425e-06,0.1200749671,2.467466162e-05,-9.663268162,0.3287279201,-131.1956715,-491.1956715,1.979417824,-0.21651093,-0.2473561453,33.09189789,28.93865647,-16.05079026,1.770662073e-07,-4.561718946e-05,0.5546487714,4.722845881e-06,
64000,-12.66987023,0.2325447228,2.359279646,2.359279646,1.606015047,0.2323476037,0.009572834291,80.26347461,80.24703906,1.624216023,-1.531074655e-06,4.039093885e-06,0.02024019879,5.162859654e-06,-10.06306432,0.3139400941,-80.58592273,-440.5859227,1.915197321,0.05135066411,-0.30971195,54.91486977,45.25958888,-31.10004077,7.996118089e-08,-7.733945655e-05,0.6871481059,2.167919291e-05,-10.24691223,0.307364983,103.8447379,-256.1552621,1.887523661,-0.07354987978,0.2984353329,43.67616379,36.46691628,24.03687377,-1.034575465e-07,5.97748012e-05,0.6591419353,2.214016804e-05,-13.25180816,0.2174751264,-164.6560606,-524.6560606,1.5558293,-0.2097231764,-0.05754667597,32.71303232,32.47690153,-3.923436056,6.338311497e-07,-9.756785034e-06,0.1208069696,4.496049275e-06,
72000,-17.11168512,0.139449109,11.66169376,11.66169376,1.324092649,0.1365706241,0.02818720694,65.80241425,65.69393219,3.776902777,-5.852640248e-07,8.348788147e-06,0.05749241447,3.619533148e-06,-10.51257176,0.2981064768,-142.5717354,-502.5717354,1.849435041,-0.2367307948,-0.1811794754,31.3808404,29.15943098,-11.59675512,1.906123996e-07,-2.563445696e-05,0.3977016948,2.051885961e-05,-10.76310847,0.2896306885,41.53501589,-318.4649841,1.815436939,0.2168032331,0.1920476343,76.38063165,70.44002673,29.53309205,-7.484774425e-08,6.528246645e-05,0.4192657701,2.077562792e-05,-16.93789055,0.1422674255,-149.4956551,-509.4956551,1.331729095,-0.1225762865,-0.07221547167,39.13206012,38.71367609,-5.70696178,3.873313693e-07,-1.261515524e-05,0.1474146182,3.132964031e-06,
80000,-14.58367834,0.1865589475,-2.010055748,-2.010055748,1.458690761,0.1864441553,-0.006543535524,72.91594253,72.9092408,-0.9885750176,2.012428752e-06,-1.966707508e-06,0.01355898109,1.620408042e-06,-9.746368511,0.3255978845,158.7632334,-561.2367666,1.965589748,-0.3034870385,0.1179389665,26.98736445,26.0943447,6.884984739,-2.8895297e-07,1.369724193e-05,0.2638496893,1.912493509e-05,-9.907062342,0.3196295202,-24.79588795,-384.7958879,1.939574922,0.2901621012,-0.1340484436,89.77960659,86.02627113,-25.68770978,7.74470284e-08,-5.110407485e-05,0.298603083,1.910914185e-05,-14.48181341,0.1887597223,-161.5917185,-521.5917185,1.465360825,-0.1791009586,-0.05960771237,34.85751623,34.59418579,-4.276534472,4.65198352e-07,-8.507895006e-06,0.1236200354,1.300068103e-06,
88000,-17.47094505,0.1337989631,-12.41191263,-12.41191263,1.308932817,0.1306717616,-0.02875853329,65.01681449,64.90559928,-3.801229911,4.757878216e-07,-6.874824207e-06,0.05856551597,1.446492822e-06,-11.29849895,0.2723171872,109.2052916,-610.7947084,1.748450238,-0.08957979098,0.2571616447,42.25231204,36.93574397,20.51849629,-8.814383243e-08,3.710931943e-05,0.555518695,1.797181326e-05,-11.64431338,0.2616883151,-66.42445821,-426.4244582,1.708883038,0.1046642887,-0.2398461192,60.97727087,54.21153721,-27.91660431,6.478506048e-08,-5.048938149e-05,0.5149568846,1.765626542e-05,-17.77524423,0.1291926446,-177.8425246,-537.8425246,1.296719231,-0.1291010641,-0.004863605857,38.56627473,38.56438786,-0.3814913379,4.740812488e-06,-6.899571838e-07,0.009892321881,1.62024253e-06,
96000,-20.50770021,0.09432243188,-8.937792963,-8.937792963,1.208291417,0.09317713138,-0.01465412378,60.27266532,60.24632946,-1.78156442,9.305664011e-07,-2.953591499e-06,0.02957133548,9.043215058e-07,-11.80694528,0.2568341303,58.12649846,-661.8735015,1.691189251,0.135620143,0.2181076507,64.85759249,58.76485644,27.4444703,-6.040794273e-08,4.549919906e-05,0.4670218217,1.725960029e-05,-12.21600691,0.2450189388,-117.3471678,-477.3471678,1.649073073,-0.11255703,-0.2176354645,40.30100385,36.57031994,-16.93465708,9.789770069e-08,-2.807535817e-05,0.4630710672,1.66639628e-05,-20.53681471,0.09400679896,-169.2036065,-529.2036065,1.207522085,-0.09234278872,-0.01760930503,41.54877405,41.5225698,-1.475405766,1.123666471e-06,-2.446022091e-06,0.03553262173,1.289295669e-06,
104000,-20.00170643,0.09998035587,-5.703934267,-5.703934267,1.222173719,0.09948532791,-0.009936855199,61.04638432,61.03408779,-1.225221184,1.249028348e-06,-1.875000075e-06,0.02007437529,7.206717343e-07,-12.26293462,0.2436987317,8.952521154,-711.0474788,1.644448825,0.2407299043,0.03792341,81.64182142,81.3776865,6.561946662,-2.3321372e-07,1.004198315e-05,0.08063569935,1.706477877e-05,-12.70127054,0.2317055694,-166.4395663,-526.4395663,1.603168682,-0.2252463478,-0.05432820352,31.6627667,31.45608984,-3.61181491,4.237027725e-07,-5.527290351e-06,0.114820848,1.695710538e-05,-19.38818766,0.1072977505,-169.0212035,-529.0212035,1.240388664,-0.105333958,-0.02043439626,40.4740342,40.4394855,-1.671961918,9.15293569e-07,-2.558663499e-06,0.04134478709,9.467849785e-07,
112000,-20.84406851,0.0907395402,-18.38627461,-18.38627461,1.199589764,0.08610743178,-0.02862122199,59.41355098,59.3148345,-3.423514156,4.150782538e-07,-4.864903577e-06,0.0577176719,7.132800762e-08,-12.71589928,0.2313156604,-39.64862559,-759.6486256,1.601848245,0.1781065813,-0.1475973591,71.09328086,67.8690319,-21.16717014,6.713350288e-08,-3.007910499e-05,0.3118826002,1.667436766e-05,-13.17944638,0.2192944704,145.2506017,-574.7493983,1.561785365,-0.1801839429,0.1249952459,34.93852583,33.79262884,8.874616801,-1.601225506e-07,1.261106368e-05,0.2626198998,1.658737528e-05,-20.40447555,0.09545006366,175.4317633,-544.5682367,1.211044321,-0.09514683652,0.007602246574,41.31241889,41.3075563,0.6338351479,-2.241949318e-06,9.006964008e-07,0.0153442906,4.881086656e-07,
120000,-23.91161545,0.06374105211,-18.06534478,-18.06534478,1.13616116,0.0605988394,-0.01976619304,56.44810292,56.40368597,-2.238868637,5.92393484e-07,-2.969391755e-06,0.0396936583,-1.75657408e-07,-13.23905261,0.2177947314,-87.63996066,-807.6399607,1.556873599,0.008968527943,-0.2176099964,50.86369617,46.26361235,-21.13749656,6.274589749e-08,-2.803447552e-05,0.4568924796,1.637495005e-05,-13.84415288,0.2031385537,98.09433951,-621.9056605,1.509846611,-0.02860260365,0.2011148007,47.32456308,43.63953088,18.30862135,-7.244080081e-08,2.428256325e-05,0.4195421212,1.629484769e-05,-23.64010024,0.06576502476,176.2060868,-543.7939132,1.140789045,-0.06562090092,0.004351533534,43.8421131,43.84043837,0.3832036459,-3.461060996e-06,5.082396205e-07,0.008740871674,6.823928412e-08,
128000,-23.73861525,0.06502333455,-3.784211018,-3.784211018,1.139090818,0.06488156375,-0.004291470767,56.93818858,56.93607362,-0.4907539153,2.533648646e-06,-6.102024333e-07,0.008619384585,-1.226598242e-07,-13.67630919,0.2071021181,-133.6881549,-853.6881549,1.522392915,-0.1430522533,-0.1497576045,37.73070931,36.00871865,-11.26847844,1.103430245e-07,-1.401120348e-05,0.3129375013,1.611040045e-05,-14.13033058,0.1965547171,51.52767521,-668.4723248,1.489279659,0.1222838728,0.1538844088,63.56076718,60.53440329,19.37929676,-6.416115136e-08,2.40961787e-05,0.3201369091,1.605530739e-05,-23.25173189,0.06877227729,-168.8460165,-528.8460165,1.147702384,-0.06747322647,-0.01330375259,43.68021714,43.6646163,-1.167327527,1.065166343e-06,-1.451452704e-06,0.02673394675,9.247187851e-08,
136000,-22.702623,0.07326032652,-10.47549939,-10.47549939,1.158103357,0.07203927795,-0.01331983015,57.7616901,57.74098354,-1.546500371,7.567129997e-07,-1.809802783e-06,0.02678340887,4.561729855e-08,-14.05617854,0.1982399015,-179.8269949,-899.8269949,1.494511767,-0.1982389978,-0.0005985862507,33.45581003,33.45578406,-0.04169075199,2.806994066e-05,-4.878889162e-08,0.00124614482,1.586982804e-05,-14.53852828,0.1875312231,5.776090145,-714.2239099,1.461633058,0.1865790884,0.01887335215,72.92718001,72.87143373,2.850917409,-4.104843342e-07,3.336305868e-06,0.03912256509,1.584407285e-05,-22.19158382,0.0776999625,-177.8649593,-537.8649593,1.168491726,-0.07764602291,-0.002894701703,42.79490539,42.79417949,-0.2492576075,4.69496978e-06,-2.916954436e-07,0.005824567978,2.604245291e-07,
144000,-24.2831058,0.06107236102,-20.41489584,-20.41489584,1.130089601,0.05723648759,-0.02130299906,56.06820881,56.01700778,-2.3955957,4.613644365e-07,-2.647714565e-06,0.04276550632,-2.136894099e-07,-14.47688255,0.1888669089,134.455125,-945.544875,1.465686608,-0.132273019,0.1348130473,38.50564704,37.08340524,10.36850568,-1.065961378e-07,1.14597148e-05,0.279599611,1.571937124e-05,-14.97200042,0.1784021069,-39.78670005,-759.7867001,1.434280829,0.1370899039,-0.1141650997,65.64613752,63.89334639,-15.06836611,7.334854038e-08,-1.665420105e-05,0.2358362328,1.566551359e-05,-23.99265372,0.06314912163,171.1356914,-548.8643086,1.134811469,-0.06239487156,0.009730959155,44.12748586,44.11906422,0.862079434,-1.282065917e-06,9.528069671e-07,0.01953983951,-3.498917576e-08,
152000,-26.4959826,0.04733701517,-10.40689147,-10.40689147,1.099378303,0.04655830949,-0.008550837556,54.88280847,54.87474844,-0.9405577148,1.113245873e-06,-9.84831642e-07,0.01714008249,-7.688094975e-07,-14.88629851,0.1801710769,89.76287562,-990.2371244,1.439533351,0.0007456540975,0.1801695339,50.07227323,46.92367835,17.4757248,-5.991579783e-08,1.829834201e-05,0.3724287059,1.561013757e-05,-15.39253117,0.1699704567,-84.40312193,-804.4031219,1.409552788,0.01657699287,-0.1691601592,51.63796862,48.7634309,-16.9884552,6.163432648e-08,-1.778813566e-05,0.3483851501,1.558124156e-05,-26.31520027,0.04833258088,-177.5348803,-537.5348803,1.10157452,-0.04828785347,-0.002078841423,45.39366465,45.39327047,-0.1891727368,5.535004736e-06,-1.980774747e-07,0.004167418095,-6.312221223e-07,
160000,-25.01666778,0.05612632557,-0.7413874761,-0.7413874761,1.118927622,0.05612162689,-0.0007262348819,55.94585034,55.94579095,-0.08151635971,1.22026842e-05,-8.108582244e-08,0.001457059742,-3.730360614e-07,-15.38481215,0.170121574,45.157964,-1034.842036,1.409991557,0.119962012,0.1206253109,63.40660604,61.53595225,15.28804336,-6.50651212e-08,1.520729795e-05,0.248440835,1.553818787e-05,-15.67435932,0.1645439937,-128.9661145,-848.9661145,1.393902234,-0.1034752455,-0.1279359192,40.76127967,39.42080197,-10.36736669,9.594706394e-08,-1.031261034e-05,0.2629922825,1.551100656e-05,-24.50704719,0.05951790561,-168.5072118,-528.5072118,1.126568929,-0.05832455918,-0.01185862068,44.48970703,44.47711036,-1.058624412,9.396329639e-07,-1.053033176e-06,0.02380155554,-4.768475049e-08,
168000,-24.41247383,0.06016948697,-9.241396804,-9.241396804,1.128043272,0.0593885166,-0.009662880386,56.31319116,56.30260152,-1.092044209,8.675022898e-07,-1.034549011e-06,0.01939598135,5.963510108e-08,-15.59168863,0.1661175696,0.03560466636,-1079.964395,1.398419642,0.1661175375,0.0001032285503,69.92097721,69.92097563,0.01484533975,-6.381469656e-05,1.406374526e-08,0.0002123159698,1.547747272e-05,-16.06963954,0.1572237037,-174.004081,-894.004081,1.373108984,-0.156363586,-0.0164232148,36.48122345,36.46055123,-1.22795306,7.71487838e-07,-1.163302378e-06,0.03367894942,1.54396814e-05,-23.92137439,0.06366947672,-178.9539092,-538.9539092,1.135997866,-0.06365886507,-0.001162395474,44.01511274,44.01499283,-0.1027421533,9.220663779e-06,-9.733286646e-08,0.002334253551,5.932350177e-07,
176000,-26.02704977,0.04996288542,-15.62592388,-15.62592388,1.105180913,0.04811629682,-0.01345778212,55.05388654,55.03385572,-1.484974205,6.089597019e-07,-1.342846506e-06,0.02698292144,-3.843082356e-07,-15.95608167,0.1592927158,-44.43114484,-1124.431145,1.378949294,0.113749694,-0.1115131222,62.65507538,61.07636521,-13.97626856,6.47017797e-08,-1.26385922e-05,0.2288326837,1.538770433e-05,-16.41766032,0.1510486972,141.655285,-938.344715,1.355847731,-0.1184663516,0.09370929774,39.4918104,38.7848987,7.438731166,-1.215650128e-07,6.72676611e-06,0.1917945235,1.533195492e-05,-25.67933524,0.05200357954,172.5318662,-547.4681338,1.109712607,-0.05156244891,0.006759152796,45.09680068,45.09265827,0.6112293261,-1.479460181e-06,5.527282307e-07,0.01355496326,-2.166878947e-08,
184000,-27.32129527,0.04304624135,-3.823368719,-3.823368719,1.089965144,0.04295043568,-0.002870360361,54.48775767,54.48685651,-0.3133745026,2.760187921e-06,-2.710603322e-07,0.005751377904,-7.953833256e-07,-16.29092906,0.1532687258,-88.31817713,-1168.318177,1.362024483,0.004498303984,-0.153202701,50.44145458,48.1278366,-15.10138021,5.72777127e-08,-1.306227884e-05,0.3137764186,1.556814641e-05,-16.74097669,0.145529543,97.95476619,-982.0452338,1.340630953,-0.02014001709,0.1441292045,48.06517427,46.10735134,13.57840675,-6.37020626e-08,1.174494866e-05,0.294495484,1.538939389e-05,-27.38438386,0.04273471453,-176.5970036,-536.5970036,1.089284998,-0.04265936147,-0.002536671905,45.90862565,45.90803268,-0.2333333598,3.707024652e-06,-2.018269435e-07,0.005082625984,-7.395966211e-07,
