Frequency,S11_Magnitude,S11_Magnitude (linear),S11_Phase,S11_Unwrapped Phase,S11_VSWR,S11_Real,S11_Imaginary,S11_Impedance (absolute),S11_Resistance,S11_Reactance,S11_Capacitance,S11_Inductance,S11_Quality Factor,S11_Group delay,S12_Magnitude,S12_Magnitude (linear),S12_Phase,S12_Unwrapped Phase,S12_VSWR,S12_Real,S12_Imaginary,S12_Impedance (absolute),S12_Resistance,S12_Reactance,S12_Capacitance,S12_Inductance,S12_Quality Factor,S12_Group delay,S21_Magnitude,S21_Magnitude (linear),S21_Phase,S21_Unwrapped Phase,S21_VSWR,S21_Real,S21_Imaginary,S21_Impedance (absolute),S21_Resistance,S21_Reactance,S21_Capacitance,S21_Inductance,S21_Quality Factor,S21_Group delay,S22_Magnitude,S22_Magnitude (linear),S22_Phase,S22_Unwrapped Phase,S22_VSWR,S22_Real,S22_Imaginary,S22_Impedance (absolute),S22_Resistance,S22_Reactance,S22_Capacitance,S22_Inductance,S22_Quality Factor,S22_Group delay,
0,-13.51362048,0.2110177443,-134.9303492,-134.9303492,1.534911255,-0.1490305802,-0.1493933552,37.28239119,35.58315501,-11.12725361,inf,-inf,0.3127112705,-1.994400882e-05,-13.71848787,0.206098868,-134.0574384,-134.0574384,1.519205376,-0.1433168561,-0.1481115194,37.70554945,36.02120699,-11.14365768,inf,-inf,0.3093638057,-2.00664646e-07,-16.56996557,0.1484231764,-161.2148942,-161.2148942,1.348584349,-0.1405171194,-0.04779517181,37.70464726,37.52581617,-3.66790761,inf,-inf,0.09774357987,-1.680141583e-05,-16.67769758,0.1465936374,-160.5011177,-160.5011177,1.343549436,-0.1381861995,-0.04893126593,37.88506637,37.69700611,-3.770143698,inf,-inf,0.1000117539,-1.060243598e-05,
8000,-15.781923,0.1625188909,8.924828375,8.924828375,1.388113568,0.160551231,0.02521293553,69.11093779,69.01842521,3.574731409,-5.565276271e-06,7.111702175e-05,0.05179387097,-1.994400882e-05,-35.45649917,0.01687232925,-122.3747112,-122.3747112,1.034323781,-0.009034357534,-0.01424976766,49.10483329,49.08489203,-1.399294959,1.421742268e-05,-2.783808869e-05,0.02850765074,-2.00664646e-07,-30.00878354,0.03159081447,-5.768971702,-5.768971702,1.065242699,0.03143081615,-0.00317542997,53.24504322,53.24396733,-0.3384827781,5.877512587e-05,-6.73390091e-06,0.006357204301,-1.680141583e-05,-14.72764958,0.1834921634,-178.8646629,-178.8646629,1.449455976,-0.1834561406,-0.003635727344,34.49845213,34.49747547,-0.2595869602,7.663854869e-05,-5.164318484e-06,0.007524810341,-1.060243598e-05,
16000,-10.31058241,0.3051201433,167.7904256,167.7904256,1.87819539,-0.2982184987,0.06452928702,27.1091894,26.83879107,3.819351218,-2.604417184e-06,3.79917891e-05,0.1423071258,-1.994400882e-05,-38.55464048,0.01181049162,91.97593011,91.97593011,1.023903293,-0.0004072216262,0.0118034691,49.95930008,49.94538117,1.179222014,-8.435378432e-06,1.172993828e-05,0.02361023154,-2.00664646e-07,-31.64237412,0.02617467476,-71.80505847,-71.80505847,1.053756406,0.008173069602,-0.02486593115,50.82352848,50.76070908,-2.526155298,3.937677129e-06,-2.512813142e-05,0.04976595764,-1.680141583e-05,-12.31294299,0.2422996855,-15.91040843,-15.91040843,1.639566015,0.2330175542,-0.06642256391,80.19744963,79.4105036,-11.20726751,8.875654957e-07,-0.0001114807514,0.1411307951,-1.060243598e-05,
24000,-7.945873092,0.4005957573,124.8455578,124.8455578,2.336646386,-0.22888692,0.3287669975,32.94830141,25.93921285,20.31619557,-3.264122921e-07,0.0001347259562,0.7832232878,2.068518497e-07,-19.83121413,0.1019622225,-79.0431561,-79.0431561,1.227077803,0.01937991518,-0.100103515,51.95629357,50.92458658,-10.30256877,6.436701475e-07,-6.832103112e-05,0.2023103076,1.577334858e-05,-23.05262132,0.07036698352,99.2506687,99.2506687,1.151386584,-0.01131178004,0.06945182504,48.88678478,48.41731346,6.758807887,-9.81157635e-07,4.482073686e-05,0.1395948557,-5.353455911e-07,-5.986456922,0.5019692966,-45.80591214,-45.80591214,3.015816668,0.349918341,-0.3599032221,94.00815551,67.73930317,-65.18374114,1.017348168e-07,-0.0004322631088,0.9622735708,-1.893464284e-06,
32000,-6.569055519,0.4694044733,94.30301313,94.30301313,2.769349532,-0.03521996581,0.4680813109,47.19260638,30.20108553,36.2634324,-1.371517157e-07,0.0001803595163,1.200732747,1.030121614e-05,-20.50443666,0.09435787831,-152.8336451,-152.8336451,1.208377848,-0.0839487546,-0.04308150183,42.26861584,42.1097815,-3.660899745,1.35857093e-06,-1.820782158e-05,0.08693703969,3.33257474e-05,-21.2575001,0.08652169029,28.21567344,28.21567344,1.189433486,0.07624067702,0.04090674833,58.23829476,58.04143863,4.784388995,-1.039545902e-06,2.37955987e-05,0.08243057216,9.127988596e-06,-5.703873924,0.5185687047,-74.35541495,-74.35541495,3.154279166,0.1398420232,-0.499357297,62.55913977,36.95232156,-50.47942056,9.852712088e-08,-0.0002510640408,1.366068989,8.940942039e-06,
40000,-8.046509965,0.3959811401,42.68986795,42.68986795,2.311154888,0.2910598024,0.2684869732,86.97537229,73.36228829,46.71926842,-8.516557968e-08,0.0001858900627,0.6368294871,7.318633529e-06,-13.25065352,0.217504038,132.8938568,-227.1061432,1.555923733,-0.1480424536,0.1593469124,37.38978299,35.45842708,11.86152694,-3.354436235e-07,4.719551613e-05,0.3345192644,2.628895258e-05,-14.19509576,0.1950945834,-48.07036115,-48.07036115,1.484763997,0.1303656139,-0.1451437329,64.63043715,61.87444689,-18.67207081,2.130922498e-07,-7.429380919e-05,0.301773539,2.578522123e-05,-7.246858649,0.4341672568,-122.3762739,-122.3762739,2.534613407,-0.2324866299,-0.3666758429,33.07492845,24.53919941,-22.17608136,1.794218516e-07,-8.823582416e-05,0.9037002791,7.121177892e-06,
48000,-11.96925116,0.2520794496,60.53075811,60.53075811,1.674080822,0.1240120622,0.2194653899,63.40859804,57.414658,26.91110092,-1.232104176e-07,8.922989032e-05,0.468714817,6.664696467e-06,-11.3084908,0.2720041061,46.11666112,-313.8833389,1.747268243,0.1885511435,0.1960476984,72.15006512,66.43959661,28.13204398,-1.178630313e-07,9.327820538e-05,0.4234228594,2.53322177e-05,-11.28207605,0.2728325598,-129.5875793,-129.5875793,1.750398174,-0.1738644427,-0.2102587959,35.74168059,32.54057806,-14.78440093,2.242720552e-07,-4.902105184e-05,0.4543373784,2.493674807e-05,-11.65175842,0.2614641072,-106.3747929,-106.3747929,1.708060664,-0.07371179957,-0.2508586254,43.51679304,38.31413153,-20.63343408,1.606968558e-07,-6.841485473e-05,0.5385332581,6.665627597e-06,
56000,-9.633881767,0.329841967,36.34336252,36.34336252,1.984370703,0.2656811091,0.1954719198,84.26783768,77.16942897,33.85184928,-8.395560702e-08,9.620873475e-05,0.4386691691,4.207735191e-06,-11.08659551,0.2790424168,-17.07922642,-377.0792264,1.774088305,0.2667365238,-0.08195301842,86.02161148,84.6941146,-15.05405576,1.887898252e-07,-4.278441763e-05,0.1777461849,2.374420007e-05,-11.18622482,0.2758600172,166.8451094,-193.1548906,1.761896936,-0.2686210044,0.0627814072,28.89639141,28.63317146,3.891391629,-7.303434931e-07,1.105953952e-05,0.1359050161,2.340496589e-05,-9.67507924,0.3282812194,-132.3411848,-132.3411848,1.977436478,-0.2211118438,-0.2426481229,32.76377328,28.78180336,-15.65479592,1.81545168e-07,-4.449175274e-05,0.543912962,3.961359538e-06,
64000,-12.79329929,0.2292635621,1.504636719,1.504636719,1.594920782,0.2291845127,0.006019967423,79.73125795,79.72482082,1.013133763,-2.454558397e-06,2.519456975e-06,0.01270788385,5.150352663e-06,-10.08531637,0.3131368523,-82.63103833,-442.6310383,1.911788188,0.04016242179,-0.3105505887,53.80174284,44.31162732,-30.51404951,8.149675398e-08,-7.588221584e-05,0.6886239879,2.226569032e-05,-10.28216865,0.3061199034,101.6687659,-258.3312341,1.882342367,-0.06191380784,0.2997933883,44.62603675,37.21819528,24.62293841,-1.009950943e-07,6.123222438e-05,0.6615833524,2.210708086e-05,-13.40007867,0.2137942726,-165.3579969,-165.3579969,1.543863432,-0.2068511155,-0.05404264057,32.90347982,32.69444035,-3.703046598,6.715540624e-07,-9.208721414e-06,0.113262272,4.963069747e-06,
72000,-17.04127742,0.1405840755,11.6115419,11.6115419,1.327161905,0.1377069835,0.02829609448,65.95475887,65.84511516,3.801450622,-5.814846859e-07,8.403050796e-06,0.05773322155,3.523813156e-06,-10.58183466,0.2957387732,-144.6487745,-504.6487745,1.839855332,-0.241210644,-0.1711106285,31.04048461,29.06390943,-10.89958042,2.028046251e-07,-2.409336252e-05,0.3750211391,2.085253287e-05,-10.81954668,0.2877548591,39.26995737,-320.7300426,1.808021965,0.2227718158,0.18214164,77.43242313,71.9642103,28.58203259,-7.733828285e-08,6.318016347e-05,0.3971700998,2.074617637e-05,-16.89264129,0.1430105034,-149.9282493,-149.9282493,1.33375089,-0.1237610869,-0.07166029219,39.037755,38.62649623,-5.651557693,3.911285066e-07,-1.249268532e-05,0.146312978,3.378360168e-06,
80000,-14.96841972,0.1784756671,-1.268409922,-1.268409922,1.434498797,0.1784319345,-0.003950758997,71.71803417,71.71564572,-0.5853065652,3.398965443e-06,-1.164430413e-06,0.008161490555,1.583876461e-06,-9.629488678,0.3300088343,149.2754946,-570.7245054,1.985113987,-0.2836867595,0.1686050213,28.41901324,26.57952475,10.05828899,-1.977907763e-07,2.001033015e-05,0.3784224544,1.918123953e-05,-10.50454089,0.29838223,-24.14196777,-384.1419678,1.85055494,0.2722841806,-0.1220380276,86.60809496,83.65738819,-22.41435956,8.875724436e-08,-4.45919515e-05,0.2679304248,1.916163901e-05,-14.42484975,0.1900017113,-169.049465,-169.049465,1.469141019,-0.1865420743,-0.03609300221,34.29637335,34.20060131,-2.561268205,7.767389547e-07,-5.095481193e-06,0.07488956647,1.328239689e-06,
88000,-17.55972474,0.1324383505,-13.0130236,-13.0130236,1.305311676,0.1290371889,-0.02982147811,64.80009713,64.68101797,-3.926640063,4.605919743e-07,-7.101638361e-06,0.06070776537,1.551655909e-06,-11.36461326,0.2702522615,106.6910337,-613.3089663,1.740673105,-0.07761932104,0.2588658453,43.2210865,37.73437424,21.07556212,-8.581402897e-08,3.811681694e-05,0.558524225,1.779221142e-05,-11.70600718,0.2598361908,-68.99446355,-428.9944636,1.702104554,0.0931404026,-0.2425689828,59.64001602,52.90791724,-27.52605682,6.570424926e-08,-4.978304554e-05,0.520263474,1.781881071e-05,-17.96400363,0.1264153521,-179.1438372,-179.1438372,1.289417522,-0.1264012387,-0.001888936622,38.77834758,38.7780618,-0.1488777945,1.214807692e-05,-2.692572376e-07,0.003839227326,1.491812397e-06,
96000,-20.46597762,0.09477659874,-8.990901572,-8.990901572,1.209399356,0.09361209474,-0.01481146134,60.32551758,60.29858528,-1.80241067,9.198036929e-07,-2.988151746e-06,0.02989142551,1.04041649e-06,-11.87827424,0.2547336321,55.48920827,-664.5107917,1.68360426,0.1443222565,0.2099054778,66.02451503,60.23298866,27.04114759,-6.130893614e-08,4.483054484e-05,0.4489424847,1.682810891e-05,-12.28009049,0.2432178669,-120.1266253,-480.1266253,1.642768523,-0.1220741409,-0.2103635779,39.53919722,36.09463478,-16.140801,1.027126219e-07,-2.675925275e-05,0.4471800615,1.69349037e-05,-20.58690398,0.09346624627,-169.8768545,-169.8768545,1.206205772,-0.09201118781,-0.01642804031,41.576253,41.55343327,-1.377315094,1.203692603e-06,-2.283401098e-06,0.0331456389,9.265059892e-07,
104000,-19.95512521,0.100517977,-6.871057371,-6.871057371,1.223501914,0.09979604704,-0.01202550215,61.08413892,61.06611732,-1.483692477,1.031437454e-06,-2.270547998e-06,0.02429649276,6.480266465e-07,-12.3212991,0.2420666973,6.036524279,-713.9634757,1.638754615,0.2407244519,0.0254563194,81.67579523,81.55661303,4.41071383,-3.469588031e-07,6.749874121e-06,0.05408162092,1.709897083e-05,-12.76523822,0.23000543,-169.3285881,-529.3285881,1.597420914,-0.2260275582,-0.04259155706,31.59293372,31.46591948,-2.830083496,5.407388134e-07,-4.330978632e-06,0.08994122984,1.69808995e-05,-19.46526563,0.1063498101,-170.9966531,-170.9966531,1.238012169,-0.1050394954,-0.01664291156,40.49691165,40.47398073,-1.362621396,1.123082314e-06,-2.085268565e-06,0.03366660189,8.892261175e-07,
112000,-20.94031106,0.0897396656,-19.32139049,-19.32139049,1.197173627,0.08468530269,-0.02969186909,59.24307533,59.13719862,-3.54029868,4.013859864e-07,-5.030857455e-06,0.05986585031,5.222602311e-08,-12.78903793,0.2293760678,-42.72201891,-762.7220189,1.595299622,0.1685120279,-0.1556183695,69.67690165,66.1962516,-21.74688249,6.53439075e-08,-3.090289147e-05,0.3285213583,1.673023512e-05,-13.2526697,0.2174535566,142.1624812,-577.8375188,1.555758852,-0.1717347064,0.1333913036,35.56922325,34.25167029,9.591283818,-1.481580886e-07,1.362946634e-05,0.2800238277,1.661617712e-05,-20.67374945,0.09253638456,173.5352567,-186.4647433,1.203945112,-0.09194797592,0.01041883837,41.58029867,41.57111784,0.8737272264,-1.626395784e-06,1.241589348e-06,0.02101765052,4.630403006e-07,
120000,-23.9397645,0.06353481574,-17.17936285,-17.17936285,1.135690716,0.06070019787,-0.01876589432,56.4598507,56.41980468,-2.126118629,6.238086502e-07,-2.819852412e-06,0.03768390623,-1.536970054e-07,-13.42519967,0.2131768382,-90.42853269,-810.4285327,1.541867216,-0.00159440004,-0.2131708757,49.84772257,45.5142784,-20.32845068,6.524310254e-08,-2.69614451e-05,0.4466389757,1.644410231e-05,-13.93663197,0.2009872006,95.33603042,-624.6639696,1.503088814,-0.01869115246,0.2001162053,48.23460373,44.5177023,18.56747639,-7.143088078e-08,2.46258804e-05,0.4170807439,1.635040531e-05,-23.96167292,0.06337476382,176.3452512,-183.6547488,1.135325766,-0.06324587688,0.004039770628,44.05171432,44.05026495,0.3573411439,-3.711554672e-06,4.739384119e-07,0.008112122467,6.844749389e-08,
128000,-23.6022234,0.06605243464,-4.588803565,-4.588803565,1.141447844,0.06584070563,-0.005284468069,57.04791242,57.04469851,-0.6055437168,2.05335793e-06,-7.529318421e-07,0.01061524967,-7.782437769e-08,-13.72896547,0.2058504053,-137.193649,-857.193649,1.518417202,-0.1510230858,-0.1398800089,37.10347472,35.61480828,-10.40448302,1.195059852e-07,-1.29369133e-05,0.2921392398,1.619569256e-05,-14.20992266,0.1947618391,48.26811482,-671.7318852,1.483737231,0.1296423918,0.1453445019,64.53657253,61.77814489,18.66627997,-6.66119867e-08,2.320961505e-05,0.3021502184,1.613188822e-05,-23.29398129,0.06843857141,-170.2155869,-170.2155869,1.146933029,-0.06744307534,-0.01163054798,43.68261481,43.67069034,-1.020608484,1.218290865e-06,-1.26902254e-06,0.02337055989,1.432648327e-07,
136000,-22.76545329,0.0727323024,-12.02411396,-12.02411396,1.156874444,0.07113655646,-0.01515183641,57.6565495,57.62981241,-1.755682519,6.665538456e-07,-2.054599642e-06,0.0304648314,1.937059307e-08,-14.12786806,0.19661045,176.4772661,-903.5227339,1.489452346,-0.1962389539,0.01208064563,33.59741953,33.5868135,0.8441312414,-1.386344773e-06,9.878504389e-07,0.02513281712,1.596678211e-05,-14.61823692,0.1858181594,2.172758664,-717.8272413,1.456453706,0.1856845663,0.007044868914,72.80109628,72.79334514,1.062319323,-1.101605618e-06,1.243186554e-06,0.01459363244,1.594167791e-05,-22.42738945,0.07561892998,179.8931248,-180.1068752,1.163609863,-0.07561879843,0.0001410537139,42.9697401,42.96973837,0.01219179778,-9.5987233e-05,1.42675359e-08,0.0002837298584,2.515907084e-07,
144000,-24.49366715,0.05960965968,-20.7783439,-20.7783439,1.126776419,0.05573263725,-0.02114674141,55.89940689,55.84912291,-2.370476963,4.662532804e-07,-2.619952265e-06,0.04244430065,-3.609763415e-07,-14.54807718,0.1873251724,130.6071088,-949.3928912,1.46100892,-0.1219240384,0.1422155022,39.32782837,37.72304359,11.11980515,-9.939406721e-08,1.229008303e-05,0.2947748668,1.573346548e-05,-15.0452133,0.1769046852,-43.55507323,-763.5550732,1.429852247,0.1282050161,-0.1218964377,64.45543636,62.50633564,-15.73090209,7.025933124e-08,-1.738646407e-05,0.2516689216,1.564652699e-05,-24.42568442,0.06007804321,169.6983063,-190.3016937,1.127836237,-0.05910957025,0.01074383458,44.41954753,44.40922201,0.9577073917,-1.154050465e-06,1.058499065e-06,0.02156550708,-1.418620237e-07,
152000,-26.40548785,0.04783277833,-9.363529223,-9.363529223,1.100471382,0.04719545078,-0.007782294564,54.95300368,54.94631797,-0.857178065,1.221533817e-06,-8.975271458e-07,0.01560028218,-7.849026047e-07,-14.95284419,0.1787959967,85.74942605,-994.2505739,1.435448429,0.01325208749,0.178304208,51.3010793,48.1385784,17.73352776,-5.904476583e-08,1.856828027e-05,0.3683849492,1.564882964e-05,-15.46081353,0.1686395069,-88.3125375,-808.3125375,1.405695263,0.004966015085,-0.1685663726,50.48522337,47.69532636,-16.55033601,6.326590552e-08,-1.732939332e-05,0.347001211,1.559864384e-05,-26.55677773,0.04700684611,-177.2346016,-177.2346016,1.098650963,-0.04695210458,-0.002267919071,45.51537523,45.51490495,-0.2069054291,5.060630832e-06,-2.166448803e-07,0.004545882923,-6.338477443e-07,
160000,-25.22916979,0.05476984485,-0.7210366135,-0.7210366135,1.115886791,0.05476550799,-0.0006892308899,55.79385125,55.79379792,-0.07714102066,1.289480468e-05,-7.673359221e-08,0.001382609242,-3.208721801e-07,-15.81164392,0.1619637426,41.60836811,-1038.391632,1.386531588,0.121100471,0.1075496622,63.59706893,62.10005464,13.7175213,-7.251444138e-08,1.364507076e-05,0.2208938685,1.560244613e-05,-16.21844972,0.1545530265,-131.7992258,-851.7992258,1.365612584,-0.1030130537,-0.1152169639,40.77298226,39.68221996,-9.36789738,1.061837416e-07,-9.31841984e-06,0.236072916,1.557086018e-05,-24.90235027,0.05686990288,-169.6089105,-169.6089105,1.120598215,-0.05593720992,-0.01025740712,44.70313018,44.69366522,-0.9198572288,1.081383462e-06,-9.149989056e-07,0.02058137824,3.444742448e-08,
168000,-24.50184963,0.0595535313,-10.75017009,-10.75017009,1.126649487,0.05850835754,-0.01110833871,56.21361479,56.19964808,-1.253013419,7.560580258e-07,-1.18704333e-06,0.02229575205,7.85346463e-08,-15.66761768,0.1646717558,-4.366510388,-1084.36651,1.394268378,0.1641937836,-0.01253748729,69.6411622,69.61804265,-1.794327034,5.279700043e-07,-1.699857244e-06,0.02577387938,1.556414229e-05,-16.14190691,0.1559210154,-178.3256363,-898.3256363,1.369446505,-0.1558544424,-0.004555856168,36.51633213,36.5147399,-0.3410020301,2.778138451e-06,-3.230485637e-07,0.009338750079,1.554286089e-05,-24.26106556,0.06122752753,178.6741407,-181.3258593,1.130441676,-0.06121113496,0.001416715868,44.23196603,44.23178714,0.1257993473,-7.530649976e-06,1.191761188e-07,0.002844093704,5.671467828e-07,
176000,-26.21248697,0.04890752116,-15.46446407,-15.46446407,1.102844933,0.04713687396,-0.01304073386,54.94598256,54.92721415,-1.436017238,6.297204696e-07,-1.298575237e-06,0.02614400275,-3.489340054e-07,-16.02674442,0.1580020708,-49.01014717,-1129.010147,1.375302754,0.1036375649,-0.1192640328,61.37950766,59.62136706,-14.5854911,6.199924592e-08,-1.318950571e-05,0.2446353013,1.550016455e-05,-16.49095453,0.1497794645,137.2310896,-942.7689104,1.352330856,-0.1099528701,0.1017067075,40.18648043,39.34375472,8.186707177,-1.104582624e-07,7.403152926e-06,0.2080814919,1.548782803e-05,-26.23538081,0.04877878288,171.2478922,-188.7521078,1.102560334,-0.04821079851,0.007422167248,45.40090036,45.39587517,0.6754787694,-1.338738522e-06,6.108283245e-07,0.0148797389,-1.118311172e-07,
184000,-27.12797382,0.04401506108,-3.122714401,-3.122714401,1.092083168,0.04394970544,-0.002397705913,54.59697998,54.5963498,-0.2623201811,3.297392191e-06,-2.268997473e-07,0.004804720134,-7.299452574e-07,-16.3703251,0.1518741097,-93.06496527,-1173.064965,1.358140487,-0.008120439269,-0.1516568616,49.21246551,46.99932785,-14.59211922,5.927668928e-08,-1.262178208e-05,0.3104750618,1.565393327e-05,-16.81924492,0.1442240722,93.355108,-986.644892,1.337060362,-0.008440601531,0.1439768705,49.17986434,47.18206632,13.87485764,-6.234100122e-08,1.200137053e-05,0.2940705806,1.559630626e-05,-27.73245054,0.04105607926,-175.8299167,-175.8299167,1.085627696,-0.04094738666,-0.002985493197,46.06636839,46.06554444,-0.275521158,3.139405057e-06,-2.383182295e-07,0.005981068093,-6.184045875e-07,
