Frequency,S11_Magnitude,S11_Magnitude (linear),S11_Phase,S11_Unwrapped Phase,S11_VSWR,S11_Real,S11_Imaginary,S11_Impedance (absolute),S11_Resistance,S11_Reactance,S11_Capacitance,S11_Inductance,S11_Quality Factor,S11_Group delay,S12_Magnitude,S12_Magnitude (linear),S12_Phase,S12_Unwrapped Phase,S12_VSWR,S12_Real,S12_Imaginary,S12_Impedance (absolute),S12_Resistance,S12_Reactance,S12_Capacitance,S12_Inductance,S12_Quality Factor,S12_Group delay,S21_Magnitude,S21_Magnitude (linear),S21_Phase,S21_Unwrapped Phase,S21_VSWR,S21_Real,S21_Imaginary,S21_Impedance (absolute),S21_Resistance,S21_Reactance,S21_Capacitance,S21_Inductance,S21_Quality Factor,S21_Group delay,S22_Magnitude,S22_Magnitude (linear),S22_Phase,S22_Unwrapped Phase,S22_VSWR,S22_Real,S22_Imaginary,S22_Impedance (absolute),S22_Resistance,S22_Reactance,S22_Capacitance,S22_Inductance,S22_Quality Factor,S22_Group delay,
0,-13.3989157,0.2138228998,-135.5095989,-135.5095989,1.543956062,-0.1525343853,-0.1498448991,37.02398731,35.32305065,-11.09313881,inf,-inf,0.3140481527,-2.897924982e-05,-13.57734593,0.2094752432,-134.48436,-134.48436,1.529965043,-0.1467823492,-0.149448384,37.45018554,35.74428951,-11.174174,inf,-inf,0.3126142427,4.311570946e-06,-16.09456061,0.1567732528,-171.3963691,-171.3963691,1.371841271,-0.1550090681,-0.02345296543,36.58595208,36.54372391,-1.75730825,inf,-inf,0.04808782637,1.598416177e-05,-16.23145549,0.1543217806,-170.6687937,-170.6687937,1.364965721,-0.1522797257,-0.02502193264,36.79182976,36.74357901,-1.883650248,inf,-inf,0.05126474607,-9.87812113e-06,
8000,-16.88782698,0.1430897916,117.9359553,-242.0640447,1.333966827,-0.06703532362,0.1264157974,43.81071817,42.42039187,10.9494009,-1.816936658e-06,0.0002178314097,0.2581164487,-2.897924982e-05,-22.48792641,0.07509373049,31.7441118,31.7441118,1.162381277,0.0638601814,0.03950880396,56.81024792,56.6317203,4.50028046,-4.420695124e-06,8.953023506e-05,0.07946572055,4.311570946e-06,-21.00597811,0.08906377408,-81.5598872,-81.5598872,1.19554338,0.01307238733,-0.08809919718,51.3142167,50.52353804,-8.973346054,2.217051228e-06,-0.0001785190476,0.1776072382,1.598416177e-05,-12.41183712,0.2395566018,-132.0064158,-132.0064158,1.63004453,-0.1603145878,-0.1780072987,36.55992323,34.20178955,-12.91764601,1.540092357e-06,-0.000256988402,0.3776891848,-9.87812113e-06,
16000,5.849658301,1.961024028,-78.02320545,-78.02320545,nan,0.4069429067,-1.918335922,59.23977327,-35.2902556,-47.58096885,2.090580369e-07,-0.0004732966493,-1.348274985,-2.897924982e-05,-19.35518484,0.1077062134,10.9371557,10.9371557,1.241414241,0.1057498248,0.02043533607,61.81994807,61.76716426,2.554094621,-3.894602753e-06,2.540604901e-05,0.04135036232,4.311570946e-06,-20.81115404,0.09108404264,-112.94893,-112.94893,1.200423465,-0.03551462372,-0.08387499225,46.59351249,45.94089786,-7.771055937,1.280029899e-06,-7.730012284e-05,0.1691533318,1.598416177e-05,2.442307109,1.324693348,66.77940357,66.77940357,nan,0.5222898809,1.217384798,74.52456775,-22.0675369,71.18240663,-1.397421696e-07,0.0007080644923,-3.225661612,-9.87812113e-06,
24000,-8.138709268,0.3918000947,125.1488902,125.1488902,2.288392488,-0.2255605549,0.3203587837,33.08039986,26.37659514,19.96467088,-3.321595433e-07,0.0001323948357,0.7569085688,-2.210477223e-06,-20.16508171,0.09811737358,-71.11329594,-71.11329594,1.217583465,0.03176038415,-0.09283478334,53.2512511,52.33941644,-9.812299968,6.758309452e-07,-6.506983513e-05,0.1874743862,2.19525839e-05,-22.83544961,0.07214853539,122.1319771,-237.8680229,1.155517425,-0.03837373394,0.06109719881,46.3176961,45.97217717,5.646937126,-1.174345634e-06,3.744741487e-05,0.1228337981,2.777863312e-05,-6.400400929,0.4786079999,-47.70623881,-47.70623881,2.835885475,0.3220706255,-0.3540284307,89.47733044,65.90034768,-60.52550568,1.095646519e-07,-0.0004013722255,0.9184398537,3.437718219e-06,
32000,-6.599430692,0.4677657995,98.18513107,98.18513107,2.757744238,-0.06659678529,0.4630007682,44.80423696,28.89038733,34.24565913,-1.45232771e-07,0.0001703239353,1.185365179,-6.57090047e-06,-20.03187138,0.09963373955,-145.1422777,-145.1422777,1.221318243,-0.08175683934,-0.05694472124,42.46495529,42.1867605,-4.852799805,1.024891232e-06,-2.413584615e-05,0.1150313451,2.583369032e-05,-20.80939588,0.09110248132,36.58576932,-323.4142307,1.200468104,0.07315215276,0.05429939825,57.86741254,57.52353132,6.299268069,-7.895507728e-07,3.132998909e-05,0.1095076732,2.946131217e-05,-5.813920986,0.5120400729,-70.57393793,-70.57393793,3.098697227,0.1702994796,-0.4828903845,65.93857395,40.02962839,-52.39775172,9.491994996e-08,-0.0002606050373,1.308974223,1.501435715e-05,
40000,-7.432328682,0.4249947507,61.66265908,61.66265908,2.478229116,0.2017288306,0.3740668617,71.38423164,52.71607062,48.1323636,-8.266524391e-08,0.0001915125898,0.9130491526,7.112631938e-06,-15.16276914,0.1745265657,153.6666204,-206.3333796,1.422852047,-0.1564156214,0.07741883179,36.54557186,36.08825815,5.763371104,-6.903726145e-07,2.2931725e-05,0.1597021136,2.501835118e-05,-14.97680343,0.1783034838,-16.3395537,-376.3395537,1.433988657,0.1711020391,-0.05016198291,70.57776593,70.20190257,-7.274195458,5.469846941e-07,-2.89431041e-05,0.1036182097,2.551606783e-05,-7.424141339,0.4253955407,-112.8328874,-112.8328874,2.480655202,-0.1650724702,-0.3920617881,37.51806471,27.1006292,-25.94534788,1.533559541e-07,-0.0001032332591,0.9573706827,6.715350913e-06,
48000,-13.74747554,0.2054121949,48.34087688,48.34087688,1.51702831,0.1365369738,0.1534660373,65.38528719,62.26632733,19.95345238,-1.661731473e-07,6.616022038e-05,0.3204533371,6.373275331e-06,-10.59951716,0.2951373287,66.5420569,-293.4579431,1.837432143,0.1174870314,0.2707449727,62.27954874,53.56529145,31.77265717,-1.043579063e-07,0.0001053494884,0.5931575525,2.397457673e-05,-10.59589709,0.2952603603,-107.9560598,-467.9560598,1.837927494,-0.09102508924,-0.2808791795,42.22358998,35.95968187,-22.12990806,1.498301743e-07,-7.337675537e-05,0.6154088943,2.399169808e-05,-13.39229846,0.2139858603,-116.8640151,-116.8640151,1.544483488,-0.09669475846,-0.1908928289,41.46911153,38.50168915,-15.40477664,2.152402503e-07,-5.107804896e-05,0.4001065144,6.194653275e-06,
56000,-10.66659923,0.2928667303,47.6491174,47.6491174,1.828321175,0.1972952641,0.216438214,73.17423366,66.13534519,31.31428728,-9.075897306e-08,8.899685017e-05,0.4734879237,5.453272575e-06,-11.07693551,0.279352926,2.780279819,-357.2197202,1.775283592,0.2790240973,0.01355029184,88.69020596,88.65191505,2.605876155,-1.090632243e-06,7.406036984e-06,0.0293944711,2.285811263e-05,-11.20416758,0.2752907513,-173.0284851,-533.0284851,1.75972744,-0.2732554214,-0.03341365589,28.55915284,28.48478616,-2.059652442,1.379869971e-06,-5.853640484e-06,0.07230710562,2.331450709e-05,-10.32816721,0.3045030446,-121.2622534,-121.2622534,1.875641632,-0.1580237061,-0.2602894783,37.12526895,32.20107638,-18.47637071,1.538209316e-07,-5.251081658e-05,0.5737811523,4.796149223e-06,
64000,-11.44661426,0.2677128928,13.41673713,13.41673713,1.73116921,0.2604065097,0.06211797375,85.01350678,84.26229626,11.27660249,-2.205270593e-07,2.804260981e-05,0.1338273818,4.22599885e-06,-10.17991224,0.3097450595,-54.93301238,-414.9330124,1.897480166,0.1779589935,-0.2535204104,70.03408614,61.08301757,-34.25840315,7.258937246e-08,-8.519365943e-05,0.5608498812,2.090366178e-05,-10.36126728,0.3033448568,129.4497826,-590.5502174,1.870860884,-0.1927458314,0.2342373724,34.57554494,30.7267647,15.85352449,-1.568607654e-07,3.942448106e-05,0.5159516351,2.083014422e-05,-11.63859352,0.2618606998,-155.5622621,-155.5622621,1.709515669,-0.2384009589,-0.1083328615,30.94065457,30.13605802,-7.010143536,3.547425203e-07,-1.74327968e-05,0.2326164733,4.164345503e-06,
72000,-16.71821266,0.1459114479,0.5976038732,0.5976038732,1.341677564,0.1459035112,0.001521851455,67.08274287,67.08241847,0.2086205145,-1.059572366e-05,4.611525848e-07,0.003109913435,3.483282818e-06,-10.16374028,0.3103223003,-114.7526669,-474.7526669,1.899905276,-0.1299325701,-0.2818110312,39.26718524,33.31821803,-20.77999481,1.063756436e-07,-4.593387349e-05,0.6236826588,1.947258005e-05,-10.40623969,0.3017783055,69.22862304,-650.771377,1.864419733,0.1070226313,0.2821636087,60.99419518,51.81893193,32.17281677,-6.870661454e-08,7.11175392e-05,0.6208699326,1.938464183e-05,-17.11901463,0.1393314858,-162.5483127,-162.5483127,1.323775027,-0.1329180814,-0.04178572214,38.2860129,38.14772127,-3.251176099,6.799032884e-07,-7.186677042e-06,0.08522595822,3.321959674e-06,
80000,-16.64254521,0.1471881136,11.01225021,11.01225021,1.345183073,0.1444778454,0.02811570704,66.8717588,66.76157428,3.837228759,-5.184566554e-07,7.63392406e-06,0.05747660688,1.88772132e-06,-9.789275437,0.3239934483,-175.7041993,-535.7041993,1.958551208,-0.3230832296,-0.0242689368,25.59316535,25.55561401,-1.385894992,1.435488836e-06,-2.757150482e-06,0.05423054954,1.821193337e-05,-10.64157573,0.2937116772,10.96130943,-709.0386906,1.831704752,0.2883531452,0.05584812433,90.32642205,89.6590182,10.96006279,-1.815169153e-07,2.180435212e-05,0.1222416106,1.820318808e-05,-15.795448,0.162266026,-156.1875607,-156.1875607,1.387392731,-0.1484526492,-0.06551392318,37.12288619,36.79124734,-4.951040093,4.018219912e-07,-9.849781303e-06,0.1345711399,1.78127263e-06,
88000,-16.54845849,0.1487911414,-1.307911714,-1.307911714,1.349599607,0.1487523764,-0.00339621483,67.47438832,67.47276056,-0.4686799945,3.858877955e-06,-8.476447483e-07,0.00694621045,9.844448813e-07,-10.90883838,0.2848118671,142.7607206,-577.2392794,1.796466983,-0.2267430692,0.1723524882,31.97601007,29.93874112,11.23107298,-1.610334919e-07,2.031228159e-05,0.3751351111,1.686599993e-05,-11.28112198,0.2728625295,-32.92309082,-752.9230908,1.750511535,0.2290410504,-0.1483042724,78.84133223,75.0801668,-24.06084415,7.516689304e-08,-4.351593502e-05,0.3204687093,1.690282808e-05,-16.46990564,0.1501428717,-168.7858234,-168.7858234,1.353336735,-0.1472762037,-0.02919934458,37.17271264,37.10654521,-2.216950042,8.157959648e-07,-4.009529066e-06,0.05974552548,8.710426831e-07,
96000,-19.46046243,0.1064086366,-12.81369208,-12.81369208,1.238159501,0.1037586766,-0.02359946966,61.56982351,61.4997826,-2.935967878,5.646737497e-07,-4.867435422e-06,0.04773948384,1.113834116e-06,-11.28700431,0.2726778019,94.05845333,-625.9415467,1.749812951,-0.01929854104,0.2719940256,48.23484372,41.58527316,24.4390099,-6.783679034e-08,4.051655447e-05,0.5876842459,1.598597177e-05,-11.69908898,0.2600432296,-81.60026875,-801.6002688,1.7028606,0.03798669587,-0.2572537506,53.69418877,47.01146447,-25.9420145,6.39065247e-08,-4.300833169e-05,0.551823152,1.611003004e-05,-19.79955671,0.1023345219,-178.0938326,-178.0938326,1.228001465,-0.1022778942,-0.003403928636,40.7213228,40.7203591,-0.2801522464,5.917725137e-06,-4.644543211e-07,0.006879906086,8.53808197e-07,
104000,-21.07230694,0.08838623875,-1.66543127,-1.66543127,1.193911594,0.08834890236,-0.002568783939,59.69101645,59.69021625,-0.3090770872,4.951308443e-06,-4.729917906e-07,0.005178019223,8.89310683e-07,-11.71966327,0.2594279933,47.49560773,-672.5043923,1.700615176,0.1752816741,0.1912569435,70.32454866,65.06527615,26.68430218,-5.734967251e-08,4.083594803e-05,0.4101158676,1.613126172e-05,-12.15553999,0.2467305918,-127.8913122,-847.8913122,1.655092558,-0.1515334281,-0.1947141626,37.26935144,34.42680979,-14.27583009,1.071976888e-07,-2.18468166e-05,0.4146718845,1.609883612e-05,-20.81967916,0.09099468833,-164.1381914,-164.1381914,1.200207165,-0.08752994795,-0.02487049486,41.95610113,41.903427,-2.101720245,7.281349621e-07,-3.216338135e-06,0.05015628544,9.08833248e-07,
112000,-20.12511684,0.0985698642,-4.848201278,-4.848201278,1.218696625,0.09821719216,-0.008330743869,60.89060021,60.8819836,-1.024336899,1.38726456e-06,-1.455609651e-06,0.01682495935,6.710032863e-07,-12.09763761,0.2483808559,1.730363528,-718.2696365,1.660922112,0.2482675938,0.00750009595,83.02342636,83.0128194,1.327079822,-1.070791865e-06,1.8858153e-06,0.01598644441,1.575499012e-05,-12.5303039,0.2363114718,-173.5390124,-893.5390124,1.618868722,-0.2348105879,-0.026591343,30.99559764,30.94654185,-1.743163915,8.151994573e-07,-2.477081729e-06,0.05632822961,1.569768682e-05,-19.65054508,0.1041052775,-170.8062147,-170.8062147,1.232405158,-0.1027678995,-0.01663332852,40.68327541,40.66028741,-1.367452158,1.039178058e-06,-1.94318545e-06,0.03363114835,9.065509444e-07,
120000,-21.30713753,0.08602865313,-18.09673095,-18.09673095,1.188252407,0.08177311297,-0.02672240922,58.89857867,58.81338737,-3.166707387,4.188234119e-07,-4.199976117e-06,0.05384330896,2.193522943e-07,-12.40343576,0.2397884233,-43.36540325,-763.3654033,1.630846545,0.1743236469,-0.1646503996,70.42188421,66.48091447,-23.22778052,5.709935098e-08,-3.080680072e-05,0.3493902078,1.54770088e-05,-12.86248007,0.2274447918,141.2230409,-938.7769591,1.588811749,-0.1773136589,0.1424464801,35.20227413,33.71362635,10.12874634,-1.309432726e-07,1.343366705e-05,0.3004347925,1.540185394e-05,-21.17641319,0.08733319337,174.4831689,-185.5168311,1.191380234,-0.08692866602,0.008396051965,42.00288038,41.99686842,0.7106358604,-1.866344307e-06,9.425100827e-07,0.01692116311,4.202091094e-07,
128000,-24.27259542,0.06114630654,-14.26048957,-14.26048957,1.13025737,0.05926213375,-0.01506221452,56.29801321,56.27229406,-1.70153254,7.307518156e-07,-2.115682145e-06,0.03023748309,-4.290618333e-07,-12.89085376,0.2267030235,-87.38289894,-807.3828989,1.586328488,0.01035152045,-0.226466569,50.99443891,46.01794023,-21.9723002,5.658934119e-08,-2.732031397e-05,0.4774724834,1.523304965e-05,-13.36021233,0.2147777969,97.79586441,-982.2041356,1.54704973,-0.02913333242,0.2127927419,47.28853752,43.18515975,19.2677907,-6.453246314e-08,2.395753228e-05,0.4461669427,1.51351402e-05,-24.36304028,0.06051290272,179.5411536,-180.4588464,1.128821147,-0.06051096226,0.0004846051304,44.29417036,44.2941494,0.04308812468,-2.885709235e-05,5.357568774e-08,0.0009727723696,-4.202657351e-07,
136000,-23.76342174,0.06483789596,-0.1179601641,-0.1179601641,1.138666645,0.06483775855,-0.0001334877283,56.93331643,56.93331438,-0.0152639666,7.666794389e-05,-1.786276276e-08,0.000268102547,-1.258219055e-07,-13.22654312,0.2181086271,-130.8166877,-850.8166877,1.557900073,-0.1425647533,-0.1650656365,37.81873779,35.73302311,-12.38579782,9.448377504e-08,-1.449456578e-05,0.3466204854,1.503859815e-05,-13.70239577,0.2064810556,54.6545526,-1025.345447,1.520418717,0.1194502835,0.1684222553,63.13629704,59.55737478,20.95497824,-5.58462491e-08,2.452270859e-05,0.3518452301,1.493105205e-05,-23.44660332,0.06724652299,-165.3628867,-165.3628867,1.144189273,-0.06506408347,-0.01699293666,43.89272682,43.86716941,-1.497636517,7.814025109e-07,-1.752619519e-06,0.0341402588,-4.634822575e-08,
144000,-22.59909455,0.07413875221,-7.659096272,-7.659096272,1.160150892,0.07347733078,-0.009881115308,57.92960054,57.91816646,-1.150918247,9.603137867e-07,-1.272043946e-06,0.01987145515,5.559823633e-07,-13.52114192,0.210835095,-173.8999091,-893.8999091,1.534324559,-0.2096412994,-0.02240452808,32.67665402,32.64078511,-1.53064201,7.220778294e-07,-1.691730848e-06,0.04689354147,1.476227058e-05,-14.00087085,0.1995062279,11.79921286,-1068.200787,1.498457914,0.1952907008,0.040795553,74.21641221,73.94991629,6.283766554,-1.758885616e-07,6.945086863e-06,0.08497327474,1.477641435e-05,-22.19296869,0.07768757507,-174.8313603,-174.8313603,1.168462601,-0.07737168623,-0.006998677728,42.81880631,42.81456118,-0.6029295279,1.833120803e-06,-6.663834355e-07,0.01408234748,6.983311748e-07,
152000,-24.01478957,0.06298839198,-19.58559216,-19.58559216,1.134445276,0.05934399556,-0.02111463274,56.30578905,56.25525104,-2.385080829,4.390090187e-07,-2.497351339e-06,0.04239747907,-1.646684146e-07,-13.85437205,0.2028996966,143.3372885,-936.6627115,1.509094516,-0.1627589161,0.1211520619,36.18146006,35.07870972,8.86465884,-1.181175737e-07,9.281936008e-06,0.2527076654,1.465935683e-05,-14.34181526,0.1918267802,-30.78578283,-1110.785783,1.474716993,0.1647958791,-0.09818264526,69.49992451,68.09916909,-13.88317961,7.542018638e-08,-1.453668856e-05,0.2038670926,1.465358325e-05,-23.74542472,0.06497237828,172.3368404,-187.6631596,1.138974244,-0.06439211946,0.008663999715,43.95076697,43.94411409,0.7646916609,-1.369273457e-06,8.006872222e-07,0.01740145812,3.247491033e-08,
160000,-26.95642396,0.04489301796,-12.5328196,-12.5328196,1.094006261,0.04382330121,-0.009741731501,54.58272449,54.57232563,-1.065405087,9.336527549e-07,-1.059778037e-06,0.01952280894,-1.261077024e-06,-14.32507647,0.1921968106,102.9634165,-977.0365835,1.475850586,-0.04311529361,0.1872983862,46.00139763,42.87241528,16.67586854,-5.965017008e-08,1.658779317e-05,0.3889649889,1.462614189e-05,-14.30827648,0.1925689117,-72.26433456,-1152.264335,1.476991571,0.05866150001,-0.1834165046,56.01599351,52.346125,-19.94178344,4.988111507e-08,-1.98364588e-05,0.3809600699,1.459953791e-05,-26.72304672,0.04611557883,-179.3646788,-179.3646788,1.096690076,-0.04611274382,-0.000511339647,45.59199211,45.59196817,-0.04672533008,2.128863279e-05,-4.647854531e-08,0.001024858807,-1.028183166e-06,
168000,-25.96489571,0.05032168958,4.690126669,4.690126669,1.105976285,0.05015318699,0.004114641753,55.28003991,55.27815868,0.4560544937,-2.077275556e-06,4.32043613e-07,0.008250175197,-8.266721941e-07,-14.46671041,0.1890882226,59.65691114,-1020.343089,1.466359542,0.09552298157,0.1631861389,60.25644974,57.07565192,19.31863591,-4.903818552e-08,1.830152618e-05,0.338474205,1.464794901e-05,-14.9651611,0.178542637,-114.3252725,-1194.325272,1.434697271,-0.07354462734,-0.1626919206,43.31505752,41.05809366,-13.79953452,6.865092807e-08,-1.307300078e-05,0.3360977895,1.459008179e-05,-25.37559781,0.05385426578,-163.5638662,-163.5638662,1.113839261,-0.0516535502,-0.01523787041,45.08943628,45.06839016,-1.377487681,6.877381664e-07,-1.304964128e-06,0.03056438617,-4.280406098e-07,
176000,-24.33952232,0.0606769698,-1.637446545,-1.637446545,1.129192978,0.06065219254,-0.001733840978,56.45682007,56.45647811,-0.1964965508,4.602062712e-06,-1.776897577e-07,0.00348049608,3.461380316e-07,-14.73111792,0.1834189081,17.32383642,-1062.676164,1.449236236,0.1750984765,0.05461702459,71.1477057,70.69747651,7.991423043,-1.131574996e-07,7.226559543e-06,0.1130368924,1.467170174e-05,-15.21428246,0.173494566,-156.6643883,-1236.664388,1.419826801,-0.1593027723,-0.06872402189,36.31593628,35.95667629,-5.095552813,1.77466407e-07,-4.607854648e-06,0.1417136771,1.456276349e-05,-23.78490341,0.06467773901,-172.0751695,-172.0751695,1.138300438,-0.06406005401,-0.008917365304,43.98010976,43.97305803,-0.7875420979,1.14824268e-06,-7.1216601e-07,0.01790965044,9.069604977e-07,
184000,-25.22067687,0.0548234241,-13.12919909,-13.12919909,1.116006735,0.05339035814,-0.01245301118,55.63923983,55.62188696,-1.389496241,6.225079935e-07,-1.20187606e-06,0.02498110576,-2.91415472e-07,-15.00947639,0.1776340347,-24.77338721,-1104.773387,1.432007262,0.1612867667,-0.0744340592,69.10073639,68.2985216,-10.49874833,8.238815613e-08,-9.081128769e-06,0.1537185299,1.434474274e-05,-15.46348451,0.1685876568,161.3170662,-1278.682934,1.405545234,-0.159704054,0.05400382551,36.26433939,36.04231504,4.006724088,-2.158802298e-07,3.465706219e-06,0.1111672234,1.434469029e-05,-24.82106844,0.05740458451,174.8558705,-185.1441295,1.121801111,-0.05717337624,0.005146976956,44.59199974,44.58962168,0.4605210593,-1.878247475e-06,3.983380597e-07,0.01032798759,3.2146699e-07,
192000,-27.71383653,0.04114415747,-8.607544375,-8.607544375,1.085819277,0.04068073776,-0.006157862373,54.24041597,54.23628896,-0.6690918727,1.238891143e-06,-5.546316611e-07,0.01233660867,-1.396498726e-06,-15.27237,0.1723381792,-66.09393936,-1146.093939,1.416445884,0.06983802948,-0.1575534755,57.31208823,54.50971703,-17.7021526,4.682662126e-08,-1.467388068e-05,0.324752238,1.429789865e-05,-15.71311547,0.1638114395,120.2107018,-1319.789298,1.391805024,-0.08242686423,0.1415627061,42.52432678,40.83140389,11.8791761,-6.978025988e-08,9.847029145e-06,0.2909323454,1.426483559e-05,-27.65466262,0.04142541512,178.3652217,-181.6347783,1.086431282,-0.04140855426,0.001181800516,46.02379888,46.02366988,0.1089685908,-7.607072727e-06,9.032755141e-08,0.002367664098,-1.231912825e-06,
