Frequency,S11_Magnitude,S11_Magnitude (linear),S11_Phase,S11_Unwrapped Phase,S11_VSWR,S11_Real,S11_Imaginary,S11_Impedance (absolute),S11_Resistance,S11_Reactance,S11_Capacitance,S11_Inductance,S11_Quality Factor,S11_Group delay,S12_Magnitude,S12_Magnitude (linear),S12_Phase,S12_Unwrapped Phase,S12_VSWR,S12_Real,S12_Imaginary,S12_Impedance (absolute),S12_Resistance,S12_Reactance,S12_Capacitance,S12_Inductance,S12_Quality Factor,S12_Group delay,S21_Magnitude,S21_Magnitude (linear),S21_Phase,S21_Unwrapped Phase,S21_VSWR,S21_Real,S21_Imaginary,S21_Impedance (absolute),S21_Resistance,S21_Reactance,S21_Capacitance,S21_Inductance,S21_Quality Factor,S21_Group delay,S22_Magnitude,S22_Magnitude (linear),S22_Phase,S22_Unwrapped Phase,S22_VSWR,S22_Real,S22_Imaginary,S22_Impedance (absolute),S22_Resistance,S22_Reactance,S22_Capacitance,S22_Inductance,S22_Quality Factor,S22_Group delay,
0,-13.12934179,0.2205631271,-136.0952612,-136.0952612,1.565955075,-0.1589143566,-0.1529520196,36.56570067,34.81039351,-11.19316617,inf,-inf,0.3215466716,1.293335423e-05,-13.3126399,0.2159573577,-135.1189404,-135.1189404,1.550881664,-0.1530215831,-0.152387583,36.99666406,35.23974234,-11.26559858,inf,-inf,0.3196844765,4.197085234e-06,-16.41164811,0.1511532865,-162.2163497,-162.2163497,1.356138002,-0.1439306664,-0.0461657803,37.44177681,37.27573953,-3.522200021,inf,-inf,0.09449041292,1.404377674e-05,-16.55017801,0.1487616887,-161.4455526,-161.4455526,1.349518312,-0.1410293086,-0.04733681605,37.6648821,37.48958997,-3.629598815,inf,-inf,0.096816178,-2.143387085e-06,
8000,-18.88524959,0.1136939933,-115.4961338,-115.4961338,1.256556973,-0.04893960124,-0.1026218278,45.38085961,44.43053497,-9.238505332,2.153418456e-06,-0.0001837942238,0.2079314448,1.293335423e-05,-37.21441483,0.01378095322,23.21468159,23.21468159,1.027947043,0.01266516959,0.005432140557,51.28272503,51.27969763,0.5572228753,-3.570271209e-05,1.108559688e-05,0.01086634479,4.197085234e-06,-25.81334114,0.05120742567,-157.9132048,-157.9132048,1.107942299,-0.0474495848,-0.01925454091,45.47159509,45.43773938,-1.754365922,1.133991925e-05,-3.490200107e-05,0.03861032583,1.404377674e-05,-25.76387023,0.05149991221,59.9106953,59.9106953,1.108592319,0.02581944145,0.04456004265,52.64498071,52.43605416,4.685532782,-4.245913712e-06,9.321571291e-05,0.08935708182,-2.143387085e-06,
16000,-13.91112253,0.2015783442,155.1357916,-204.8642084,1.504942076,-0.1828934126,0.08475746844,34.63498855,34.10665822,6.02646642,-1.650583153e-06,5.994637e-05,0.1766947199,1.293335423e-05,-36.04592242,0.01576535952,66.85858054,66.85858054,1.032035775,0.006195817166,0.01449684139,50.62331265,50.60203766,1.467504171,-6.778300285e-06,1.459753393e-05,0.02900089086,4.197085234e-06,-37.10111975,0.01396188359,-133.5844697,-133.5844697,1.028319156,-0.00962564686,-0.01011341267,49.04670887,49.03667493,-0.9920496433,1.002690139e-05,-9.868100282e-06,0.020230769,1.404377674e-05,-14.77209249,0.1825556906,-27.77070623,-27.77070623,1.446649854,0.1615288003,-0.08505896108,69.09552779,68.04981265,-11.97559847,8.306210303e-07,-0.0001191234809,0.175982828,-2.143387085e-06,
24000,-7.707775532,0.4117287781,124.9035397,-235.0964603,2.39979235,-0.2355897829,0.3376655756,32.62039171,25.30868947,20.58057806,-3.222191303e-07,0.0001364791971,0.81318229,1.471443668e-05,-20.05707104,0.09934509921,-67.98990138,-67.98990138,1.220606359,0.03723156358,-0.09210461123,53.83331284,52.92515821,-9.846481589,6.734848283e-07,-6.529650904e-05,0.1860453879,2.288714456e-05,-21.866487,0.08066323771,119.7325461,-240.2674539,1.175481371,-0.0400050943,0.07004391727,46.17146481,45.71919601,6.446648659,-1.02866719e-06,4.275066669e-05,0.1410052937,2.212444976e-05,-6.95653642,0.4489243671,-48.42167224,-48.42167224,2.629265895,0.2979256525,-0.3358174995,86.13273383,65.91472089,-55.44454353,1.196052044e-07,-0.0003676780487,0.8411557051,1.290186964e-05,
32000,-6.92674264,0.4504668825,97.46460104,-262.535399,2.639453086,-0.05852178546,0.4466493176,45.35020445,30.19323246,33.8379928,-1.469824762e-07,0.0001682963693,1.120714479,9.730920761e-06,-20.72247487,0.09201873456,-149.9546763,-149.9546763,1.202688619,-0.07965414118,-0.04607239198,42.6368226,42.45389449,-3.945311655,1.260633482e-06,-1.962237037e-05,0.09293167807,2.966439254e-05,-20.93374845,0.08980749393,36.73038973,-323.2696103,1.197337362,0.07197698392,0.05370940097,57.73178958,57.3962219,6.215564318,-8.001834938e-07,3.091368079e-05,0.1082922205,2.84019279e-05,-6.448112761,0.4759862003,-76.41459484,-76.41459484,2.816693379,0.11180655,-0.4626685188,60.12301698,38.55811954,-46.13077702,1.078150487e-07,-0.0002294356622,1.196395923,8.027003171e-06,
40000,-6.056208213,0.4979544174,61.45157326,-298.5484267,2.983702017,0.2379730989,0.4374098833,74.71615332,48.70656186,56.65840095,-7.022565957e-08,0.0002254366145,1.163260119,7.266103473e-06,-13.38764071,0.2141006395,162.0464283,-197.9535717,1.544855105,-0.2036753532,0.0659957143,33.14250522,32.82987957,4.541438065,-8.761263547e-07,1.806980792e-05,0.1383324619,2.529379438e-05,-13.36925808,0.2145542373,-21.66271105,-381.6627111,1.546324769,0.1994009177,-0.07920097721,74.70493626,73.6959037,-12.23688194,3.251542017e-07,-4.868900621e-05,0.1660456189,2.563327794e-05,-6.237360372,0.4876766717,-101.5542832,-101.5542832,2.903784758,-0.09767980603,-0.4777940892,42.64321687,26.59007001,-33.33784819,1.193500419e-07,-0.0001326470833,1.253770606,6.625758875e-06,
48000,-13.68919757,0.2067950418,46.73651592,-313.2634841,1.521416412,0.1417278892,0.1505901549,66.07979397,63.03339966,19.83254139,-1.671862378e-07,6.575931241e-05,0.3146354392,6.585068497e-06,-10.54240994,0.2970841644,64.67316311,-295.3268369,1.845290857,0.1270870446,0.2685291117,63.4324077,54.65516679,32.19445742,-1.029906464e-07,0.0001067480633,0.5890469156,2.417691332e-05,-10.6500339,0.2934258053,-111.8746029,-471.8746029,1.830559076,-0.1093235511,-0.2722995857,40.76896406,35.02219716,-20.86993379,1.588758266e-07,-6.919902343e-05,0.5959058963,2.412876965e-05,-13.22410245,0.2181699226,-116.7932464,-116.7932464,1.558100613,-0.09834496364,-0.1947469724,41.34765576,38.27095706,-15.65127734,2.118503116e-07,-5.189537821e-05,0.4089596535,6.398323658e-06,
56000,-10.58313555,0.2956944835,45.6356923,-314.3643077,1.83967675,0.2067549424,0.2113944686,74.61850021,67.70518295,31.36763899,-9.060460546e-08,8.914847855e-05,0.4632974556,5.517466654e-06,-11.06999884,0.27957611,0.4655398393,-359.5344602,1.776143362,0.2795668814,0.002271587651,88.80508849,88.80401002,0.4376609944,-6.493730516e-06,1.243855547e-06,0.004928392246,2.363672971e-05,-11.15563495,0.2768332508,-175.0841599,-535.0841599,1.765613881,-0.2758149594,-0.02372249791,28.39158816,28.35418259,-1.456917337,1.950730136e-06,-4.14063564e-06,0.05138280154,2.31191239e-05,-10.29309415,0.3057350941,-123.6432742,-123.6432742,1.880744775,-0.1693835031,-0.2545253949,36.29536203,31.64712089,-17.77112951,1.599252627e-07,-5.050648404e-05,0.5615401659,5.698252415e-06,
64000,-11.48727823,0.2664624939,10.54755517,-349.4524448,1.726513618,0.2619601609,0.04877637482,85.37163901,84.90480799,8.915734803,-2.789221574e-07,2.217161352e-05,0.1050085974,4.040698606e-06,-10.1551911,0.3106278888,-57.31178383,-417.3117838,1.901190761,0.1677599461,-0.2614312258,68.58975582,59.36571483,-34.35500701,7.238525625e-08,-8.543389352e-05,0.5787011427,2.085179551e-05,-10.29855007,0.3055431112,125.9868312,-594.0131688,1.879948392,-0.1795369161,0.2472308406,35.55117846,31.21125087,17.0218715,-1.46094158e-07,4.232992173e-05,0.5453761394,2.061440073e-05,-11.71459979,0.2595792721,-157.50596,-157.50596,1.701166951,-0.2398303084,-0.09931173994,30.81800163,30.14199331,-6.419459779,3.873839967e-07,-1.596388681e-05,0.2129739634,4.129855183e-06,
72000,-16.79902675,0.144560174,0.09453382153,-359.9054662,1.337978592,0.1445599773,0.0002385135451,66.89890157,66.89889363,0.03259371645,-6.781937016e-05,7.204793176e-08,0.0004872086021,3.362076339e-06,-10.22447496,0.3081599906,-117.3300061,-477.3300061,1.890841774,-0.1414808327,-0.2737622213,38.38270628,32.84060874,-19.86772656,1.112601039e-07,-4.391731792e-05,0.6049743694,1.948313326e-05,-10.4609372,0.299883893,66.49118777,-653.5088122,1.856669029,0.1196207192,0.2749931505,62.49930325,53.49015598,32.32593571,-6.838117047e-08,7.145600637e-05,0.6043342952,1.935915092e-05,-17.13886577,0.1390134148,-163.2527612,-163.2527612,1.322916564,-0.1331171953,-0.04005673232,38.26903539,38.14197477,-3.115899665,7.094212132e-07,-6.887650471e-06,0.08169214321,3.286267954e-06,
80000,-16.95561081,0.1419774786,11.32103524,-348.6789648,1.330941147,0.1392149737,0.02787105196,66.15815505,66.05135903,3.757585643,-5.294454944e-07,7.475479116e-06,0.05688884678,1.770828356e-06,-10.42804512,0.3010216584,-176.6949193,-536.6949193,1.861318987,-0.3005209715,-0.01735466776,26.89814362,26.87857256,-1.02589817,1.939214677e-06,-2.040959561e-06,0.03816788141,1.829538644e-05,-11.23547709,0.2743002135,10.49035278,-709.5096472,1.755960574,0.2697154439,0.04994183074,86.79741674,86.29550375,9.320814636,-2.134402267e-07,1.854317154e-05,0.108010432,1.820246082e-05,-16.19432721,0.1549828487,-156.4584176,-156.4584176,1.366815865,-0.1420836946,-0.06190240012,37.60170953,37.30278097,-4.73192263,4.204288498e-07,-9.41386096e-06,0.1268517389,1.818347662e-06,
88000,-16.64847927,0.1470875914,-3.164947013,-363.164947,1.344906675,0.1468632429,-0.008120802775,67.21314195,67.20388239,-1.115635454,1.621119957e-06,-2.017714741e-06,0.01660075898,1.050519646e-06,-10.96819858,0.2828720715,139.5999886,-580.4000114,1.788902678,-0.2154178822,0.1833350618,32.77493485,30.44583996,12.13454504,-1.49043816e-07,2.194628211e-05,0.3985616774,1.701217296e-05,-11.33010426,0.2713281084,-36.10769387,-756.1076939,1.744719569,0.2192088976,-0.1598949706,77.14282503,72.92029159,-25.17233656,7.184787532e-08,-4.552615674e-05,0.3452034545,1.704628045e-05,-16.59919467,0.1479245533,-171.489304,-171.489304,1.347209989,-0.1462956455,-0.02189195214,37.24297954,37.20572248,-1.665454728,1.085936993e-06,-3.012106278e-06,0.04476340243,1.02345627e-06,
96000,-19.57318299,0.1050366472,-13.32263274,-373.3226327,1.234728376,0.1022098929,-0.02420402949,61.37710672,61.3037114,-3.000699486,5.524925099e-07,-4.974751624e-06,0.04894808842,1.249327014e-06,-11.35896426,0.2704280814,90.76965404,-629.230346,1.741333581,-0.003632550394,0.270403683,49.66263803,42.89483988,25.02819067,-6.623986576e-08,4.149333607e-05,0.5834778903,1.61783318e-05,-11.75920064,0.2582497845,-84.82916386,-804.8291639,1.696325472,0.02327493173,-0.2571988117,52.23172981,45.74392848,-25.21203298,6.575685475e-08,-4.179812161e-05,0.5511558325,1.632898784e-05,-19.94426996,0.1006436786,-179.5718949,-179.5718949,1.22381269,-0.1006408692,-0.00075198681,40.8561621,40.85611494,-0.062075289,2.670731006e-05,-1.029123863e-07,0.001519363481,1.04665764e-06,
104000,-20.9525594,0.08961320914,-2.711115086,-362.7111151,1.19686843,0.08951290666,-0.004238725341,59.8311252,59.82894042,-0.5113029238,2.9930124e-06,-7.824652668e-07,0.008546080212,8.20632656e-07,-11.78404275,0.2575122318,43.96241654,-676.0375835,1.693647068,0.1853560967,0.1787614805,71.86579422,67.11378469,25.69887708,-5.95487494e-08,3.932791653e-05,0.382915033,1.618466562e-05,-12.23353786,0.2445249097,-131.3154923,-851.3154923,1.64734076,-0.1614365142,-0.1836591499,36.50240196,33.99982121,-13.28297808,1.152103077e-07,-2.032741942e-05,0.3906778802,1.606723503e-05,-20.73883806,0.09184554528,-166.4337928,-166.4337928,1.202268556,-0.08928301024,-0.02154410061,41.80702568,41.76760904,-1.81500178,8.431594989e-07,-2.777562548e-06,0.04345476846,9.532916887e-07,
112000,-20.1537007,0.09824601974,-6.896189721,-366.8961897,1.217899831,0.09753524212,-0.01179647999,60.80596883,60.78872154,-1.448163959,9.812606294e-07,-2.05787904e-06,0.02382290533,5.281605226e-07,-12.15528693,0.2467377803,-1.844111083,-721.8441111,1.655117896,0.2466099903,-0.007940084305,82.73046046,82.71863522,-1.398740545,1.015932714e-06,-1.98764707e-06,0.01690961826,1.580657584e-05,-12.6044549,0.2343026795,-177.0431729,-897.0431729,1.61199817,-0.2339907492,-0.0120861441,31.04025901,31.03011148,-0.7936377193,1.790522606e-06,-1.127780054e-06,0.02557637344,1.570344243e-05,-19.71955203,0.1032814671,-174.0580432,-174.0580432,1.23035426,-0.1027265644,-0.01069179191,40.68528808,40.67578791,-0.8791723051,1.616322841e-06,-1.249326948e-06,0.02161414321,8.522302129e-07,
120000,-21.71968382,0.08203814069,-18.19527877,-378.1952788,1.178739759,0.07793605195,-0.02561695406,58.44629991,58.36870343,-3.010719705,4.40522972e-07,-3.993091028e-06,0.05158106191,1.334701955e-07,-12.63609041,0.2334508608,-47.15231373,-767.1523137,1.609095618,0.158758664,-0.1711577957,68.22149919,64.14679909,-23.22414946,5.710827837e-08,-3.080198488e-05,0.3620468954,1.552909316e-05,-13.15630466,0.2198795132,138.6311262,-941.3688738,1.563706548,-0.1650130266,0.1453193083,36.09490331,34.52087942,10.54281407,-1.258004915e-07,1.398284145e-05,0.305403983,1.544636159e-05,-21.51113486,0.08403172081,172.0263699,-187.9736301,1.183481727,-0.08321930356,0.01165665545,42.31837977,42.3067202,0.9933239093,-1.335205143e-06,1.317436752e-06,0.02347910461,3.549608075e-07,
128000,-24.27078669,0.0611590408,-13.18606242,-373.1860624,1.130286265,0.05954654733,-0.0139512355,56.3303699,56.30828998,-1.577039231,7.88438213e-07,-1.960887414e-06,0.02800723004,-3.586506548e-07,-12.95736943,0.2249735848,-91.28767285,-811.2876729,1.580557205,-0.005055660183,-0.2249167716,49.52108305,44.75181562,-21.20407189,5.86395858e-08,-2.636510043e-05,0.4738147848,1.530077477e-05,-13.44238089,0.2127555782,94.0679559,-985.9320441,1.540507045,-0.01509279338,0.2122195647,48.57633927,44.38767957,19.7330849,-6.30108267e-08,2.453607816e-05,0.4445622094,1.523131627e-05,-24.49214997,0.05962007274,178.9259087,-181.0740913,1.126799969,-0.05960959695,0.00111759805,44.37438783,44.37427619,0.09953902583,-1.249156281e-05,1.237666249e-07,0.002243169565,-3.800273427e-07,
136000,-23.51920213,0.06668680237,-1.488149549,-361.4881495,1.142903374,0.06666431009,-0.001731868878,57.14256356,57.14221771,-0.1988097898,5.88631443e-06,-2.326585352e-07,0.003479210254,3.536942967e-08,-13.29135182,0.2164872925,-134.934744,-854.934744,1.552606972,-0.1529051861,-0.1532538804,37.0082506,35.23136594,-11.32967196,1.032913343e-07,-1.325862718e-05,0.3215791287,1.510253531e-05,-13.77621312,0.2047337042,50.70133634,-1029.298664,1.514880878,0.129670717,0.158434197,64.47461594,61.21360744,20.24525537,-5.780400954e-08,2.369215049e-05,0.3307312903,1.506814258e-05,-23.36878016,0.06785174041,-168.0372044,-168.0372044,1.145581435,-0.06637816343,-0.01406407112,43.77652306,43.75905513,-1.236553846,9.463857462e-07,-1.447085713e-06,0.02825823918,7.258443683e-08,
144000,-22.64213013,0.07377232889,-10.0851849,-370.0851849,1.159296318,0.07263243516,-0.01291843149,57.83069198,57.81118778,-1.50183325,7.359290125e-07,-1.659890176e-06,0.02597824586,4.116978636e-07,-13.59234832,0.2091137471,-178.2840526,-898.2840526,1.528808653,-0.209019973,-0.006261797274,32.7122058,32.70940088,-0.4283713359,2.580104147e-06,-4.734542749e-07,0.01309627582,1.481618052e-05,-14.06992671,0.1979263722,7.590767814,-1072.409232,1.493536666,0.1961919114,0.02614541506,74.38623667,74.27632052,4.042328049,-2.734173592e-07,4.467753407e-06,0.05442283652,1.478025842e-05,-22.36032097,0.07620508492,-178.5538623,-178.5538623,1.16498269,-0.07618081295,-0.001923201733,42.9212128,42.92089158,-0.1660553855,6.655867602e-06,-1.83531496e-07,0.003868870831,6.699615789e-07,
152000,-24.33300251,0.06072253228,-20.25503732,-380.2550373,1.129296261,0.05696750569,-0.02102211271,56.03804591,55.98821547,-2.362692935,4.431688852e-07,-2.473909602e-06,0.04219982571,-3.73111291e-07,-13.93366397,0.2010558905,138.8693677,-941.1306323,1.503304019,-0.1514376751,0.1322501481,37.04920283,35.7171656,9.84517711,-1.063537997e-07,1.030860923e-05,0.2756427321,1.471521536e-05,-14.43016927,0.1898853836,-35.11153283,-1115.111533,1.468786465,0.1553326924,-0.1092163614,68.12756282,66.4430247,-15.0562042,6.954422112e-08,-1.576492975e-05,0.2266032329,1.468849838e-05,-24.15463491,0.06198238086,169.7210395,-190.2789605,1.132156112,-0.06098760265,0.01106019257,44.25247332,44.24156706,0.982414759,-1.065814601e-06,1.028658981e-06,0.02220569533,-1.134395525e-07,
160000,-27.07566124,0.04428095088,-9.731067776,-369.7310678,1.092665205,0.04364383493,-0.007484536252,54.56328671,54.55715062,-0.8182744179,1.215629345e-06,-8.139526151e-07,0.01499848157,-1.256308549e-06,-14.59301751,0.1863584649,98.45727175,-981.5427282,1.458084935,-0.02740807729,0.1843319689,47.41776976,44.29692957,16.9182422,-5.879561143e-08,1.682888671e-05,0.3819281012,1.468836849e-05,-14.65568454,0.185018763,-75.86133078,-1155.861331,1.454044227,0.0451944459,-0.1794140594,54.57869854,51.16147523,-19.00888704,5.232912332e-08,-1.89084896e-05,0.3715468906,1.466742377e-05,-26.86276268,0.04537972566,-179.60066,-179.60066,1.095073878,-0.04537862343,-0.0003162849631,45.6591212,45.65911202,-0.02894218232,3.436915652e-05,-2.878932113e-08,0.0006338752779,-1.050604151e-06,
168000,-25.60220908,0.05246740028,3.707594478,-356.2924055,1.11074532,0.05235758894,0.003392782406,55.52496919,55.52368387,0.3777995728,-2.507548764e-06,3.57908747e-07,0.006804295868,-6.561078143e-07,-14.53581862,0.1875897347,54.79549262,-1025.204507,1.461810351,0.1081448439,0.1532794875,61.81108926,58.90889189,18.71772453,-5.0612501e-08,1.773225228e-05,0.3177402245,1.472030102e-05,-15.03804953,0.1770506491,-119.086991,-1199.086991,1.430283222,-0.0860708676,-0.1547214856,42.24715318,40.24354752,-12.85608164,7.368892625e-08,-1.217921989e-05,0.3194569672,1.468392618e-05,-25.35089522,0.05400764486,-165.880276,-165.880276,1.11418199,-0.05237597095,-0.01317510418,45.02389726,45.00818311,-1.189444405,7.964650115e-07,-1.12682117e-06,0.02642729217,-2.981149201e-07,
176000,-24.31604295,0.0608412114,-3.975657695,-363.9756577,1.129565335,0.06069480289,-0.004218282355,56.46154722,56.45952303,-0.4780941582,1.891446348e-06,-4.323355031e-07,0.008467909974,3.491984961e-07,-14.80247118,0.1819183217,12.24037866,-1067.759621,1.444743664,0.177782722,0.03856915256,71.58203372,71.35531943,5.692621591,-1.588529002e-07,5.147777644e-06,0.07977851738,1.473932748e-05,-15.28132058,0.1721606806,-161.6324054,-1241.632405,1.415927769,-0.1633898488,-0.05424995162,35.99211466,35.76920929,-3.99949807,2.26100734e-07,-3.616703907e-06,0.1118139917,1.467897033e-05,-24.02545007,0.06291113152,-175.6245048,-175.6245048,1.134269296,-0.06272777533,-0.004799653282,44.0976032,44.09555544,-0.4249687003,2.127896593e-06,-3.84294712e-07,0.009637449763,8.774828379e-07,
184000,-25.52089143,0.05296090878,-13.68478983,-373.6847898,1.111845243,0.05145745231,-0.01252950361,55.42399651,55.4065049,-1.392337314,6.212377617e-07,-1.204333511e-06,0.02512949187,-2.17757339e-07,-15.08482227,0.1760998097,-29.9945204,-1109.99452,1.427478502,0.1525153289,-0.08803531915,67.82933419,66.73656365,-12.12640298,7.132968601e-08,-1.04890053e-05,0.1817055346,1.456347589e-05,-15.5444864,0.1670227693,156.3254675,-1283.674533,1.401026014,-0.1529663276,0.06706644524,36.78558275,36.44032348,5.028113209,-1.720272557e-07,4.349179737e-06,0.1379821233,1.449768174e-05,-25.38234845,0.05381242675,172.0258168,-187.9741832,1.113745791,-0.05329209706,0.007465230303,44.94069407,44.93565672,0.6728585009,-1.285519193e-06,5.82004111e-07,0.01497382146,1.303622572e-08,
