Frequency,S11_Magnitude,S11_Magnitude (linear),S11_Phase,S11_Unwrapped Phase,S11_VSWR,S11_Real,S11_Imaginary,S11_Impedance (absolute),S11_Resistance,S11_Reactance,S11_Capacitance,S11_Inductance,S11_Quality Factor,S11_Group delay,S12_Magnitude,S12_Magnitude (linear),S12_Phase,S12_Unwrapped Phase,S12_VSWR,S12_Real,S12_Imaginary,S12_Impedance (absolute),S12_Resistance,S12_Reactance,S12_Capacitance,S12_Inductance,S12_Quality Factor,S12_Group delay,S21_Magnitude,S21_Magnitude (linear),S21_Phase,S21_Unwrapped Phase,S21_VSWR,S21_Real,S21_Imaginary,S21_Impedance (absolute),S21_Resistance,S21_Reactance,S21_Capacitance,S21_Inductance,S21_Quality Factor,S21_Group delay,S22_Magnitude,S22_Magnitude (linear),S22_Phase,S22_Unwrapped Phase,S22_VSWR,S22_Real,S22_Imaginary,S22_Impedance (absolute),S22_Resistance,S22_Reactance,S22_Capacitance,S22_Inductance,S22_Quality Factor,S22_Group delay,
0,-12.95927832,0.2249241479,-133.7225741,-133.7225741,1.580392609,-0.1554601936,-0.1625515318,36.85348227,34.86600353,-11.9390516,inf,-inf,0.3424267307,-2.454245427e-05,-13.21084726,0.2185031171,-132.9662028,-132.9662028,1.55919127,-0.1489244783,-0.1598909377,37.3261626,35.38427641,-11.88256694,inf,-inf,0.3358148913,-9.64468842e-07,-15.05484909,0.1767085428,-169.441897,-169.441897,1.429273355,-0.1737167963,-0.03237875507,35.21304676,35.13463947,-2.348567941,inf,-inf,0.06684479978,-1.800090049e-05,-15.33505793,0.1710988551,-169.3293105,-169.3293105,1.412832956,-0.1681401536,-0.03168133491,35.61888197,35.54324405,-2.320033393,inf,-inf,0.06527354087,-2.908215133e-06,
8000,-23.42540127,0.0674108707,-127.5847477,-127.5847477,1.144567138,-0.04111619768,-0.05341988185,46.06157145,45.79854569,-4.915442679,4.047319679e-06,-9.778962499e-05,0.107327484,-2.454245427e-05,-39.93884652,0.01007065397,-137.8198571,-137.8198571,1.020346208,-0.007462730742,-0.006762079659,49.25928853,49.2547834,-0.6661971023,2.986258544e-05,-1.325357024e-05,0.01352553105,-9.64468842e-07,-38.26357441,0.01221296969,-10.65520475,-10.65520475,1.024727941,0.01200238945,-0.002258157675,51.21481341,51.21429095,-0.2313343934,8.599831438e-05,-4.602251526e-06,0.004516989088,-1.800090049e-05,-30.42033249,0.03012890691,52.75719738,52.75719738,1.062129714,0.01823383342,0.02398496092,51.85616009,51.79649132,2.486931154,-7.999565188e-06,4.947592329e-05,0.04801350615,-2.908215133e-06,
16000,4.948141903,1.76769403,-85.49021515,-85.49021515,nan,0.1389926255,-1.762221108,53.49134668,-27.61731792,-45.8105656,2.171373309e-07,-0.0004556861226,-1.658762293,-2.454245427e-05,-27.77529516,0.04085406183,111.3250726,-248.6749274,1.085188417,-0.0148569433,0.03805687329,48.53814212,48.39768557,3.689887798,-2.695795777e-06,3.670399265e-05,0.07624099694,-9.64468842e-07,-21.43790677,0.08474316139,-42.17353994,-42.17353994,1.185178974,0.06280440501,-0.05689472835,56.6781555,56.30952028,-6.453776895,1.541296531e-06,-6.41969059e-05,0.1146125355,-1.800090049e-05,1.66260634,1.210961447,55.34124339,55.34124339,nan,0.6886587224,0.9960807152,93.93152718,-21.41324334,91.45821345,-1.087620627e-07,0.0009097516723,-4.271105129,-2.908215133e-06,
24000,-7.121133173,0.4404973919,122.7553033,122.7553033,2.574603533,-0.238332134,0.3704534331,32.76371957,24.12045779,22.17351654,-2.990710089e-07,0.0001470426985,0.9192825746,-1.806733311e-05,-21.6982653,0.08224068806,-65.16225783,-65.16225783,1.179220602,0.03454519833,-0.07463350484,53.55757722,52.96283071,-7.959437263,8.331563832e-07,-5.278265769e-05,0.1502834565,2.934156935e-06,-21.8177826,0.0811168113,109.5463002,109.5463002,1.176555219,-0.02713912912,0.07644216602,47.37275165,46.82152937,7.205691237,-9.203080931e-07,4.778422412e-05,0.1538969644,-1.876889346e-08,-6.795812283,0.4573086181,-47.11993459,-47.11993459,2.68533584,0.3111829471,-0.3351064691,88.33664783,67.39226548,-57.11082125,1.16115577e-07,-0.0003787278961,0.8474388098,1.68328301e-05,
32000,-6.861984385,0.4538379207,94.51874189,94.51874189,2.661916628,-0.03575570721,0.452427218,47.11801735,31.07801971,35.41559332,-1.404350882e-07,0.0001761427106,1.139570463,-7.213551664e-06,-20.93241464,0.08982128588,-155.4066511,-155.4066511,1.197370658,-0.08167309642,-0.03738139535,42.45918041,42.33909143,-3.191134266,1.558565562e-06,-1.587139977e-05,0.0753708726,3.509508167e-05,-21.52794237,0.08386927359,29.67031752,29.67031752,1.183094554,0.07287301157,0.04151601181,57.84542675,57.64424375,4.820223929,-1.031817618e-06,2.397382703e-05,0.0836202128,1.148083993e-05,-6.093709687,0.4958091253,-77.5124466,-77.5124466,2.966751682,0.1072075796,-0.4840797699,59.49307389,36.56025212,-46.93371715,1.059705532e-07,-0.0002334291588,1.283736146,1.392969679e-05,
40000,-8.024181703,0.397000373,42.58037057,42.58037057,2.316751637,0.292322864,0.2686198789,87.18913378,73.51171616,46.88254086,-8.486898331e-08,0.000186539703,0.6377560382,7.238020699e-06,-13.37412618,0.2144340218,133.2941449,-226.7058551,1.545935103,-0.1470468391,0.156074267,37.45260284,35.59567947,11.64667603,-3.416316867e-07,4.634065153e-05,0.3271935304,2.707075055e-05,-14.27458697,0.1933172691,-46.30686142,-46.30686142,1.47928947,0.1335427629,-0.1397780276,65.06671628,62.48512777,-18.1462496,2.192669926e-07,-7.220163307e-05,0.2904090981,2.645175303e-05,-7.060195925,0.4435986377,-123.208711,-123.208711,2.594527504,-0.2429547311,-0.3711505759,32.49849359,23.86715985,-22.05698907,1.803906039e-07,-8.7761971e-05,0.9241564229,6.907595414e-06,
48000,-12.12356593,0.2476405178,58.47239518,58.47239518,1.658303706,0.1294935303,0.211085887,64.14008741,58.49612497,26.30882316,-1.260310262e-07,8.723290111e-05,0.4497532645,6.655643838e-06,-11.192205,0.2756701547,46.72769513,-313.2723049,1.761172983,0.1889626529,0.2007165912,72.15909363,66.18302241,28.75312746,-1.153171246e-07,9.533754925e-05,0.4344486911,2.497818974e-05,-11.27482375,0.2730604569,-129.5710541,-129.5710541,1.75126043,-0.173948971,-0.2104846042,35.73689562,32.52949173,-14.79722529,2.240776846e-07,-4.906357394e-05,0.4548864586,2.492990063e-05,-11.55986244,0.2642450606,-107.2020021,-107.2020021,1.718296396,-0.07814821229,-0.252424858,43.15830298,37.93156968,-20.58725669,1.610573002e-07,-6.826174305e-05,0.542747291,6.328926172e-06,
56000,-9.650077611,0.3292275116,36.55097861,36.55097861,1.981636895,0.2644774487,0.1960674209,84.04995906,76.93770025,33.83764026,-8.399086146e-08,9.616835197e-05,0.4398057149,4.21494503e-06,-11.07092334,0.2795463543,-16.04823888,-376.0482389,1.776028703,0.268652234,-0.07727963093,86.413534,85.22399829,-14.28877091,1.989011213e-07,-4.060943786e-05,0.1676613535,2.359467639e-05,-11.16548651,0.2765194436,168.2617424,-191.7382576,1.764414306,-0.2707366441,0.05625541941,28.75159964,28.54058601,3.476986067,-8.173896876e-07,9.881777136e-06,0.1218260223,2.33366815e-05,-9.507294596,0.3346842461,-131.7445308,-131.7445308,2.006091451,-0.2228362677,-0.2497149223,32.70230058,28.5033829,-16.03114552,1.772831861e-07,-4.55613581e-05,0.5624295748,3.885483137e-06,
64000,-12.59330075,0.2346037569,1.692166606,1.692166606,1.61302563,0.2345014478,0.006927751689,80.63178765,80.62312157,1.182137508,-2.103643585e-06,2.93973481e-06,0.01466251226,4.324046492e-06,-10.07925405,0.3133554825,-80.42139147,-440.4213915,1.912715312,0.05214254405,-0.308986753,54.99656525,45.36685683,-31.0881085,7.999187167e-08,-7.730978343e-05,0.6852603569,2.11245006e-05,-10.21862111,0.3083677448,103.3954466,-256.6045534,1.891710132,-0.07143973889,0.2999783821,43.85120772,36.54810815,24.23147146,-1.026267014e-07,6.025872596e-05,0.6630020728,2.096624692e-05,-13.04172428,0.2227992816,-164.3810736,-164.3810736,1.573337817,-0.2145721246,-0.05998602533,32.38820688,32.13317931,-4.056443314,6.13048376e-07,-1.008754695e-05,0.1262384676,4.130451346e-06,
72000,-16.8870537,0.1431025311,10.27527643,10.27527643,1.334001526,0.1408074671,0.02552629242,66.37567859,66.28570757,3.454805369,-6.398291899e-07,7.636796555e-06,0.05211991387,3.207900092e-06,-10.51935671,0.2978737031,-142.8946518,-502.8946518,1.848490377,-0.2375625055,-0.1797019727,31.31958019,29.13543721,-11.49097045,1.923671574e-07,-2.54006215e-05,0.3943984216,2.027065185e-05,-10.73739022,0.2904895334,41.16167469,-318.8383253,1.818844956,0.2186965964,0.1911961499,76.68253335,70.75955188,29.55159452,-7.480088153e-08,6.532336589e-05,0.4176339976,2.018169885e-05,-16.67870846,0.1465765775,-150.5701325,-150.5701325,1.343502589,-0.1276620122,-0.07202155039,38.73174032,38.31879018,-5.640747075,3.918781132e-07,-1.246878861e-05,0.1472057716,2.949689842e-06,
80000,-16.35314146,0.1521748657,9.343976787,9.343976787,1.35897701,0.1501557165,0.02470729751,67.65564067,67.56924289,3.418059424,-5.820369227e-07,6.800013163e-06,0.0505860252,1.641562893e-06,-11.79683993,0.2571331104,165.958093,-554.041907,1.692272368,-0.2494495929,0.06238859728,30.10132585,29.83618673,3.986449498,-4.99049791e-07,7.930789288e-06,0.1336112263,1.915248393e-05,-12.21073281,0.2451677603,-7.934975933,-367.9349759,1.64959536,0.2428203712,-0.03384520634,82.01758884,81.80570917,-5.891589332,3.376740429e-07,-1.172094456e-05,0.07201929293,1.909013706e-05,-15.91537624,0.1600409748,-157.2677007,-157.2677007,1.381068528,-0.1476090553,-0.06184400065,37.18135712,36.8853669,-4.68220311,4.248933124e-07,-9.314947118e-06,0.1269393123,1.317551376e-06,
88000,-17.40327275,0.1348454703,-13.4686878,-13.4686878,1.311725745,0.131136863,-0.03140738815,65.07551069,64.94273467,-4.15491339,4.352867867e-07,-7.514488684e-06,0.06397810951,1.911202559e-06,-11.30015303,0.2722653341,108.8646323,-611.1353677,1.748254403,-0.08803246375,0.2576406363,42.37746102,37.02913616,20.60806342,-8.776074016e-08,3.727130864e-05,0.5565364347,1.822727803e-05,-11.64429607,0.2616888368,-66.68950979,-426.6895098,1.708884952,0.1035538456,-0.2403282097,60.84566269,54.07173011,-27.9005855,6.482225611e-08,-5.046041019e-05,0.5159920987,1.823449171e-05,-17.50581074,0.1332629622,-177.776751,-177.776751,1.307504944,-0.1331626495,-0.005169707245,38.24886681,38.24674792,-0.4025987375,4.492261724e-06,-7.281315813e-07,0.01052635216,1.763876358e-06,
96000,-20.33516004,0.0962148258,-10.07435694,-10.07435694,1.212915256,0.09473134403,-0.01683048312,60.46114238,60.42627639,-2.053012184,8.075275944e-07,-3.403614973e-06,0.03397548727,1.828507371e-06,-11.82124585,0.2564116229,57.90319785,-662.0968021,1.689660115,0.1362446487,0.2172195113,64.94253946,58.88711641,27.38322393,-6.054305346e-08,4.539766091e-05,0.4650121386,1.777299067e-05,-12.23639367,0.244444526,-117.5769348,-477.5769348,1.647059109,-0.113162964,-0.2166731868,40.25038199,36.55478528,-16.84757917,9.840369196e-08,-2.793099483e-05,0.4608857373,1.784089741e-05,-20.16836892,0.09808024771,-169.7505042,-169.7505042,1.217492183,-0.09651510895,-0.01745189777,41.2004809,41.17491805,-1.451120313,1.142471768e-06,-2.405760114e-06,0.03524282214,1.582494925e-06,
104000,-19.87644888,0.1014325996,-7.536873553,-7.536873553,1.225765145,0.1005562883,-0.01330432824,61.177609,61.15551085,-1.644182268,9.307581167e-07,-2.516151301e-06,0.0268852675,7.40409738e-07,-12.28146684,0.2431793301,8.659992157,-711.3400078,1.642633955,0.2404069074,0.03661564529,81.59026021,81.34423457,6.3313555,-2.417074813e-07,9.689101195e-06,0.0778341026,1.705405029e-05,-12.71637898,0.2313028856,-166.5940265,-526.5940265,1.601805006,-0.2250002778,-0.05362741717,31.67793519,31.47648753,-3.566834772,4.290459439e-07,-5.458455626e-06,0.1133174331,1.693078514e-05,-19.16114991,0.1101393489,-169.7285503,-169.7285503,1.247542913,-0.108374257,-0.01963915949,40.2256743,40.19391539,-1.598135899,9.575756308e-07,-2.445684885e-06,0.03976064246,8.487003993e-07,
112000,-20.77254983,0.09148976428,-19.95243647,-19.95243647,1.201406128,0.08599820295,-0.0312199625,59.39887775,59.2814732,-3.732775478,3.806889233e-07,-5.304372043e-06,0.06296698237,1.225447867e-07,-12.73551357,0.2307938977,-39.87065251,-759.8706525,1.600083377,0.1771328413,-0.1479519508,70.95131274,67.72059988,-21.16622619,6.713649684e-08,-3.007776361e-05,0.3125522548,1.667210907e-05,-13.20060418,0.2187609451,145.1083596,-574.8916404,1.560035865,-0.1794354593,0.1251369932,34.99210516,33.84251053,8.895611526,-1.597446419e-07,1.264089773e-05,0.2628531804,1.655883978e-05,-20.18158463,0.09793113062,175.9202721,-184.0797279,1.217125619,-0.09768297483,0.00696726434,41.10138211,41.09731471,0.5782171053,-2.457599861e-06,8.216617008e-07,0.01406946194,4.443228749e-07,
120000,-23.73043024,0.06508463714,-19.19154826,-19.19154826,1.139231078,0.06146755005,-0.02139509948,56.54612119,56.493984,-2.42767246,5.463221312e-07,-3.219800602e-06,0.04297222976,-1.230929395e-07,-13.27663026,0.2168545242,-87.82676672,-807.8267667,1.553803938,0.008223336492,-0.2166985496,50.79166612,46.2348796,-21.02686986,6.307601661e-08,-2.78877523e-05,0.4547837053,1.637348287e-05,-13.84722048,0.2030668237,98.16453696,-621.835463,1.509620705,-0.02883879645,0.2010086036,47.3029594,43.62325453,18.29157271,-7.250831917e-08,2.425995179e-05,0.4193078419,1.628065735e-05,-23.15642519,0.06953104246,177.1665752,-182.8334248,1.149453761,-0.06944603866,0.003437088989,43.5064262,43.50538829,0.3005166496,-4.413370088e-06,3.985725856e-07,0.006907573095,8.503802717e-08,
128000,-23.59394808,0.06611539486,-6.011664513,-6.011664513,1.141592215,0.06575179948,-0.00692432679,57.03757423,57.03205741,-0.7932848489,1.567404186e-06,-9.863687889e-07,0.01390945522,-7.88460734e-08,-13.67788053,0.2070646551,-133.9317933,-853.9317933,1.522273743,-0.1436617795,-0.1491209728,37.68286225,35.97672194,-11.21042308,1.109144574e-07,-1.393901756e-05,0.3116021271,1.611109508e-05,-14.15272174,0.1960486756,51.59649066,-668.4035093,1.4877128,0.12178461,0.1536346054,63.49913698,60.48598646,19.32836879,-6.433020843e-08,2.403285496e-05,0.3195511874,1.604679844e-05,-22.7706258,0.07268900267,-169.5963163,-169.5963163,1.156773732,-0.07149398548,-0.01312635324,43.32871367,43.31363134,-1.143140049,1.087703991e-06,-1.421378042e-06,0.02639215447,1.028441424e-07,
136000,-22.66122982,0.07361028668,-12.7347212,-12.7347212,1.158918618,0.07179955741,-0.01622645559,57.7331455,57.70243583,-1.882814004,6.215467551e-07,-2.203376144e-06,0.03262971444,6.502328295e-08,-14.0820068,0.197651293,179.9124092,-900.0875908,1.492681776,-0.197651062,0.0003021589998,33.49677526,33.49676864,0.02106565168,-5.555284748e-05,2.465222495e-08,0.0006288860846,1.587125198e-05,-14.55773749,0.1871169482,5.720442156,-714.2795578,1.46037852,0.1861851191,0.01865083732,72.86794221,72.8135629,2.81461526,-4.157786505e-07,3.293823026e-06,0.03865509595,1.584678065e-05,-21.89116219,0.08043441184,-178.1948037,-178.1948037,1.174940021,-0.08039449284,-0.00253379713,42.55882805,42.55827445,-0.2170724598,5.391088927e-06,-2.540305514e-07,0.005100593542,2.508078903e-07,
144000,-24.26100244,0.0612279724,-22.04546654,-22.04546654,1.130442686,0.05675136861,-0.02298144393,56.01320856,55.95369105,-2.581470811,4.281445506e-07,-2.853151667e-06,0.04613584489,-1.734932607e-07,-14.50125599,0.1883376732,134.2599904,-945.7400096,1.464078884,-0.1314437527,0.1348837241,38.56962466,37.14416542,10.38878825,-1.063880246e-07,1.148213197e-05,0.2796882939,1.572545724e-05,-14.99696973,0.1778899911,-39.7434905,-759.7434905,1.432764446,0.1367821891,-0.113734259,65.60733814,63.86888916,-15.00292692,7.366846927e-08,-1.658187486e-05,0.2349019548,1.575643625e-05,-23.62105367,0.06590939367,172.1200059,-187.8799941,1.141119915,-0.06528703724,0.009036091098,43.87188524,43.86466001,0.7961888103,-1.388166533e-06,8.799818388e-07,0.01815103115,4.968561289e-09,
152000,-26.37984765,0.04797418632,-12.11098252,-12.11098252,1.100783373,0.04690642673,-0.01006527125,54.92096806,54.90979202,-1.107913791,9.450843581e-07,-1.160065502e-06,0.02017698028,-7.446170203e-07,-14.90034342,0.1798799792,89.53131285,-990.4686871,1.43866745,0.001471425904,0.179873961,50.14273448,46.99971223,17.47343331,-5.992365525e-08,1.829594266e-05,0.3717774532,1.560388975e-05,-15.40714403,0.1696847443,-84.35911384,-804.3591138,1.408723658,0.01667883398,-0.1688630479,51.64836086,48.78303701,-16.96374011,6.172412375e-08,-1.776225719e-05,0.3477384999,1.561065389e-05,-25.66678377,0.05207878113,-177.3032195,-177.3032195,1.109879978,-0.05202110494,-0.002450323402,45.05515555,45.05461158,-0.2213972116,4.729382029e-06,-2.318188199e-07,0.004913974483,-5.500064078e-07,
160000,-24.92212205,0.05674059657,-3.825230901,-3.825230901,1.120307513,0.05661418913,-0.003785351766,56.00107886,55.99946368,-0.4253246682,2.338727256e-06,-4.23078271e-07,0.007595156101,-3.619041005e-07,-15.09232663,0.1759477302,44.81217062,-1035.187829,1.427030509,0.1248210224,0.1240053068,64.01230371,62.01350947,15.87134742,-6.267384665e-08,1.578752122e-05,0.2559337079,1.552090499e-05,-15.26085898,0.1725667226,-130.2564134,-850.2564134,1.417113325,-0.1115142396,-0.1316960444,40.12337798,38.72185194,-10.51207132,9.462629812e-08,-1.04565507e-05,0.2714764607,1.549225592e-05,-24.07805236,0.06253128909,-170.1136556,-170.1136556,1.133404536,-0.06160271664,-0.01073626645,44.19782917,44.18756346,-0.9525435092,1.044276072e-06,-9.4751255e-07,0.02155682356,-3.068221807e-08,
168000,-24.41262298,0.06016845376,-11.12235393,-11.12235393,1.128040932,0.05903833839,-0.01160678372,56.27335416,56.25808799,-1.310695957,7.227845992e-07,-1.241688931e-06,0.02329791153,4.782454093e-08,-15.60752475,0.1658149799,-0.05969338615,-1080.059693,1.397549646,0.1658148899,-0.0001727536638,69.87746866,69.87746425,-0.0248257502,3.816000903e-05,-2.351869559e-08,0.0003552754878,1.545158616e-05,-16.09095384,0.1568383656,-173.8165124,-893.8165124,1.372024436,-0.1559258875,-0.01689350584,36.51414913,36.49226279,-1.264058157,7.494519511e-07,-1.197506571e-06,0.03463907305,1.537272183e-05,-23.60095074,0.06606211341,-179.1578807,-179.1578807,1.141470036,-0.06605497804,-0.0009709297898,43.80379805,43.80371473,-0.08543351226,1.108874991e-05,-8.09355106e-08,0.001950371396,4.906299346e-07,
176000,-25.98593302,0.05019995744,-17.32836179,-17.32836179,1.10570637,0.04792155606,-0.01495192934,55.03217781,55.00746398,-1.649091198,5.483562404e-07,-1.491255771e-06,0.02997940786,-4.340821716e-07,-15.96503821,0.1591285441,-44.44553825,-1124.445538,1.378484828,0.1136044721,-0.1114267359,62.63715725,61.06141413,-13.96127403,6.477126998e-08,-1.26250328e-05,0.2286431493,1.53648501e-05,-16.43491257,0.1507489762,141.8967236,-938.1032764,1.355016296,-0.1186243296,0.09302431001,39.47806447,38.78154683,7.383034605,-1.224820819e-07,6.676400297e-06,0.1903749388,1.522539994e-05,-25.26654219,0.05453469527,173.4891604,-186.5108396,1.115360543,-0.05418296946,0.006183753605,44.86038004,44.85692912,0.5564232153,-1.625182818e-06,5.03167643e-07,0.0124043983,-1.186743583e-07,
184000,-27.2803088,0.04324984544,-6.048090463,-6.048090463,1.090409905,0.0430091086,-0.004556940614,54.49410481,54.49183324,-0.4975628117,1.738418741e-06,-4.303781575e-07,0.009130961139,-8.300232894e-07,-16.3162488,0.1528225916,-88.34267344,-1168.342673,1.360780611,0.004419900116,-0.1527586625,50.43378465,48.13360616,-15.05731024,5.7445354e-08,-1.302415953e-05,0.3128232317,1.556959778e-05,-16.76472214,0.1451322383,98.19712331,-981.8028767,1.339543131,-0.02069284411,0.1436494789,48.01285746,46.06981525,13.52059925,-6.397442163e-08,1.169494676e-05,0.2934806482,1.536748551e-05,-26.76364174,0.04590055248,-176.1696986,-176.1696986,1.096217543,-0.04579802346,-0.003066229786,45.62079772,45.61993629,-0.2803530798,3.085297002e-06,-2.42497709e-07,0.006145407088,-7.274472421e-07,
