Frequency,S11_Magnitude,S11_Magnitude (linear),S11_Phase,S11_Unwrapped Phase,S11_VSWR,S11_Real,S11_Imaginary,S11_Impedance (absolute),S11_Resistance,S11_Reactance,S11_Capacitance,S11_Inductance,S11_Quality Factor,S11_Group delay,S12_Magnitude,S12_Magnitude (linear),S12_Phase,S12_Unwrapped Phase,S12_VSWR,S12_Real,S12_Imaginary,S12_Impedance (absolute),S12_Resistance,S12_Reactance,S12_Capacitance,S12_Inductance,S12_Quality Factor,S12_Group delay,S21_Magnitude,S21_Magnitude (linear),S21_Phase,S21_Unwrapped Phase,S21_VSWR,S21_Real,S21_Imaginary,S21_Impedance (absolute),S21_Resistance,S21_Reactance,S21_Capacitance,S21_Inductance,S21_Quality Factor,S21_Group delay,S22_Magnitude,S22_Magnitude (linear),S22_Phase,S22_Unwrapped Phase,S22_VSWR,S22_Real,S22_Imaginary,S22_Impedance (absolute),S22_Resistance,S22_Reactance,S22_Capacitance,S22_Inductance,S22_Quality Factor,S22_Group delay,
0,-13.26777174,0.2170758014,-134.8825705,-134.8825705,1.554525717,-0.1531808548,-0.1538100429,36.98982884,35.20094692,-11.3640122,inf,-inf,0.3228325711,1.294736377e-05,-13.41514732,0.2134236947,-134.2125166,-134.2125166,1.542664948,-0.1488249735,-0.1529732026,37.3096703,35.52898288,-11.38871693,inf,-inf,0.3205472268,2.928116842e-06,-15.4910277,0.1680539076,-159.8849423,-159.8849423,1.404001916,-0.1578032753,-0.0577948283,36.41066144,36.15577812,-4.300694694,inf,-inf,0.1189490288,1.426621815e-05,-15.66474166,0.1647262898,-159.2576883,-159.2576883,1.394424697,-0.1540491835,-0.05834037741,36.69162023,36.43053923,-4.369302756,inf,-inf,0.1199351656,-2.513927035e-06,
8000,-18.15274623,0.123698003,-114.2628368,-114.2628368,1.282318204,-0.05083036901,-0.1127717586,45.22082481,44.07933584,-10.09629381,1.970462455e-06,-0.0002008593833,0.229048229,1.294736377e-05,-33.45048538,0.02125571562,-11.31177904,-11.31177904,1.043434666,0.02084280962,-0.004169260535,52.12861016,52.12679634,-0.4348568603,4.574923315e-05,-8.651202357e-06,0.008342290162,2.928116842e-06,-27.69331655,0.04124147338,-151.3203028,-151.3203028,1.086030992,-0.03618181586,-0.01979230477,46.50948089,46.47296086,-1.842748265,1.079603127e-05,-3.66603119e-05,0.03965205209,1.426621815e-05,-26.48949532,0.04737238323,56.15062475,56.15062475,1.099456246,0.02638696312,0.0393429901,52.70590564,52.54276754,4.143678171,-4.801137315e-06,8.243585793e-05,0.07886295993,-2.513927035e-06,
16000,-0.4531097292,0.9491711154,-144.1537338,-144.1537338,38.34770582,-0.7693897559,-0.5558463904,16.22375608,1.440155255,-16.1597096,6.155546227e-07,-0.0001607436038,11.22081077,1.294736377e-05,-24.09533401,0.06240699911,-33.42024349,-33.42024349,1.133121726,0.05208820886,-0.03437225678,55.48818918,55.35651879,-3.820335764,2.603745994e-06,-3.800158257e-05,0.06901329505,2.928116842e-06,-22.85567208,0.07198075471,-179.7261588,-179.7261588,1.15512772,-0.07197993259,-0.0003440257115,43.2853291,43.28531875,-0.02993763893,0.000332263475,-2.977952012e-07,0.0006916349421,1.426621815e-05,-4.854227177,0.5718585795,14.45919038,14.45919038,3.67135368,0.553745377,0.1427875778,166.5051416,153.2759134,65.0419599,-1.52934874e-07,0.0006469843392,0.424345603,-2.513927035e-06,
24000,-7.508818269,0.4212685972,124.3432531,-235.6567469,2.45583459,-0.237658476,0.3478299581,32.58944516,24.88324784,21.04509238,-3.151070018e-07,0.0001395596033,0.8457534368,1.771868388e-05,-20.48246633,0.09459685181,-74.05726282,-74.05726282,1.208960731,0.02598353308,-0.09095834421,52.64518517,51.78007294,-9.504712931,6.977018675e-07,-6.303008524e-05,0.1835592805,1.82942422e-05,-22.59831639,0.07414539457,121.7427482,-238.2572518,1.160166389,-0.03900835863,0.06305463895,46.25994994,45.89244923,5.819456325,-1.139531872e-06,3.859146834e-05,0.1268064011,2.163251375e-05,-6.235418253,0.4877857259,-48.5495334,-48.5495334,2.904615902,0.3229006451,-0.3656092008,89.18055796,64.34908056,-61.74437423,1.074017843e-07,-0.0004094550986,0.9595222448,1.528741565e-05,
32000,-6.271779632,0.485747997,99.37234623,-260.6276538,2.889143821,-0.07910395193,0.4792636867,43.96139813,27.40178388,34.37654383,-1.446798141e-07,0.0001709749024,1.254536711,1.426674029e-05,-20.01865444,0.09978546333,-145.0046572,-145.0046572,1.221692628,-0.08174411826,-0.05722794616,42.46626536,42.18529819,-4.876916077,1.019823161e-06,-2.425579065e-05,0.1156070073,2.316426747e-05,-20.38278562,0.0956887142,38.14999077,-321.8500092,1.211627823,0.07524925621,0.05910904723,58.10644598,57.69723688,6.883888555,-7.224974565e-07,3.423765285e-05,0.1193105412,2.546805618e-05,-5.772380612,0.5144947759,-70.70705995,-70.70705995,3.119420144,0.1699880942,-0.4856016086,65.86538019,39.75734378,-52.51287388,9.471186024e-08,-0.0002611776079,1.320834565,1.16464315e-05,
40000,-7.615065454,0.4161469609,48.82507533,-311.1749247,2.42551955,0.2739745568,0.3132351118,82.95773677,66.12149066,50.09924714,-7.941982773e-08,0.0001993385707,0.7576847806,7.251772001e-06,-14.87931013,0.180316095,141.0433401,-218.9566599,1.439964952,-0.1402177218,0.1133705633,37.84230595,36.84399992,8.634801058,-4.607950491e-07,3.435678177e-05,0.2343611192,2.500107729e-05,-15.30331472,0.1717252922,-31.76657557,-391.7665756,1.41465782,0.146000836,-0.09040648141,66.93059706,65.79839607,-12.25870701,3.245753058e-07,-4.877584543e-05,0.1863070796,2.571173488e-05,-6.979723162,0.447727574,-121.4050355,-121.4050355,2.621401152,-0.2333039638,-0.3821377252,33.17398283,23.98042742,-22.92274498,1.735775354e-07,-9.120670431e-05,0.9558939286,6.806607279e-06,
48000,-13.57607494,0.2095058978,48.16429497,-311.835705,1.530063152,0.1397397842,0.1560945672,65.78803989,62.53864649,20.42018333,-1.623750349e-07,6.770777324e-05,0.326521031,6.263443976e-06,-10.62171174,0.294384143,65.46400342,-294.5359966,1.834403423,0.1222473876,0.2678014188,62.861601,54.22545094,31.79907783,-1.042711993e-07,0.0001054370921,0.5864234833,2.376582613e-05,-10.5559196,0.2966224517,-109.7115059,-469.7115059,1.843423144,-0.1000461002,-0.2792412159,41.51254082,35.4021951,-21.67892127,1.529470927e-07,-7.188140586e-05,0.6123609344,2.380180226e-05,-13.12334963,0.2207153402,-116.8216722,-116.8216722,1.566456268,-0.09959010111,-0.1969697265,41.25452153,38.11556201,-15.78415278,2.10066896e-07,-5.233595703e-05,0.41411308,6.069278601e-06,
56000,-10.56249365,0.2963980333,45.52176195,-314.478238,1.842516216,0.2076678167,0.2114849215,74.7524118,67.8160808,31.44681629,-9.037647975e-08,8.937350458e-05,0.4637073673,4.657295544e-06,-11.07966567,0.2792651332,0.692893845,-359.3071062,1.774945534,0.2792447125,0.003377148842,88.74268077,88.7402997,0.6500772878,-4.371868712e-06,1.847553817e-06,0.007325615194,2.217332601e-05,-11.16038733,0.2766818261,-174.5754858,-534.5754858,1.765034907,-0.2754427366,-0.02615591165,28.41667386,28.37118813,-1.607182991,1.768344097e-06,-4.567698527e-06,0.05664842036,2.240724174e-05,-10.14773819,0.3108945368,-123.5073721,-123.5073721,1.902313371,-0.1716275489,-0.2592284658,36.16722202,31.36808087,-18.0030956,1.578646594e-07,-5.116574385e-05,0.5739304127,4.297484104e-06,
64000,-11.48576405,0.2665089494,10.83040966,-349.1695903,1.726686302,0.2617618014,0.05007773409,85.32882061,84.83718553,9.146561009,-2.718831682e-07,2.27456312e-05,0.1078131123,3.816574117e-06,-10.15537947,0.3106211522,-57.05733033,-417.0573303,1.901162411,0.168915654,-0.2606779661,68.7496699,59.54718956,-34.36057809,7.237352001e-08,-8.544774766e-05,0.577031063,2.035184125e-05,-10.31976005,0.304797919,126.8084934,-593.1915066,1.876861354,-0.1826173233,0.2440341875,35.32135073,31.10471069,16.73603268,-1.485893361e-07,4.161909889e-05,0.5380546005,2.018647092e-05,-11.51312999,0.2656706024,-157.0535035,-157.0535035,1.723573381,-0.2446479074,-0.1035773642,30.52245411,29.79142969,-6.640099522,3.745118544e-07,-1.651257284e-05,0.2228862324,3.749675364e-06,
72000,-16.7291779,0.1457273626,0.4269621562,-359.5730378,1.341172961,0.1457233164,0.001085935013,67.05806956,67.05790447,0.1488010612,-1.485530616e-05,3.289225615e-07,0.002218993605,3.245974055e-06,-10.1935052,0.3092607041,-116.9918876,-476.9918876,1.895448416,-0.1403624051,-0.2755731814,38.47332028,32.85307702,-20.02178073,1.10404032e-07,-4.425785239e-05,0.6094339568,1.922074171e-05,-10.42342071,0.3011819666,67.30914377,-652.6908562,1.86197537,0.1161835972,0.2778703812,62.07720564,52.96769577,32.37286928,-6.828203277e-08,7.155975233e-05,0.6111813778,1.911319343e-05,-16.82388221,0.1441470934,-163.1728909,-163.1728909,1.336850158,-0.137975095,-0.04172837996,37.89426761,37.75738557,-3.217973351,6.869184669e-07,-7.113282854e-06,0.08522765286,3.091878184e-06,
80000,-17.44556409,0.1341905076,15.75302758,-344.2469724,1.309976984,0.1291504318,0.03643155627,64.80744486,64.62977863,4.795479476,-4.148566997e-07,9.540303288e-06,0.07419922484,1.805790711e-06,-11.50181227,0.2660169969,-168.7601198,-528.7601198,1.724858739,-0.2609147172,-0.05185125849,29.3547309,29.17362112,-3.255772844,6.110490148e-07,-6.477154271e-06,0.1115998878,1.831744635e-05,-11.9969212,0.2512776953,18.66099802,-701.339002,1.671217336,0.2380676006,0.08040085631,80.96684282,79.79992289,13.69678591,-1.452484402e-07,2.724888977e-05,0.171639087,1.82377178e-05,-16.77984008,0.1448798528,-150.9842381,-150.9842381,1.338852624,-0.126695447,-0.07027400272,38.80499465,38.41118856,-5.514363373,3.607736114e-07,-1.097047736e-05,0.1435613835,1.795145322e-06,
88000,-16.63795588,0.1472659035,-3.681573403,-363.6815734,1.34539701,0.1469619938,-0.009456145486,67.22622548,67.2136675,-1.299343622,1.391917325e-06,-2.349965457e-06,0.01933153882,1.20693104e-06,-10.95903028,0.2831708118,139.765608,-580.234392,1.79006496,-0.2161749914,0.1829045701,32.72273804,30.40636649,12.09257878,-1.495610599e-07,2.187038281e-05,0.3976989089,1.72919723e-05,-11.28096785,0.2728673715,-35.73172345,-755.7317235,1.750529851,0.2215029016,-0.1593520224,77.51026396,73.28705567,-25.23585726,7.16670284e-08,-4.564103893e-05,0.3443426268,1.734061096e-05,-16.37719609,0.1517540168,-171.0650506,-171.0650506,1.357806627,-0.1499125291,-0.02356937082,36.96957585,36.92661727,-1.781705673,1.015082865e-06,-3.222355284e-06,0.04824990223,1.191049716e-06,
96000,-19.57812879,0.1049768557,-13.1187088,-373.1187088,1.234579086,0.10223716,-0.02382652638,61.38071934,61.30958929,-2.954144176,5.611994174e-07,-4.897569253e-06,0.04818404772,1.546729968e-06,-11.31576884,0.2717762851,90.79269446,-629.2073055,1.746408774,-0.003759939795,0.271750275,49.65108501,42.82193781,25.12990022,-6.597176974e-08,4.166195665e-05,0.586846404,1.671330445e-05,-11.75070259,0.2585025732,-84.29420926,-804.2942093,1.697244694,0.02570040776,-0.2572218291,52.46999683,45.95014274,-25.33150113,6.544673299e-08,-4.199618354e-05,0.5512823164,1.687387242e-05,-19.61878908,0.1044865877,-178.9575163,-178.9575163,1.233355718,-0.104469293,-0.001901004856,40.54125379,40.54095427,-0.15583846,1.063834942e-05,-2.583589711e-07,0.003843976117,1.410347511e-06,
104000,-20.8613966,0.09055869803,-2.516976629,-362.5169766,1.199152376,0.09047133183,-0.003976921584,59.94688225,59.94495463,-0.4807352186,3.183324067e-06,-7.356864073e-07,0.008019611018,8.516979879e-07,-11.75926067,0.2582479999,44.22730406,-675.7726959,1.696318985,0.1850549115,0.180129701,71.80955835,66.99194739,25.85907297,-5.917984737e-08,3.957307006e-05,0.3860027059,1.616039532e-05,-12.1988536,0.2455032921,-130.9180505,-850.9180505,1.65077366,-0.1607994775,-0.1855138659,36.55631134,34.00202533,-13.42483415,1.13992916e-07,-2.054450687e-05,0.394824544,1.61369442e-05,-20.42757014,0.0951966121,-166.3373677,-166.3373677,1.210424968,-0.09250286944,-0.02248586448,41.53689091,41.49418182,-1.883130773,8.126551873e-07,-2.881822799e-06,0.04538300771,9.097016789e-07,
112000,-20.08259081,0.09905364459,-7.102182344,-367.1021823,1.219887997,0.09829362869,-0.01224692067,60.89901605,60.88039264,-1.505970697,9.435949054e-07,-2.140023934e-06,0.02473654706,5.661730321e-07,-12.11719507,0.2478222219,-1.662551985,-721.662552,1.658945875,0.2477178978,-0.007190049846,82.92644639,82.91671524,-1.270371587,1.118591042e-06,-1.805231407e-06,0.01532105539,1.579323495e-05,-12.56803373,0.2352872065,-176.7296014,-896.7296014,1.615360979,-0.2349040232,-0.01342271984,30.98088991,30.96838705,-0.8800813299,1.614653361e-06,-1.250618696e-06,0.02841870094,1.57504163e-05,-19.47765186,0.1061982615,-173.6570837,-173.6570837,1.237632703,-0.1055481669,-0.01173265524,40.4540678,40.44267965,-0.9598250089,1.480505576e-06,-1.36393656e-06,0.02373297262,7.881352646e-07,
120000,-21.50661696,0.08407544064,-18.95428765,-378.9542877,1.183585951,0.07951670403,-0.02730885385,58.63154425,58.54304375,-3.220249766,4.118597279e-07,-4.270988903e-06,0.05500653126,1.496143366e-07,-12.49489506,0.2372767837,-46.71646137,-766.7164614,1.622183195,0.1626791534,-0.1727303249,68.74307025,64.55366997,-23.63119551,5.61245914e-08,-3.134184648e-05,0.3660705197,1.554101191e-05,-12.9127302,0.2261327633,138.1139761,-941.8860239,1.584422631,-0.1683500597,0.1509777601,35.87422635,34.18501442,10.87864447,-1.219169536e-07,1.442825034e-05,0.3182284592,1.54494842e-05,-21.1999551,0.08709680921,173.1850289,-186.8149711,1.190812805,-0.08648142982,0.01033520539,42.04101774,42.03190153,0.8754577657,-1.514968791e-06,1.161111924e-06,0.02082841208,3.442244874e-07,
128000,-24.15904685,0.06195090534,-13.05294495,-373.0529449,1.132084569,0.0603502042,-0.01399169487,56.42128458,56.39903629,-1.584316685,7.848165738e-07,-1.969936187e-06,0.02809120137,-3.798898404e-07,-12.92340484,0.2258550251,-91.15800611,-811.1580061,1.583495424,-0.004564449529,-0.2258088975,49.56757829,44.75777031,-21.29992521,5.83756976e-08,-2.648428425e-05,0.475893349,1.530912022e-05,-13.40324611,0.2137163234,94.3837827,-985.6162173,1.543611243,-0.01633579487,0.2130910807,48.4614349,44.24948514,19.7609144,-6.29220879e-08,2.457068131e-05,0.4465795328,1.519446943e-05,-23.99704619,0.06311719506,179.9321376,-180.0678624,1.13473872,-0.06311715079,7.475740132e-05,44.0630108,44.0630103,0.006614422696,-0.0001879828445,8.224359904e-09,0.0001501128191,-3.456600929e-07,
136000,-23.41433593,0.06749680309,-1.696041775,-361.6960418,1.144764765,0.06746723323,-0.00199771573,57.23480671,57.23434569,-0.2297224793,5.094220375e-06,-2.688343244e-07,0.004013717227,-6.872468035e-09,-13.24719439,0.2175906755,-134.8155404,-854.8155404,1.556206754,-0.1533637052,-0.1543543844,36.97823381,35.17735819,-11.39926515,1.026607346e-07,-1.334006909e-05,0.3240512004,1.512135092e-05,-13.73357642,0.2057411575,51.052685,-1028.947315,1.518070801,0.129330027,0.1600098997,64.4229281,61.10169754,20.41803672,-5.73148609e-08,2.389434906e-05,0.334164803,1.500729678e-05,-22.95420383,0.07116882711,-168.088811,-168.088811,1.153243838,-0.06963646958,-0.01468890929,43.49102624,43.47207946,-1.283616383,9.116874405e-07,-1.502160973e-06,0.02952737478,8.220642404e-08,
144000,-22.58306921,0.07427566339,-10.26089158,-370.2608916,1.16047037,0.07308776185,-0.01323076867,57.8835821,57.86310209,-1.53964064,7.178575517e-07,-1.701676517e-06,0.02660833216,4.932346484e-07,-13.55251855,0.210074855,-178.0643436,-898.0643436,1.531885474,-0.209954984,-0.007095730046,32.64845821,32.64486056,-0.4846673041,2.280415144e-06,-5.356749806e-07,0.01484666486,1.499462803e-05,-14.0431326,0.1985378753,8.000684418,-1071.999316,1.495439196,0.1966053883,0.02763348029,74.44766256,74.32474722,4.276261506,-2.584600261e-07,4.726306643e-06,0.05753482745,1.497327815e-05,-22.04567353,0.07901623339,-178.0426584,-178.0426584,1.171590936,-0.07897013008,-0.002698831931,42.68102133,42.68039176,-0.2318218028,4.767638967e-06,-2.56219346e-07,0.005431576263,7.007408246e-07,
152000,-24.27968782,0.06109639835,-20.2513508,-380.2513508,1.130144135,0.05731961303,-0.02114785696,56.07759993,56.02713218,-2.37858627,4.402077012e-07,-2.490551068e-06,0.04245418562,-3.354833024e-07,-13.89390109,0.2019784083,138.9892541,-941.0107459,1.506197853,-0.1524101848,0.1325383454,36.9777936,35.64185377,9.849643594,-1.063055718e-07,1.031328596e-05,0.2763504855,1.480694346e-05,-14.38744874,0.1908216131,-34.79954839,-1114.799548,1.471642882,0.1566938751,-0.1089032485,68.31689515,66.63579601,-15.06216628,6.95166933e-08,-1.577117249e-05,0.226037163,1.478329323e-05,-23.80404094,0.06453539208,170.9886544,-189.0113456,1.137975059,-0.06373885395,0.01010818122,44.00861339,43.99954762,0.8932309448,-1.17222987e-06,9.352771065e-07,0.02030091201,-8.129068738e-08,
160000,-26.7602336,0.04591856634,-10.87786937,-370.8778694,1.096257122,0.04509348675,-0.008665574826,54.72192127,54.71366999,-0.9502544281,1.046791643e-06,-9.452355589e-07,0.01736776985,-1.241644335e-06,-13.81675245,0.2037803846,96.01695301,-983.983047,1.511869792,-0.02136081494,0.2026577429,47.98947382,44.1999196,18.69108625,-5.321886492e-08,1.85923673e-05,0.4228760237,1.469480249e-05,-14.45023961,0.1894471253,-78.30530598,-1158.305306,1.467451615,0.03840029041,-0.1855145034,53.85520131,50.26171455,-19.34277018,5.142584982e-08,-1.924060929e-05,0.3848410336,1.466419362e-05,-26.47383357,0.04745787865,-179.6972629,-179.6972629,1.099644683,-0.04745721618,-0.0002507547958,45.46929339,45.46928765,-0.02285475852,4.35234699e-05,-2.273404869e-08,0.0005026416665,-9.870254927e-07,
168000,-25.46560836,0.05329906399,3.443406675,-356.5565933,1.11259958,0.05320283847,0.003201281022,55.61918256,55.6180361,0.3571124083,-2.652808555e-06,3.383107441e-07,0.006420802195,-6.729327961e-07,-14.48685409,0.188650211,54.92382541,-1025.076175,1.465028065,0.1084106716,0.1543892108,61.83907672,58.89407117,18.85629311,-5.02405667e-08,1.786352534e-05,0.3201730282,1.46263354e-05,-14.99035264,0.178025563,-118.6737424,-1198.673742,1.433165692,-0.08542048679,-0.1561936027,42.30440462,40.26110026,-12.98870494,7.293651341e-08,-1.230486068e-05,0.322611773,1.457704921e-05,-24.89646757,0.05690843222,-166.0909228,-166.0909228,1.12068485,-0.05523978655,-0.01367975292,44.76612209,44.74926788,-1.228295777,7.712725788e-07,-1.163627051e-06,0.02744839939,-3.296475611e-07,
176000,-24.22625143,0.06147342755,-4.2285919,-364.2285919,1.130999866,0.06130608492,-0.004532796701,56.53085495,56.52851444,-0.5144084681,1.757921001e-06,-4.651741504e-07,0.009099982074,2.748171601e-07,-14.74791376,0.1830645751,12.36321483,-1067.636785,1.448173918,0.1788192969,0.03919563352,71.73387512,71.49907359,5.79925118,-1.559321059e-07,5.244201657e-06,0.08110945903,1.455668774e-05,-15.22787274,0.173223322,-161.2266067,-1241.226607,1.419032918,-0.1640076351,-0.05574777921,35.94863913,35.71348527,-4.105073118,2.202858325e-07,-3.71217431e-06,0.1149446235,1.448017016e-05,-23.68119372,0.06545462119,-175.2897027,-175.2897027,1.140077994,-0.06523355767,-0.005374977993,43.87629309,43.87373625,-0.4736700818,1.909112448e-06,-4.283348575e-07,0.01079621027,6.980573362e-07,
184000,-25.41150534,0.05363209143,-13.88575727,-373.8857573,1.113343005,0.0520647562,-0.01287099034,55.49147576,55.47299307,-1.432104022,6.039872128e-07,-1.23873062e-06,0.02581623855,-4.814417085e-07,-15.02602926,0.1772958364,-29.80310645,-1109.803106,1.43100751,0.1538464244,-0.08811975544,68.01258088,66.91387068,-12.17559317,7.104150944e-08,-1.053155346e-05,0.1819591819,1.442542776e-05,-15.48065988,0.1682546231,156.7515934,-1283.248407,1.404582046,-0.1545927158,0.0664131795,36.66281949,36.32500853,4.965489742,-1.741968188e-07,4.295012159e-06,0.1366961755,1.461615455e-05,-24.99405181,0.05627265543,173.5317991,-186.4682009,1.119256172,-0.05591445356,0.006339213919,44.70484386,44.70122845,0.5685416499,-1.521388129e-06,4.917729018e-07,0.01271870303,-2.16711533e-07,
