Frequency,S11_Magnitude,S11_Magnitude (linear),S11_Phase,S11_Unwrapped Phase,S11_VSWR,S11_Real,S11_Imaginary,S11_Impedance (absolute),S11_Resistance,S11_Reactance,S11_Capacitance,S11_Inductance,S11_Quality Factor,S11_Group delay,S12_Magnitude,S12_Magnitude (linear),S12_Phase,S12_Unwrapped Phase,S12_VSWR,S12_Real,S12_Imaginary,S12_Impedance (absolute),S12_Resistance,S12_Reactance,S12_Capacitance,S12_Inductance,S12_Quality Factor,S12_Group delay,S21_Magnitude,S21_Magnitude (linear),S21_Phase,S21_Unwrapped Phase,S21_VSWR,S21_Real,S21_Imaginary,S21_Impedance (absolute),S21_Resistance,S21_Reactance,S21_Capacitance,S21_Inductance,S21_Quality Factor,S21_Group delay,S22_Magnitude,S22_Magnitude (linear),S22_Phase,S22_Unwrapped Phase,S22_VSWR,S22_Real,S22_Imaginary,S22_Impedance (absolute),S22_Resistance,S22_Reactance,S22_Capacitance,S22_Inductance,S22_Quality Factor,S22_Group delay,
0,-13.24560244,0.2176305593,-134.0856846,-134.0856846,1.556337065,-0.1514128382,-0.1563240632,37.12923647,35.27791759,-11.57794158,inf,-inf,0.3281923191,1.732346809e-05,-13.45160621,0.2125297294,-133.2134281,-133.2134281,1.53977842,-0.1455229167,-0.154893404,37.56237006,35.7289551,-11.59195463,inf,-inf,0.3244414676,3.184955681e-05,-15.25006856,0.1727812342,-170.1648639,-170.1648639,1.417740122,-0.170241926,-0.02951341224,35.4635586,35.3980991,-2.153733555,inf,-inf,0.06084319807,1.632783735e-05,-15.4037486,0.1697510894,-169.5393839,-169.5393839,1.408916139,-0.1669298161,-0.03081994211,35.70692422,35.63522196,-2.261723496,inf,-inf,0.0634687641,-1.11213636e-05,
8000,-14.14946904,0.196122106,12.37008337,12.37008337,1.48794004,0.1915689878,0.04201432378,73.64280588,73.36320083,6.411210584,-3.103059496e-06,0.000127546982,0.08739000632,1.732346809e-05,-23.88399395,0.06394407396,99.19180443,-260.8081956,1.136624473,-0.01021442551,0.06312297606,48.99285821,48.60390209,6.161238242,-3.228956113e-06,0.0001225739402,0.1267642715,3.184955681e-05,-29.35291196,0.03406860901,-62.64553566,-62.64553566,1.070540432,0.01565432316,-0.03025908602,51.58884955,51.49441901,-3.119969364,6.376462576e-06,-6.206981831e-05,0.06058849529,1.632783735e-05,-14.80582517,0.181848089,-175.4083997,-175.4083997,1.4445338,-0.1812644703,-0.01455744735,34.6578935,34.6421929,-1.043097712,1.907239145e-05,-2.075176963e-05,0.0301106144,-1.11213636e-05,
16000,-0.6452056652,0.9284098014,-145.8123215,-145.8123215,26.93678519,-0.7679819167,-0.5216785744,15.48674876,2.031473727,-15.35293137,6.479012836e-07,-0.0001527184324,7.557533809,1.732346809e-05,-24.19409794,0.06170141204,-27.26808163,-387.2680816,1.131517649,0.05484469451,-0.02826877661,55.79780095,55.70815584,-3.16163939,3.146210784e-06,-3.144940857e-05,0.05675361789,3.184955681e-05,-21.04569316,0.08865747169,-175.2162137,-175.2162137,1.194564544,-0.08834863328,-0.00739366516,41.88273332,41.87808211,-0.6241711102,1.593662985e-05,-6.208744845e-06,0.01490448174,1.632783735e-05,-4.845870545,0.5724090253,13.66201245,13.66201245,3.677367199,0.5562132454,0.1351995484,168.3545839,156.1960806,62.81759579,-1.58350281e-07,0.0006248581802,0.4021713961,-1.11213636e-05,
24000,-7.719460917,0.4111752396,124.2851058,-235.7148942,2.396596296,-0.2316196519,0.3397313858,32.87896877,25.45281786,20.81299233,-3.186209775e-07,0.0001380204421,0.8177087679,2.649956513e-05,-21.39336094,0.0851788854,-73.89380024,-433.8938002,1.186219763,0.02363020832,-0.08183554101,52.40371436,51.70571361,-8.524579691,7.779217513e-07,-5.653037482e-05,0.164867267,2.599316057e-05,-22.83026763,0.07219159193,126.806282,-233.193718,1.155617456,-0.0432508049,0.05780133061,45.86748653,45.56088272,5.294552518,-1.252505465e-06,3.511059186e-05,0.1162082954,2.803794908e-05,-6.534566312,0.4712720509,-50.62196627,-50.62196627,2.782663662,0.2989911128,-0.3642823911,85.38524713,62.32044607,-58.36782016,1.136149328e-07,-0.000387063629,0.9365757763,-9.725190938e-07,
32000,-6.304174549,0.4839397241,100.4988637,-259.5011363,2.875516279,-0.0881815727,0.4758378577,43.29950829,27.14531491,33.73394872,-1.474358075e-07,0.0001677788965,1.242717163,1.432439059e-05,-20.21578726,0.09754626321,-145.3042439,-505.3042439,1.216180086,-0.08020119197,-0.05552514992,42.59661349,42.33138633,-4.74607333,1.04793829e-06,-2.360503221e-05,0.1121171249,2.342914444e-05,-20.2649269,0.09699596205,39.98836952,-320.0116305,1.21482952,0.0743158722,0.06233271849,57.99446995,57.5405936,7.241452397,-6.868224354e-07,3.601602951e-05,0.1258494559,2.593928908e-05,-6.035985277,0.4991151312,-71.78496487,-71.78496487,2.992933555,0.1560155001,-0.4741045011,64.53605569,40.06489031,-50.5935475,9.830486727e-08,-0.0002516316617,1.262790116,1.153826906e-05,
40000,-7.548078228,0.4193687727,47.62075287,-312.3792471,2.444527104,0.2826691764,0.3097875146,84.43864319,67.49278356,50.74060142,-7.841597195e-08,0.0002018904383,0.751792988,7.3495724e-06,-14.40432171,0.1904512882,143.9083734,-576.0916266,1.470512238,-0.1538991118,0.1121907151,36.81001071,35.85112258,8.34708922,-4.766779739e-07,3.321201274e-05,0.2328264394,2.487238516e-05,-15.29495973,0.1718905548,-33.994294,-393.994294,1.415139703,0.1425133,-0.0961057862,66.43917593,65.17312808,-12.90842648,3.082384661e-07,-5.136099704e-05,0.1980636323,2.601656746e-05,-6.596172194,0.4679413141,-118.6806361,-118.6806361,2.758983836,-0.2245776836,-0.4105288509,33.96632817,23.41045151,-24.61020539,1.616757566e-07,-9.792089595e-05,1.051248643,6.62270541e-06,
48000,-13.61499122,0.2085693267,46.24863046,-313.7513695,1.527069101,0.1442320137,0.1506595176,66.40981731,63.34117817,19.95392151,-1.661692404e-07,6.616177589e-05,0.315022898,6.26948463e-06,-10.54469663,0.2970059627,66.45115167,-653.5488483,1.844974344,0.1186630229,0.2722712414,62.40657901,53.5786772,31.99853831,-1.036212326e-07,0.0001060984488,0.5972252392,2.367626833e-05,-10.46926662,0.299596454,-108.3416885,-468.3416885,1.85549668,-0.0942779637,-0.284375985,41.98192394,35.60322391,-22.24617686,1.490470925e-07,-7.376227109e-05,0.6248360238,2.371542768e-05,-13.25229711,0.2174628845,-118.4597271,-118.4597271,1.555789317,-0.1036299646,-0.1911829924,40.91414262,37.97018321,-15.23916839,2.175793257e-07,-5.052893702e-05,0.4013456638,6.000333644e-06,
56000,-10.62174866,0.2943828916,45.57637985,-314.4236202,1.834398396,0.2060556077,0.210243605,74.52993909,67.69984555,31.16797609,-9.118502104e-08,8.858102608e-05,0.4603847444,4.595468992e-06,-10.9962423,0.2819602486,2.066155722,-717.9338443,1.785361112,0.2817769363,0.01016562703,89.22637943,89.20462305,1.970282424,-1.442459477e-06,5.599646198e-06,0.02208722325,2.222279325e-05,-11.0699999,0.2795760761,-173.6672604,-533.6672604,1.776143231,-0.2778701279,-0.03083787216,28.2727343,28.20966716,-1.887374675,1.50582319e-06,-5.364018019e-06,0.06690524437,2.214548593e-05,-10.20207389,0.3089557664,-122.651543,-122.651543,1.894170739,-0.1666904207,-0.2601306773,36.5155021,31.6532926,-18.20579472,1.561070307e-07,-5.174182541e-05,0.5751627471,4.442014978e-06,
64000,-11.41411439,0.2687164668,11.2404715,-348.7595285,1.734917319,0.2635618699,0.05238015147,85.64604643,85.1052406,9.609541763,-2.587840344e-07,2.389696988e-05,0.1129136314,4.126525741e-06,-10.12456521,0.311725076,-55.32139894,-775.3213989,1.905815584,0.1773629733,-0.2563491734,69.92066073,60.80083778,-34.5276255,7.202337114e-08,-8.586316048e-05,0.5678807523,2.078757008e-05,-10.28095293,0.3061627522,128.3226941,-591.6773059,1.88252037,-0.1898484068,0.2401941158,34.8069365,30.75350935,16.30167143,-1.525485283e-07,4.053893107e-05,0.5300751613,2.067511223e-05,-11.45627849,0.2674151915,-156.2043159,-156.2043159,1.730059342,-0.2446822429,-0.107895712,30.53528643,29.74257692,-6.91251294,3.597528145e-07,-1.719000943e-05,0.2324113663,4.028290609e-06,
72000,-16.57336599,0.1483650818,-1.049921135,-361.0499211,1.348424139,0.1483401727,-0.002718575762,67.41761813,67.41657627,-0.3748044091,5.897703621e-06,-8.284996445e-07,0.005559528974,3.435480826e-06,-10.13719343,0.3112721951,-115.213574,-835.213574,1.903904831,-0.1325999766,-0.2816160962,39.07040384,33.15160526,-20.67528779,1.069143677e-07,-4.570242016e-05,0.6236587226,1.93928281e-05,-10.35834187,0.3034470407,68.77851737,-651.2214826,1.871282037,0.1098399733,0.2828697347,61.31113229,52.03574776,32.42431027,-6.817370369e-08,7.167346189e-05,0.6231160628,1.927685328e-05,-16.77164173,0.145016665,-163.7733574,-163.7733574,1.339226881,-0.1392397595,-0.04052311071,37.79577394,37.66691502,-3.11833929,7.088661994e-07,-6.893043225e-06,0.0827872229,3.251902483e-06,
80000,-16.90486457,0.1428093925,10.13981028,-349.8601897,1.333203354,0.140578866,0.02514169875,66.34512586,66.2578953,3.401034563,-5.849504767e-07,6.766143278e-06,0.05133025351,1.830821023e-06,-10.23145239,0.3079125428,-174.2499926,-894.2499926,1.889808187,-0.3063632825,-0.03084920057,26.56722207,26.50572215,-1.806649344,1.101174832e-06,-3.594214669e-06,0.068160729,1.823123958e-05,-11.03766224,0.2806188806,12.71380658,-707.2861934,1.780167489,0.2737385376,0.06175896042,87.47875509,86.70292416,11.62478105,-1.711375708e-07,2.312676707e-05,0.1340759975,1.814265925e-05,-15.96844701,0.159066106,-155.9062047,-155.9062047,1.378308229,-0.1452080109,-0.06493581169,37.36789006,37.0405337,-4.935389599,4.030961992e-07,-9.818645634e-06,0.1332429397,1.756165508e-06,
88000,-16.60440241,0.1478358897,-3.344213437,-363.3442134,1.346965773,0.1475841398,-0.008623917958,67.3120873,67.30162505,-1.186744215,1.52398375e-06,-2.146320545e-06,0.01763321783,1.008546428e-06,-10.88670735,0.2855384728,142.273728,-937.726272,1.799310983,-0.2258446689,0.1747180729,32.04672537,29.95221976,11.39548763,-1.587100928e-07,2.060963847e-05,0.3804555295,1.693959484e-05,-11.25677754,0.2736283699,-33.4495038,-753.4495038,1.7534115,0.2283078322,-0.1508244628,78.6941351,74.81741281,-24.39511507,7.413692839e-08,-4.412049034e-05,0.3260619975,1.696224166e-05,-16.30847711,0.1529593906,-169.6279944,-169.6279944,1.361161883,-0.1504599659,-0.02753858787,36.93057027,36.87197961,-2.079456665,8.697362774e-07,-3.760861445e-06,0.05639666454,9.237949753e-07,
96000,-19.46573801,0.1063440264,-13.97620508,-373.9762051,1.237997685,0.1031958299,-0.02568409348,61.49851493,61.41567803,-3.190898063,5.195603112e-07,-5.290074996e-06,0.05195575731,1.19999951e-06,-11.25992265,0.2735293083,93.40510007,-986.5948999,1.753036045,-0.01624633608,0.2730464046,48.51062952,41.77605728,24.658512,-6.723292917e-08,4.08804591e-05,0.5902546483,1.611622949e-05,-11.68440826,0.2604831211,-81.81758846,-801.8175885,1.704468359,0.03707328336,-0.2578313946,53.60113266,46.90268476,-25.94647538,6.389553749e-08,-4.301572722e-05,0.5531980848,1.624164554e-05,-19.45552365,0.1064691575,-178.5657807,-178.5657807,1.238311097,-0.1064358028,-0.002664841512,40.38036264,40.37977591,-0.2176789454,7.616097126e-06,-3.608820851e-07,0.005390791318,9.906008057e-07,
104000,-20.94305712,0.08971129872,-3.514982028,-363.514982,1.197105157,0.08954253392,-0.005500158049,59.83456538,59.83088654,-0.6634985786,2.306464612e-06,-1.015375755e-06,0.01108956623,8.871280372e-07,-11.69200353,0.2602554444,47.02871399,-1032.971286,1.703635985,0.177398375,0.1904277104,70.62774662,65.38223013,26.71034586,-5.729375424e-08,4.08758036e-05,0.4085260751,1.610823907e-05,-12.14333925,0.2470774085,-128.212065,-848.212065,1.656315566,-0.152835627,-0.1941353056,37.1716686,34.35062723,-14.20448364,1.077361227e-07,-2.173763254e-05,0.4135145347,1.605715224e-05,-20.43415579,0.09512446136,-165.7462171,-165.7462171,1.210248719,-0.09219602205,-0.02342128665,41.56292996,41.51657183,-1.96250107,7.797886149e-07,-3.003286021e-06,0.04727030638,8.762952815e-07,
112000,-20.0788203,0.09909665264,-7.054798368,-367.0547984,1.219993971,0.0983464058,-0.01217090922,60.90552893,60.88713359,-1.49680237,9.493746845e-07,-2.1269955e-06,0.02458322935,6.557350499e-07,-12.05354376,0.2496449653,1.298809758,-1078.70119,1.665404919,0.2495808267,0.005658593904,83.25734193,83.25127855,1.004791588,-1.414249776e-06,1.427835249e-06,0.01206938326,1.572564155e-05,-12.50833901,0.2369098128,-173.7846086,-893.7846086,1.620922184,-0.235517237,-0.02564937523,30.94850182,30.9028945,-1.679546538,8.46077346e-07,-2.386679765e-06,0.05434916584,1.567200373e-05,-19.40126903,0.1071362765,-172.111745,-172.111745,1.239983491,-0.106122512,-0.0147035433,40.40779507,40.38992697,-1.201541593,1.182669236e-06,-1.707422177e-06,0.02974854582,7.874433309e-07,
120000,-21.44623063,0.08466198922,-19.57956053,-379.5795605,1.184985193,0.07976658414,-0.02837154337,58.66045776,58.56488653,-3.347143597,3.962456805e-07,-4.439287073e-06,0.05715273769,1.994593304e-07,-12.45856274,0.2382713705,-43.63176954,-1123.63177,1.625606971,0.1724582846,-0.1644122443,70.1616319,66.25116998,-23.09625654,5.742450904e-08,-3.063236162e-05,0.3486165836,1.546136048e-05,-12.95586312,0.2250126032,141.3110141,-938.6889859,1.580687129,-0.1756337189,0.140653718,35.31532261,33.86014012,10.03309135,-1.321916791e-07,1.33068007e-05,0.2963098002,1.537956561e-05,-21.00165231,0.08910814121,174.5263357,-185.4736643,1.195650319,-0.08870182129,0.008499866445,41.85305959,41.84691617,0.717080201,-1.849571625e-06,9.510571549e-07,0.01713579558,3.520041179e-07,
128000,-24.18947776,0.06173424084,-15.38650055,-375.3865005,1.131592228,0.0595215588,-0.0163798819,56.32704806,56.29661588,-1.851319433,6.716280134e-07,-2.301926867e-06,0.03288509272,-4.086841943e-07,-12.85789106,0.2275649894,-87.71389651,-1167.713897,1.589214591,0.009077441541,-0.2273838702,50.8706292,45.8681207,-21.99855492,5.652180326e-08,-2.735295903e-05,0.4796044524,1.522382445e-05,-13.33128995,0.2154941587,97.74401823,-982.2559818,1.549375536,-0.02903729518,0.2135288456,47.29802345,43.16666496,19.33240954,-6.43167625e-08,2.403787922e-05,0.447855065,1.51298362e-05,-23.81170272,0.06447849083,179.9587589,-180.0412411,1.137845021,-0.06447847412,4.641113112e-05,43.94271697,43.94271678,0.004095890948,-0.0003035720454,5.092822584e-09,9.320977965e-05,-3.862094451e-07,
136000,-23.64625752,0.06571842161,-2.221345297,-362.2213453,1.140682259,0.06566903723,-0.002547251116,57.02840662,57.02766014,-0.2917877472,4.010644538e-06,-3.414666346e-07,0.005116600374,-8.341649546e-08,-13.19193724,0.2189793378,-131.1085238,-1211.108524,1.560751715,-0.1439761435,-0.1649933953,37.71282281,35.63309491,-12.35069032,9.47523502e-08,-1.445348099e-05,0.3466072861,1.503591964e-05,-13.67090904,0.2072309166,54.55787676,-1025.442123,1.52280272,0.1201691238,0.1688313788,63.22369843,59.62171128,21.03538892,-5.563276909e-08,2.461680975e-05,0.3528142428,1.493850056e-05,-22.94940633,0.07120814686,-166.8503283,-166.8503283,1.153334995,-0.06934100584,-0.01619953975,43.51713713,43.49408209,-1.416349968,8.262484279e-07,-1.657493372e-06,0.03256419954,-1.547494317e-08,
144000,-22.57488727,0.07434566258,-9.848853585,-369.8488536,1.160633748,0.0732499867,-0.01271679964,57.90257749,57.88365036,-1.480371995,7.465979254e-07,-1.636170282e-06,0.02557495918,5.420514932e-07,-13.47657271,0.2119197167,-174.1858852,-1254.185885,1.537812508,-0.2108295558,-0.02146776038,32.59493984,32.56205412,-1.463808334,7.550460226e-07,-1.617863417e-06,0.04495442236,1.498650186e-05,-13.96359071,0.2003643557,11.72231882,-1068.277681,1.50113913,0.1961855053,0.04070777036,74.35459856,74.08855897,6.284246672,-1.758751236e-07,6.94561751e-06,0.0848207437,1.483964674e-05,-21.85880602,0.0807346002,-175.861997,-175.861997,1.175650253,-0.08052413647,-0.005825728764,42.54791373,42.54498794,-0.4989634011,2.215077615e-06,-5.514756369e-07,0.01172790087,7.150147359e-07,
152000,-24.04937015,0.06273811884,-21.14718647,-381.1471865,1.133875324,0.05851312938,-0.02263371923,56.21157883,56.1536198,-2.551975286,4.102986419e-07,-2.672101852e-06,0.04544631843,-2.056903406e-07,-13.81789449,0.2037535929,143.086982,-1296.913018,1.511785274,-0.1629108221,0.1223747959,36.17394274,35.04930949,8.94986244,-1.169930824e-07,9.371150311e-06,0.2553506066,1.476824891e-05,-14.31076561,0.1925137349,-30.79254436,-1110.792544,1.476822314,0.1653744036,-0.09855376576,69.58000079,68.16657975,-13.95327614,7.504130094e-08,-1.461008467e-05,0.2046937985,1.467551415e-05,-23.39682133,0.06763304385,172.6595528,-187.3404472,1.145078166,-0.06707875696,0.008641121742,43.71423695,43.70765011,0.7588373468,-1.379837192e-06,7.945573338e-07,0.01736165968,3.157545823e-08,
160000,-26.86254594,0.04538085802,-13.72912146,-373.7291215,1.095076363,0.04408426419,-0.01077032618,54.61117054,54.59845286,-1.178513349,8.440450806e-07,-1.172288906e-06,0.0215851052,-1.253369536e-06,-13.71476149,0.2061873066,99.38272385,-1340.617276,1.519486041,-0.03361440276,0.2034288016,46.87320281,43.14006252,18.33117964,-5.426374155e-08,1.823436158e-05,0.4249224171,1.461881493e-05,-14.74357899,0.183155958,-73.27168429,-1153.271684,1.448447803,0.05271848323,-0.1754048644,55.38971295,52.0657461,-18.8991636,5.26329321e-08,-1.879934567e-05,0.3629865125,1.45883687e-05,-26.07740082,0.04967409448,179.9076062,-180.0923938,1.104541177,-0.0496740299,8.010325524e-05,45.2676709,45.26767031,0.007270114621,-0.0001368229314,7.231716742e-09,0.0001606028004,-9.641464097e-07,
168000,-25.84198832,0.0510388152,2.680729547,-357.3192705,1.107567761,0.05098296148,0.002387110323,55.37215376,55.37151942,0.2650462863,-3.574284571e-06,2.510918251e-07,0.004786689784,-8.013897184e-07,-14.41930301,0.1901230835,59.44438742,-1380.555613,1.469511057,0.09665371621,0.1637218557,60.38843605,57.17893974,19.42503691,-4.876957795e-08,1.840232526e-05,0.339723629,1.452451138e-05,-14.91741605,0.1795267617,-114.2725254,-1194.272525,1.437617593,-0.07379937166,-0.1636566862,43.29538935,41.01316668,-13.87122553,6.829611773e-08,-1.314091732e-05,0.3382139603,1.453983123e-05,-24.81887119,0.05741910784,-165.1898165,-165.1898165,1.121833804,-0.0555115286,-0.01467733414,44.74187019,44.72247811,-1.317156113,7.192396123e-07,-1.247808965e-06,0.02945176941,-4.138152117e-07,
176000,-24.31216117,0.06086840776,-3.714290276,-363.7142903,1.129627005,0.06074055319,-0.003943128421,56.46674827,56.46497935,-0.446953275,2.023230391e-06,-4.04175131e-07,0.007915583787,3.469276424e-07,-14.67769021,0.184550612,17.12447709,-1422.875523,1.452635356,0.1763689873,0.05434067279,71.33465464,70.88737446,7.975781823,-1.133794115e-07,7.212415353e-06,0.1125134325,1.442924678e-05,-15.1666523,0.1744485584,-156.6101999,-1236.6102,1.422623109,-0.1601133025,-0.06925337449,36.25678042,35.89239656,-5.127377034,1.763649217e-07,-4.636632955e-06,0.1428541286,1.447922264e-05,-23.41885379,0.06746170459,-173.053604,-173.053604,1.144684041,-0.06696651774,-0.008158865595,43.72404662,43.71817329,-0.7166429002,1.261841077e-06,-6.480526137e-07,0.01639233404,7.350691395e-07,
184000,-25.2440051,0.05467637898,-14.61459012,-374.6145901,1.11567759,0.05290732204,-0.01379571283,55.58516222,55.56388924,-1.537683835,5.625164922e-07,-1.330054256e-06,0.02767415772,5.867851395e-08,-14.95553867,0.1787405404,-24.93685854,-1464.936859,1.435283974,0.1620770913,-0.07536044907,69.20903645,68.38513901,-10.64722917,8.123921283e-08,-9.209560615e-06,0.1556950725,1.441262241e-05,-15.41615408,0.1695088181,161.5031437,-1278.496856,1.408213409,-0.1607521729,0.05377711726,36.18636051,35.96651327,3.98278924,-2.17177577e-07,3.445003233e-06,0.1107360397,1.431478358e-05,-24.47916508,0.05970926783,175.0990969,-184.9009031,1.127001715,-0.05949096775,0.005101119594,44.38508649,44.38276019,0.4544236449,-1.903449626e-06,3.930639638e-07,0.01023874232,2.607520391e-07,
