Frequency,S11_Magnitude,S11_Magnitude (linear),S11_Phase,S11_Unwrapped Phase,S11_VSWR,S11_Real,S11_Imaginary,S11_Impedance (absolute),S11_Resistance,S11_Reactance,S11_Capacitance,S11_Inductance,S11_Quality Factor,S11_Group delay,S12_Magnitude,S12_Magnitude (linear),S12_Phase,S12_Unwrapped Phase,S12_VSWR,S12_Real,S12_Imaginary,S12_Impedance (absolute),S12_Resistance,S12_Reactance,S12_Capacitance,S12_Inductance,S12_Quality Factor,S12_Group delay,S21_Magnitude,S21_Magnitude (linear),S21_Phase,S21_Unwrapped Phase,S21_VSWR,S21_Real,S21_Imaginary,S21_Impedance (absolute),S21_Resistance,S21_Reactance,S21_Capacitance,S21_Inductance,S21_Quality Factor,S21_Group delay,S22_Magnitude,S22_Magnitude (linear),S22_Phase,S22_Unwrapped Phase,S22_VSWR,S22_Real,S22_Imaginary,S22_Impedance (absolute),S22_Resistance,S22_Reactance,S22_Capacitance,S22_Inductance,S22_Quality Factor,S22_Group delay,
0,-13.24231217,0.2177130148,-136.0214071,-136.0214071,1.556606511,-0.1566661311,-0.1511776444,36.72413625,35.00327728,-11.11002983,inf,-inf,0.3173997036,-2.65096967e-05,-13.4191709,0.213324853,-135.2831669,-135.2831669,1.542345475,-0.1515871026,-0.1500961133,37.09494573,35.3861296,-11.1290984,inf,-inf,0.3145045397,6.200326232e-06,-16.08262218,0.1569888799,-161.5491184,-161.5491184,1.372447946,-0.1489189176,-0.04968565594,37.06676211,36.87587055,-3.756996728,inf,-inf,0.1018822518,1.709853934e-05,-16.2534523,0.1539314587,-160.9287448,-160.9287448,1.363874677,-0.1454826159,-0.05029614744,37.32803644,37.13146413,-3.825790898,inf,-inf,0.1030336667,-6.510872948e-06,
8000,-27.00192097,0.04465848147,-165.4445608,-165.4445608,1.093492182,-0.04322516395,-0.01122342054,45.85708464,45.84549003,-1.031142919,1.929351161e-05,-2.051393658e-05,0.02249169806,-2.65096967e-05,-20.78208207,0.09138941477,84.24522052,84.24522052,1.201162998,0.009163713419,0.0909288265,50.9171922,50.08198668,9.184501744,-2.166080256e-06,0.0001827198566,0.1833893253,6.200326232e-06,-27.71627457,0.04113261035,-55.90450899,-55.90450899,1.085794158,0.02305786481,-0.03406209778,52.35740667,52.23592572,-3.56456127,5.5811547e-06,-7.091469326e-05,0.06823964965,1.709853934e-05,-14.66891183,0.184737222,-58.8664663,-58.8664663,1.453196753,0.09551549706,-0.1581285269,60.27364695,57.28121046,-18.75567765,1.060711762e-06,-0.0003731323511,0.327431587,-6.510872948e-06,
16000,5.721771902,1.932362474,-87.5750755,-87.5750755,nan,0.0817588028,-1.930632081,51.75793116,-29.90942424,-42.24109113,2.354859611e-07,-0.0004201799034,-1.412300377,-2.65096967e-05,-21.05109489,0.08860235296,-4.907458241,-4.907458241,1.194431823,0.0882775517,-0.007579631601,59.68188793,59.67492265,-0.9117857207,1.09095632e-05,-9.06970028e-06,0.01527921077,6.200326232e-06,-22.43285296,0.0755713798,-146.3393873,-146.3393873,1.163498572,-0.06290073058,-0.04188712855,44.09195429,43.93627871,-3.701870616,2.687069586e-06,-3.682318795e-05,0.08425544276,1.709853934e-05,1.580365491,1.199549778,52.50633804,52.50633804,nan,0.7301343593,0.9517475959,99.80290956,-22.42473012,97.2509755,-1.022836418e-07,0.0009673733419,-4.336773508,-6.510872948e-06,
24000,-6.86578232,0.4536395219,124.7164897,124.7164897,2.660586884,-0.2583550167,0.3728826908,31.62459504,23.05404107,21.64777591,-3.063342854e-07,0.0001435562726,0.9390013595,-2.285036178e-05,-22.09719744,0.07854890371,-74.46466134,-74.46466134,1.170489577,0.02103796256,-0.07567915436,52.13650206,51.54217661,-7.849769209,8.447962973e-07,-5.205539882e-05,0.1522979766,2.413868101e-05,-22.79475803,0.0724873292,126.6255401,-233.3744599,1.156304774,-0.04324468499,0.05817482372,45.86821843,45.55764836,5.328615068,-1.24449897e-06,3.533647616e-05,0.1169642258,2.788319295e-05,-6.125549183,0.4939949859,-48.27551148,-48.27551148,2.952530003,0.3287780719,-0.3686950305,90.03335005,64.45023912,-62.86629301,1.054850802e-07,-0.0004168950536,0.9754237357,7.152869328e-06,
32000,-6.340017321,0.4819468365,100.6377001,100.6377001,2.860607638,-0.08896645753,0.4736641454,43.2333695,27.22039998,33.58830248,-1.480751215e-07,0.0001670545115,1.233938609,-7.377428484e-06,-20.38492355,0.09566516443,-145.2129237,-145.2129237,1.21157023,-0.07856768718,-0.05457968685,42.73574111,42.47873843,-4.679781013,1.062783057e-06,-2.327532128e-05,0.1101676082,2.428607365e-05,-20.36687216,0.09586418666,40.96689051,-319.0331095,1.21205705,0.07238595169,0.06285074607,57.77019301,57.31081567,7.270873957,-6.840432115e-07,3.616236034e-05,0.1268673962,2.724074352e-05,-6.190818902,0.4902967956,-72.46765176,-72.46765176,2.923852122,0.147699068,-0.467521051,63.74139149,40.19126086,-49.47350341,1.005304179e-07,-0.0002460610194,1.230951763,1.357240621e-05,
40000,-6.351691093,0.4812995386,69.49426106,69.49426106,2.8557899,0.1685998058,0.4508030073,66.21899906,42.95103518,50.40004378,-7.894583573e-08,0.0002005354025,1.173430246,7.517891635e-06,-13.87541725,0.2024086822,166.8009467,-193.1990533,1.507549863,-0.1970615865,0.04621694262,33.56839273,33.4135521,3.220485391,-1.235488783e-06,1.281390423e-05,0.0963826109,2.497634335e-05,-13.55310059,0.2100607785,-11.07562631,-371.0756263,1.531840356,0.2061482861,-0.04035362211,75.91260091,75.64345195,-6.386795281,6.229843611e-07,-2.541225099e-05,0.08443289031,2.615532149e-05,-6.657785753,0.4646337067,-99.38078972,-99.38078972,2.73576003,-0.07573305117,-0.4584200981,44.11499624,28.67280447,-33.52615661,1.186796812e-07,-0.0001333963387,1.16926674,6.81164328e-06,
48000,-13.42595585,0.2131582801,46.27100897,46.27100897,1.541807265,0.1473452638,0.154031898,66.80308024,63.57434094,20.5171807,-1.616073879e-07,6.802939015e-05,0.3227273834,7.290351012e-06,-10.75352544,0.2899504105,64.74027723,-295.2597228,1.816704677,0.1237282813,0.2622261485,63.07864913,54.7401799,31.34371837,-1.057860443e-07,0.000103927244,0.5725907081,2.465026373e-05,-10.7091346,0.2914360487,-109.7555108,-469.7555108,1.822610431,-0.09850749434,-0.2742831457,41.6122676,35.69035683,-21.39577632,1.549711463e-07,-7.094257421e-05,0.599483396,2.475792973e-05,-13.07292621,0.2220003654,-117.3836723,-117.3836723,1.570695295,-0.1021083494,-0.1971244461,41.05380135,37.9224246,-15.7259123,2.10844873e-07,-5.214284743e-05,0.4146863621,6.770517453e-06,
56000,-10.6049809,0.294951735,43.64219569,43.64219569,1.83668523,0.2134458911,0.2035617291,75.71998075,69.15595461,30.83779218,-9.21613499e-08,8.764262607e-05,0.4459166583,6.366993129e-06,-11.15715013,0.2767849637,0.8993940103,-359.100606,1.765429229,0.2767508634,0.004344622192,88.26386064,88.25995297,0.8305398921,-3.421933831e-06,2.360438023e-06,0.009410155616,2.396287505e-05,-11.22391481,0.2746655931,-174.6498888,-534.6498888,1.75734886,-0.2734690206,-0.02561020949,28.53761038,28.49391792,-1.578558763,1.800409729e-06,-4.486346966e-06,0.05539984944,2.390950339e-05,-10.17587871,0.3098889315,-123.9051645,-123.9051645,1.898084223,-0.1728622195,-0.2571960399,36.06978868,31.34958717,-17.83908742,1.593160282e-07,-5.069962399e-05,0.5690373952,5.87919593e-06,
64000,-11.4386184,0.2679594515,8.582678231,8.582678231,1.732089095,0.2649587193,0.03998930761,85.96264452,85.64529606,7.379669158,-3.369793323e-07,1.835173164e-05,0.08616549301,4.686081354e-06,-10.20791715,0.3087479926,-57.22594501,-417.225945,1.89330082,0.1671337865,-0.2595989606,68.52789453,59.43535015,-34.11028409,7.290458148e-08,-8.482531755e-05,0.5739056639,2.118162247e-05,-10.36232066,0.303308071,126.2398336,-593.7601664,1.8707093,-0.1793055845,0.2446329767,35.55175339,31.29738938,16.8641806,-1.474602321e-07,4.193777662e-05,0.538836655,2.111263561e-05,-11.52637014,0.2652659415,-157.7009157,-157.7009157,1.72207335,-0.2454282357,-0.100652873,30.46266558,29.77262964,-6.447055021,3.857258823e-07,-1.603251055e-05,0.2165430161,4.416806042e-06,
72000,-16.62836508,0.1474286015,-3.34627463,-3.34627463,1.345844587,0.1471772357,-0.008605453692,67.25612638,67.24572009,-1.183074206,1.868424913e-06,-2.615168166e-06,0.01759330117,3.762489856e-06,-10.28989279,0.3058477998,-117.2813429,-477.2813429,1.881212506,-0.1401884499,-0.2718272893,38.46616734,32.98799314,-19.78480068,1.117264387e-07,-4.373401148e-05,0.5997576328,1.966981896e-05,-10.51745192,0.2979390331,66.62985274,-653.3701473,1.848755442,0.1181833751,0.2734965398,62.34161046,53.45092398,32.08543472,-6.889373138e-08,7.092438245e-05,0.6002783924,1.956145803e-05,-16.91042983,0.1427179203,-163.8825894,-163.8825894,1.3329544,-0.1371083698,-0.03961943586,37.95930489,37.83573446,-3.0603963,7.222872804e-07,-6.764961098e-06,0.08088639863,3.419616782e-06,
80000,-16.35621076,0.1521211018,2.285672636,2.285672636,1.358827427,0.1520000741,0.006066883595,67.92374223,67.91850299,0.8436295918,-2.358187536e-06,1.678347746e-06,0.01242120416,2.02112632e-06,-9.495033306,0.3351570311,178.8152821,-541.1847179,2.008229151,-0.3350853858,0.006929624711,24.90259324,24.89955857,0.3887585299,-5.11741e-06,7.734105213e-07,0.01561306916,1.830519294e-05,-10.34078507,0.3040610189,5.582665752,-714.4173342,1.873815168,0.3026188201,0.02957960307,93.33376023,93.13609334,6.071154411,-3.276867386e-07,1.207817793e-05,0.06518583927,1.821759816e-05,-15.28490319,0.1720896854,-160.9969668,-160.9969668,1.415720598,-0.162711028,-0.05603553516,36.04460181,35.80659423,-4.135351186,4.810804934e-07,-8.227019783e-06,0.1154913299,1.846208095e-06,
88000,-16.77434517,0.1449715363,-7.389155437,-7.389155437,1.339103416,0.1437676234,-0.01864448446,66.78376726,66.73537467,-2.541916118,7.115021954e-07,-4.597255854e-06,0.03808948599,1.041527811e-06,-11.06942938,0.2795944402,139.6333874,-580.3666126,1.776213999,-0.2130274358,0.1810866162,32.92125138,30.64119922,12.03850916,-1.502327967e-07,2.177259364e-05,0.3928863578,1.68584773e-05,-11.41402266,0.2687193046,-36.00630047,-756.0063005,1.734927932,0.2173811141,-0.1579731493,76.87768771,72.77379279,-24.78212965,7.297915571e-08,-4.482043676e-05,0.3405364583,1.687149623e-05,-16.36797489,0.1519152091,-171.4996206,-171.4996206,1.358254766,-0.150246403,-0.02245549255,36.94374989,36.90477285,-1.696583857,1.066012087e-06,-3.068405764e-06,0.04597193604,9.259813625e-07,
96000,-19.67356036,0.1038297915,-18.50010037,-18.50010037,1.231718909,0.0984641897,-0.0329458488,60.9085658,60.77389225,-4.048136373,4.095375841e-07,-6.711259522e-06,0.06660979285,1.007742694e-06,-11.46961987,0.2670047616,90.72191149,-629.2780885,1.728530685,-0.003364099536,0.2669835679,49.68695715,43.07474257,24.76611119,-6.694082804e-08,4.105884393e-05,0.5749566849,1.586134571e-05,-11.83246348,0.2560806869,-84.77550331,-804.7755033,1.688463607,0.02331828743,-0.2550168145,52.23837973,45.8526508,-25.02763936,6.624132491e-08,-4.149242206e-05,0.545827535,1.59727774e-05,-19.62477482,0.1044146072,179.5222033,-180.4777967,1.233176218,-0.1044109767,0.0008707163669,40.54600991,40.54594707,0.07138632243,-2.322383244e-05,1.183488134e-07,0.001760627821,7.237610828e-07,
104000,-21.21494371,0.08694664219,-7.951388601,-7.951388601,1.190452489,0.08611071898,-0.01202757932,59.42094304,59.40349583,-1.439845342,1.062847479e-06,-2.203447148e-06,0.02423839408,9.761109001e-07,-11.89688038,0.2541885484,44.00326931,-675.9967307,1.681642921,0.182837864,0.1765846358,71.52583719,66.91514396,25.26477575,-6.057192061e-08,3.866359565e-05,0.3775643936,1.620639512e-05,-12.33287299,0.2417443599,-131.1406085,-851.1406085,1.63763287,-0.1590458311,-0.1820570217,36.66865666,34.20042781,-13.22577478,1.157086082e-07,-2.023987915e-05,0.3867137232,1.606647954e-05,-20.67774528,0.09249382425,-167.4763061,-167.4763061,1.203841752,-0.09029306485,-0.02005666884,41.7215387,41.68743213,-1.686651528,9.073219727e-07,-2.581143538e-06,0.04045947283,8.240198017e-07,
112000,-20.36879091,0.0958430122,-11.94470557,-11.94470557,1.212005246,0.0937677996,-0.01983639949,60.34246443,60.29415048,-2.414214403,5.886081518e-07,-3.430662106e-06,0.04004060732,8.407393538e-07,-12.26674754,0.2435917767,-1.773037084,-721.7730371,1.644074903,0.2434751526,-0.007536826071,82.18079639,82.17024705,-1.316736875,1.079202918e-06,-1.871117701e-06,0.01602449698,1.581663321e-05,-12.71909551,0.2312305566,-176.8581748,-896.8581748,1.601560217,-0.2308830003,-0.01267321898,31.24507512,31.23387865,-0.8363871568,1.699005378e-06,-1.188528128e-06,0.02677820344,1.570881897e-05,-19.65911951,0.1040025588,-173.4307836,-173.4307836,1.232149232,-0.103319717,-0.01189824827,40.63677399,40.62502033,-0.9773041985,1.454026576e-06,-1.388774947e-06,0.02405670669,7.493444382e-07,
120000,-21.81781244,0.08111653255,-24.7228498,-24.7228498,1.176554559,0.07368150946,-0.03392531529,57.94430625,57.80962522,-3.948399566,3.359060222e-07,-5.236727569e-06,0.06830003743,4.13176009e-07,-12.67129143,0.2325066765,-47.49122797,-767.491228,1.605885861,0.1571054768,-0.1713978523,67.99619113,63.92800499,-23.16661793,5.725009998e-08,-3.072568131e-05,0.3623860611,1.553094942e-05,-13.27116173,0.2169910961,138.6777299,-941.3222701,1.554249371,-0.1629619499,0.1432778374,36.2367712,34.70169677,10.43531642,-1.270964041e-07,1.384026826e-05,0.3007148754,1.54549362e-05,-21.24069731,0.08668922783,173.1109878,-186.8890122,1.189835115,-0.08606336304,0.01039806538,42.07645381,42.06721995,0.8814595954,-1.504653417e-06,1.169072098e-06,0.02095359751,4.038717651e-07,
128000,-24.62143999,0.05873919636,-22.22101646,-22.22101646,1.124809609,0.0543767495,-0.02221401141,55.74735281,55.69203518,-2.482853582,5.007939259e-07,-3.087175161e-06,0.04458184324,-2.337746861e-07,-13.09286502,0.2214913392,-91.29035806,-811.2903581,1.569014451,-0.004987784041,-0.2214351719,49.5267858,44.89665126,-20.90916588,5.946664732e-08,-2.599841489e-05,0.4657177159,1.52778298e-05,-13.54870212,0.2101671787,94.1083343,-985.8916657,1.532181426,-0.01505690888,0.2096271273,48.57820898,44.48682578,19.51319348,-6.372088682e-08,2.42626656e-05,0.4386285857,1.522212748e-05,-23.97656649,0.06326618917,178.4379965,-181.5620035,1.135078265,-0.0632426802,0.001724555786,44.05192213,44.05165799,0.1525496803,-8.150774162e-06,1.896799663e-07,0.003462972503,-2.872373755e-07,
136000,-24.23637211,0.06140184122,-8.762967683,-8.762967683,1.130837336,0.06068510092,-0.009354391028,56.45996644,56.45001313,-1.060107796,1.103903715e-06,-1.2405985e-06,0.01877958459,6.899523405e-08,-13.42465472,0.2131902134,-134.8837418,-854.8837418,1.541910426,-0.1504420539,-0.1510538165,37.1830626,35.44996297,-11.21963769,1.043043427e-07,-1.312985881e-05,0.316492226,1.506063755e-05,-13.89165139,0.2020307288,50.8250557,-1029.174944,1.506362177,0.1276208629,0.156618424,64.22269193,61.04980197,19.93679609,-5.869834498e-08,2.333117387e-05,0.3265661058,1.504428542e-05,-23.18135907,0.06933173149,-169.2264496,-169.2264496,1.148993436,-0.06810966594,-0.01296003076,43.62435249,43.6095636,-1.135822344,1.030316881e-06,-1.329203974e-06,0.02604525819,3.414024166e-08,
144000,-23.20445479,0.06914762377,-16.55829115,-16.55829115,1.148568399,0.06628009182,-0.01970642792,57.09553418,57.05081431,-2.259338307,4.891886518e-07,-2.497117081e-06,0.03960220961,5.40104139e-07,-13.73581808,0.2056880667,-178.0775293,-898.0775293,1.517902497,-0.2055722923,-0.006900248143,32.94886032,32.9454399,-0.4747488984,2.328057346e-06,-5.247127354e-07,0.01441015509,1.494666759e-05,-14.20874689,0.194788205,7.869526496,-1072.130474,1.483818559,0.1929537724,0.02666995522,73.88677342,73.77347097,4.090264988,-2.702129724e-07,4.520735356e-06,0.05544357523,1.485418843e-05,-22.23866513,0.07727993414,-178.1258468,-178.1258468,1.167504614,-0.07723859486,-0.002527387062,42.82998822,42.82943447,-0.2177938228,5.074719963e-06,-2.407150241e-07,0.005085143558,5.912317022e-07,
152000,-24.76883606,0.05775082554,-28.54774383,-28.54774383,1.122580793,0.05072943382,-0.02759859407,55.3397481,55.25507506,-3.060130793,3.421657651e-07,-3.204177251e-06,0.0553818955,-2.339497934e-07,-14.06842265,0.1979606482,139.0291769,-940.9708231,1.49364323,-0.1494689144,0.129797773,37.1886866,35.90138015,9.699964657,-1.079459597e-07,1.015656134e-05,0.2701836145,1.477614459e-05,-14.55508939,0.1871740039,-34.84057625,-1114.840576,1.460551224,0.153622096,-0.1069315638,67.9028921,66.29426098,-14.69264159,7.126506065e-08,-1.538425353e-05,0.2216276548,1.471911053e-05,-23.80846509,0.0645025294,170.9012899,-189.0987101,1.137899955,-0.06369091775,0.01020016149,44.01286012,44.00362785,0.9014387247,-1.161556482e-06,9.43871243e-07,0.02048555469,-2.57002131e-08,
160000,-27.59614324,0.04170545252,-20.10612799,-20.10612799,1.087040989,0.03916381761,-0.01433667187,54.07514095,54.05284798,-1.552576356,6.406888721e-07,-1.54437626e-06,0.02872330347,-1.264437433e-06,-14.28847712,0.1930083703,96.52116929,-983.4788307,1.478340452,-0.02192001945,0.1917595989,47.92955162,44.52662348,17.73757932,-5.607971507e-08,1.764389642e-05,0.3983589577,1.467941433e-05,-14.99751735,0.1778787761,-76.95916307,-1156.959163,1.432731259,0.0401375398,-0.1732911911,54.0545454,50.89310347,-18.214991,5.460987571e-08,-1.81187866e-05,0.3579068627,1.46526671e-05,-26.29965313,0.04841917035,179.8603902,-180.1396098,1.101765754,-0.04841902661,0.000117980449,45.38171049,45.38170922,0.01073347259,-9.267442443e-05,1.067678262e-08,0.0002365153886,-9.036589795e-07,
168000,-26.75844688,0.04592801291,-3.620172234,-3.620172234,1.096277877,0.04583636631,-0.002899981668,54.80378416,54.80285849,-0.3185264641,2.974166854e-06,-3.01756317e-07,0.005812223538,-7.112931026e-07,-14.68041312,0.1844927668,55.04042681,-1024.959573,1.452461387,0.1057140446,0.1512022546,61.52321565,58.71330374,18.38080597,-5.154022372e-08,1.741307219e-05,0.3130603253,1.462723373e-05,-15.16626736,0.1744562897,-118.7157911,-1198.715791,1.422645797,-0.08382018076,-0.1530005697,42.43084244,40.4634398,-12.77052971,7.418258075e-08,-1.20981722e-05,0.315606626,1.462024814e-05,-25.19002584,0.05501722836,-167.849485,-167.849485,1.116440701,-0.05378473494,-0.01158005631,44.89669286,44.88458344,-1.042688115,9.085658867e-07,-9.877914738e-07,0.02323042869,-3.366256312e-07,
176000,-25.19676237,0.05497457514,-10.8141779,-10.8141779,1.116345177,0.05399827358,-0.01031457041,55.70740858,55.69548697,-1.152432931,7.846785919e-07,-1.04213294e-06,0.02069167528,5.004929659e-07,-14.95094799,0.1788350336,12.53327935,-1067.466721,1.435564207,0.1745734174,0.03880839039,71.10975235,70.88226586,5.683420262,-1.591100794e-07,5.13945698e-06,0.08018113125,1.457421261e-05,-15.41937438,0.1694459843,-161.1912723,-1241.191272,1.40803122,-0.1603975957,-0.0546310614,36.2137506,35.98677008,-4.048223241,2.233793434e-07,-3.660765566e-06,0.1124919861,1.456830971e-05,-23.98647899,0.06319402981,-175.73777,-175.73777,1.134913807,-0.06301925684,-0.004696665944,44.07179658,44.06983676,-0.4156223848,2.175747704e-06,-3.758429375e-07,0.009430994426,6.534434694e-07,
184000,-26.27469694,0.04855848776,-22.95109819,-22.95109819,1.102073511,0.04471450106,-0.01893515591,54.67898774,54.63963548,-2.074110634,4.170329695e-07,-1.794048695e-06,0.03795981828,-1.853408351e-07,-15.22027416,0.1733749273,-29.60904392,-1109.609044,1.419476575,0.1507351008,-0.08566092924,67.59337399,66.56301304,-11.75710432,7.357020006e-08,-1.016957211e-05,0.1766311917,1.464188721e-05,-15.66889258,0.1646475872,156.7439051,-1283.256095,1.394199106,-0.1512698413,0.06500971541,36.90978342,36.58452457,4.889240645,-1.769134677e-07,4.229058786e-06,0.1336423174,1.456234524e-05,-25.19311894,0.05499763988,173.5477791,-186.4522209,1.116396831,-0.05464927992,0.006180339528,44.81843909,44.81499486,0.5556243879,-1.556757651e-06,4.805998252e-07,0.01239818033,-2.621578033e-07,
