Frequency,S11_Magnitude,S11_Magnitude (linear),S11_Phase,S11_Unwrapped Phase,S11_VSWR,S11_Real,S11_Imaginary,S11_Impedance (absolute),S11_Resistance,S11_Reactance,S11_Capacitance,S11_Inductance,S11_Quality Factor,S11_Group delay,S12_Magnitude,S12_Magnitude (linear),S12_Phase,S12_Unwrapped Phase,S12_VSWR,S12_Real,S12_Imaginary,S12_Impedance (absolute),S12_Resistance,S12_Reactance,S12_Capacitance,S12_Inductance,S12_Quality Factor,S12_Group delay,S21_Magnitude,S21_Magnitude (linear),S21_Phase,S21_Unwrapped Phase,S21_VSWR,S21_Real,S21_Imaginary,S21_Impedance (absolute),S21_Resistance,S21_Reactance,S21_Capacitance,S21_Inductance,S21_Quality Factor,S21_Group delay,S22_Magnitude,S22_Magnitude (linear),S22_Phase,S22_Unwrapped Phase,S22_VSWR,S22_Real,S22_Imaginary,S22_Impedance (absolute),S22_Resistance,S22_Reactance,S22_Capacitance,S22_Inductance,S22_Quality Factor,S22_Group delay,
0,-13.33618728,0.2153726918,-134.3282484,-134.3282484,1.548980872,-0.1504955573,-0.1540664908,37.18934649,35.38782946,-11.43455371,inf,-inf,0.3231210811,1.035775662e-05,-13.54850078,0.2101720503,-133.4875637,-133.4875637,1.532197045,-0.1446397985,-0.152484817,37.62044601,35.84035232,-11.43534449,inf,-inf,0.3190633951,3.130982057e-05,-15.80003218,0.1621804089,-171.2027794,-171.2027794,1.387148762,-0.1602724864,-0.02480353066,36.19416431,36.14728265,-1.8415991,inf,-inf,0.05094709657,1.63270215e-05,-15.94824431,0.1594365119,-170.8271119,-170.8271119,1.379356263,-0.1573976073,-0.02541642238,36.40851017,36.35908573,-1.896443353,inf,-inf,0.05215871948,-7.682791003e-06,
8000,-24.87044971,0.05707915227,171.9046287,-188.0953713,1.12106881,-0.05651036065,0.00803795765,44.65155325,44.64574684,0.7200672452,-2.762848612e-05,1.432528268e-05,0.01612846231,1.035775662e-05,-19.43398834,0.1067334587,107.8380941,-252.1619059,1.238973372,-0.03269547646,0.1016023476,46.86533525,45.90562738,9.435731161,-2.108407663e-06,0.000187717907,0.2055462848,3.130982057e-05,-26.2606642,0.04863700124,-53.98731676,-53.98731676,1.102246989,0.02859682162,-0.0393418312,52.93918046,52.77529022,-4.162399516,4.7795431e-06,-8.280830727e-05,0.07887023451,1.63270215e-05,-10.85927673,0.2864416478,-69.1312073,-69.1312073,1.802854166,0.1020388542,-0.2676506862,60.51621254,52.27684446,-30.48513595,6.525923952e-07,-0.0006064825096,0.5831479743,-7.682791003e-06,
16000,1.661687308,1.210833325,-129.0069618,-129.0069618,nan,-0.7621164328,-0.9409016339,24.29200252,-5.840556814,-23.57942499,4.218586309e-07,-0.0002345488776,-4.037187847,1.035775662e-05,-22.49853118,0.07500210301,-15.75412561,-375.7541256,1.162167078,0.07218470067,-0.02036380233,57.77657834,57.72817744,-2.364431059,4.207009507e-06,-2.351943066e-05,0.04095800636,3.130982057e-05,-18.93671834,0.1130222849,-160.9160555,-160.9160555,1.254848082,-0.1068106443,-0.03695298546,40.36171948,40.24909189,-3.013138153,3.301270449e-06,-2.997223946e-05,0.07486226425,1.63270215e-05,-2.795944604,0.7247742743,25.44086639,25.44086639,6.266762565,0.654492278,0.3113480478,180.9881135,109.7256818,143.9339153,-6.910938206e-08,0.001431737131,1.311761412,-7.682791003e-06,
24000,-7.392303756,0.4269576626,121.9553945,-238.0446055,2.490143519,-0.2259711373,0.3622566642,33.42553916,25.01803884,22.16674086,-2.991624255e-07,0.0001469977658,0.8860303159,1.307862785e-05,-23.28561558,0.06850451897,-54.68305703,-414.683057,1.147085027,0.03960238978,-0.05589740462,54.11014832,53.77201188,-6.039775687,1.097963949e-06,-4.005250649e-05,0.1123219213,2.671267028e-05,-21.96124131,0.07978806533,131.7481271,-228.2518729,1.173412368,-0.05312746404,0.05952821124,44.9722328,44.65284261,5.350268227,-1.239462337e-06,3.548006813e-05,0.1198192078,2.911938084e-05,-6.604494833,0.4674931572,-50.72642858,-50.72642858,2.755820281,0.2959343225,-0.3619015456,84.98380224,62.34829921,-57.74890673,1.148325802e-07,-0.0003829593318,0.9262306663,6.528348689e-06,
32000,-6.191746558,0.4902444346,101.4946733,-258.5053267,2.923449072,-0.09769435786,0.4804117173,42.6561653,26.455576,33.46118553,-1.486376497e-07,0.0001664222837,1.264806539,1.532298749e-05,-19.89028422,0.101271161,-143.0884044,-503.0884044,1.225365331,-0.08097268626,-0.06082164194,42.53498997,42.21733157,-5.188669051,9.585486997e-07,-2.580632273e-05,0.1229037662,2.482353722e-05,-20.15169602,0.0982686973,40.82038903,-319.179611,1.217955608,0.0743660635,0.06423725919,57.99821532,57.51625937,7.461426757,-6.665738516e-07,3.711009221e-05,0.1297272604,2.713363915e-05,-5.819259239,0.5117254753,-69.39731083,-69.39731083,3.096056416,0.1800688166,-0.4789970598,67.05920099,40.92915072,-53.12006267,9.362925647e-08,-0.0002641975172,1.297854017,1.222876554e-05,
40000,-7.419602495,0.4256178909,48.32157014,-311.6784299,2.482002605,0.2830142848,0.3178891373,84.26710768,66.55991699,51.67903721,-7.699202214e-08,0.0002056243557,0.7764288111,7.116268892e-06,-14.08571388,0.197566955,146.8427815,-573.1572185,1.492419788,-0.1653977072,0.1080569301,35.95227361,35.07619996,7.888356852,-5.043982736e-07,3.138677465e-05,0.2248920026,2.626632809e-05,-15.10063868,0.1757794356,-34.17462306,-394.1746231,1.426534943,0.1454275031,-0.09873829715,66.82156289,65.47599675,-13.34223056,2.982165208e-07,-5.308704863e-05,0.2037728514,2.636962689e-05,-6.437405986,0.4765732927,-115.7203398,-115.7203398,2.820974307,-0.2068227708,-0.4293558487,35.20618647,23.55232623,-26.16798607,1.52051196e-07,-0.0001041191083,1.111057388,6.659509608e-06,
48000,-13.72242093,0.2060055654,47.15893049,-312.8410695,1.518909343,0.1400769999,0.1510520675,65.86042251,62.80869982,19.81571296,-1.673282202e-07,6.570351391e-05,0.3154931246,6.285754301e-06,-10.53970408,0.2971767274,66.02401913,-653.9759809,1.845665586,0.1207588441,0.2715350969,62.6583369,53.83148062,32.06616406,-1.034027012e-07,0.0001063226774,0.595676799,2.387361633e-05,-10.59485985,0.2952956214,-108.6790841,-468.6790841,1.838069495,-0.09457349865,-0.2797415903,41.94078675,35.75833424,-21.9173704,1.512831111e-07,-7.267203832e-05,0.6129304083,2.373194967e-05,-13.20656412,0.2186108909,-118.1564018,-118.1564018,1.559544248,-0.1031581107,-0.1927410849,40.95653413,37.96363953,-15.36879179,2.157442189e-07,-5.095873298e-05,0.4048292519,6.225364351e-06,
56000,-10.66656809,0.2928677802,46.64899386,-313.3510061,1.828325374,0.2010437627,0.2129623022,73.76038752,66.86045367,31.14922957,-9.123989885e-08,8.852774749e-05,0.465884209,4.600354874e-06,-11.03286413,0.2807739383,2.525606682,-717.4743933,1.780766864,0.2805012022,0.01237255026,88.97663805,88.94455219,2.389299968,-1.189491731e-06,6.790516081e-06,0.02686280283,2.235355311e-05,-11.1595188,0.2767094937,-173.2247635,-533.2247635,1.765140677,-0.2747771179,-0.03264474515,28.464557,28.3936765,-2.007520809,1.415702663e-06,-5.705479644e-06,0.07070309505,2.206734827e-05,-10.2191471,0.3083490715,-122.2438215,-122.2438215,1.891632061,-0.1645114181,-0.2607971303,36.67159557,31.77163079,-18.31309364,1.551923782e-07,-5.204677459e-05,0.5763976602,4.63107333e-06,
64000,-11.38304612,0.2696793508,11.81609953,-348.1839005,1.738523143,0.2639648153,0.05522253611,85.70410126,85.10257036,10.13634501,-2.45334584e-07,2.520702208e-05,0.1191073897,3.723616567e-06,-10.13863344,0.3112205947,-54.70989207,-774.7098921,1.903687283,0.1797973381,-0.2540298718,70.27596871,61.24958313,-34.45577374,7.217356385e-08,-8.568447982e-05,0.5625470734,1.982021597e-05,-10.27710012,0.3062985874,128.605384,-591.394616,1.883084802,-0.1911159324,0.2393606589,34.71629409,30.69614011,16.2162899,-1.533517223e-07,4.032660463e-05,0.528284333,1.991803062e-05,-11.45011889,0.2676048965,-155.7808167,-155.7808167,1.730766482,-0.2440510675,-0.1097791285,30.58240887,29.76145987,-7.038411668,3.533177801e-07,-1.750309388e-05,0.2364941672,3.509313409e-06,
72000,-16.65081036,0.1470481219,-0.2521245695,-360.2521246,1.344798167,0.1470466982,-0.0006470690355,67.23970399,67.23964517,-0.08894055978,2.485351257e-05,-1.966018018e-07,0.001322739874,3.288184397e-06,-10.15050144,0.3107956473,-114.6814276,-834.6814276,1.901896937,-0.1297797341,-0.2824024698,39.28142787,33.30766504,-20.82378508,1.061519466e-07,-4.603067123e-05,0.6251949828,1.895906279e-05,-10.40005061,0.3019934123,69.41332779,-650.5866722,1.86530247,0.106188101,0.2827085218,60.89579575,51.70547038,32.16896443,-6.871484238e-08,7.110902366e-05,0.6221578529,1.893166542e-05,-16.79648825,0.1446024288,-163.5955883,-163.5955883,1.338094083,-0.1387159866,-0.04083794141,37.83637379,37.70540665,-3.145392091,7.027694026e-07,-6.952843045e-06,0.08342018747,3.039071568e-06,
80000,-17.06999843,0.1401199838,16.98941113,-343.0105889,1.325905897,0.1340049758,0.0409423537,65.44366515,65.21657344,5.447187998,-3.652227148e-07,1.08368362e-05,0.08352459675,1.938838015e-06,-11.4560598,0.2674219245,-160.7835737,-880.7835737,1.730084433,-0.2525217225,-0.08801855139,29.97118358,29.44660314,-5.582957002,3.563410551e-07,-1.110694005e-05,0.1895959604,1.824955753e-05,-11.20679054,0.2752076318,23.18222924,-696.8177708,1.759410954,0.2529866739,0.1083373593,83.30778085,81.10881778,19.01436374,-1.04628102e-07,3.782787474e-05,0.2344302909,1.81668029e-05,-16.86931395,0.1433950971,-148.0146314,-148.0146314,1.334798684,-0.1216253399,-0.07595676774,39.21264729,38.74932348,-6.010127902,3.310140518e-07,-1.195676955e-05,0.1551027828,1.851108485e-06,
88000,-16.60091924,0.1478951861,-3.287517253,-363.2875173,1.347129094,0.1476518,-0.008481274515,67.32144946,67.3113286,-1.167304139,1.549363905e-06,-2.111161634e-06,0.01734186746,1.289939438e-06,-10.92172163,0.2843897363,142.5519433,-937.4480567,1.794817377,-0.225778407,0.1729208866,32.04166522,29.98896776,11.284065,-1.602772492e-07,2.040812186e-05,0.3762738717,1.740557036e-05,-11.27257126,0.273131278,-33.12916825,-753.1291682,1.751528494,0.2287312206,-0.1492739888,78.7802042,74.97503998,-24.18809528,7.477144761e-08,-4.374607872e-05,0.3226153035,1.734808137e-05,-16.27455546,0.1535579222,-169.8895447,-169.8895447,1.362831495,-0.1511733462,-0.02695653669,36.87636796,36.82028365,-2.03303366,8.895961411e-07,-3.676901778e-06,0.05521504612,1.242300186e-06,
96000,-19.51084942,0.1057931453,-14.58547154,-374.5854715,1.236618954,0.1023837555,-0.0266412497,61.39707625,61.30813185,-3.3036253,5.018317273e-07,-5.476961422e-06,0.05388559722,1.616120365e-06,-11.28698087,0.2726785378,93.87979401,-986.120206,1.749815733,-0.01845036842,0.272053614,48.311159,41.64872059,24.48166983,-6.771858302e-08,4.058727883e-05,0.5878132505,1.702302446e-05,-11.68480735,0.260471153,-81.72532973,-801.7253297,1.704424592,0.0374866776,-0.2577595208,53.64287521,46.94235027,-25.96100559,6.385977556e-08,-4.303981633e-05,0.5530401747,1.694492559e-05,-19.5047834,0.1058670545,-179.2898007,-179.2898007,1.236803833,-0.1058589217,-0.001312222013,40.42746295,40.42732055,-0.1073018613,1.545046816e-05,-1.778918919e-07,0.002654191765,1.496317614e-06,
104000,-21.11372329,0.08796579567,-3.03981113,-363.0398111,1.192900212,0.08784202153,-0.004664810891,59.62990094,59.62726533,-0.5606380401,2.729632814e-06,-8.579645708e-07,0.009402377201,8.987692313e-07,-11.72646556,0.2592249039,47.34667526,-1032.653325,1.69987478,0.1756406219,0.1906513119,70.38016827,65.14745091,26.63039102,-5.746577248e-08,4.075344583e-05,0.4087710362,1.615431178e-05,-12.16505692,0.2464604028,-127.9452644,-847.9452644,1.654140549,-0.1515505708,-0.194358315,37.26658345,34.43419329,-14.25077452,1.073861627e-07,-2.180847316e-05,0.4138553328,1.605389492e-05,-20.63552076,0.092944557,-165.8471264,-165.8471264,1.204936882,-0.09012339133,-0.02272586657,41.73668177,41.69288512,-1.911526978,8.005829939e-07,-2.925278533e-06,0.04584779808,8.555273921e-07,
112000,-20.09966999,0.09885906547,-6.406575177,-366.4065752,1.219408667,0.09824170253,-0.01103098861,60.8929764,60.87786881,-1.356341839,1.047690366e-06,-1.927397395e-06,0.02227971947,8.179538887e-07,-12.08766202,0.2486662808,1.687508123,-1078.312492,1.661932972,0.2485584353,0.007322802958,83.07503113,83.06491028,1.29671842,-1.095863416e-06,1.84267095e-06,0.01561090496,1.575796264e-05,-12.55473634,0.235647688,-173.4166511,-893.4166511,1.616594427,-0.2340938569,-0.02701664334,31.04297555,30.99229805,-1.773074242,8.014477024e-07,-2.51958509e-06,0.05721015715,1.566612572e-05,-19.4801096,0.1061682161,-171.5828142,-171.5828142,1.237557487,-0.1050246221,-0.01554087723,40.49782109,40.47782537,-1.272464656,1.116751079e-06,-1.808205714e-06,0.03143609235,8.206449157e-07,
120000,-21.29223805,0.08617635039,-20.31924237,-380.3192424,1.188606085,0.08081379999,-0.02992479068,58.78327262,58.67670181,-3.538050891,3.74864928e-07,-4.692485735e-06,0.06029737156,3.604897092e-07,-12.3105194,0.242367303,-43.97400331,-1123.974003,1.639801592,0.1744208201,-0.1682833535,70.40579799,66.29509321,-23.70521054,5.5949353e-08,-3.144001195e-05,0.3575711171,1.545856545e-05,-12.95976875,0.2249114483,141.5404055,-938.4595945,1.58035033,-0.1761162272,0.1398865044,35.27823177,33.83956799,9.971824066,-1.330038701e-07,1.322554243e-05,0.2946794141,1.539006596e-05,-20.84498482,0.09072996824,173.9373677,-186.0626323,1.199566609,-0.09022251887,0.009582495751,41.7250968,41.71730849,0.8061480144,-1.645220442e-06,1.069187011e-06,0.0193240658,3.820912009e-07,
128000,-24.34875614,0.06061249941,-17.72429192,-377.7242919,1.129046851,0.05773537521,-0.01845268369,56.12507866,56.08661449,-2.077529697,5.984983005e-07,-2.583196256e-06,0.03704145304,-3.765530656e-07,-12.89162026,0.2266830184,-87.37452868,-1167.374529,1.586261582,0.01038368816,-0.2264450702,50.99756929,46.02165788,-21.97177917,5.659068315e-08,-2.731966611e-05,0.4774225914,1.520129674e-05,-13.37721718,0.214357726,97.93962492,-982.0603751,1.545687861,-0.029609133,0.2123029296,47.24494319,43.16317503,19.21002287,-6.47265233e-08,2.388570388e-05,0.4450558343,1.514488555e-05,-23.93539239,0.06356680457,179.0006655,-180.9993345,1.135763672,-0.06355713592,0.001108655487,44.02410458,44.02399548,0.09801092485,-1.268632037e-05,1.218665872e-07,0.002226306899,-3.978793636e-07,
136000,-23.98087354,0.06323482527,-2.57200457,-362.5720046,1.135006781,0.06317112348,-0.002837654772,56.74302212,56.74210097,-0.3233218358,3.619480051e-06,-3.783696204e-07,0.005698094189,-1.269688749e-07,-13.23819252,0.2178162988,-130.7256488,-1210.725649,1.5569441,-0.1421115699,-0.1650704144,37.85273561,35.7655481,-12.39577195,9.440774958e-08,-1.450623809e-05,0.3465841462,1.498478058e-05,-13.71770671,0.2061174042,54.75964766,-1025.240352,1.519264197,0.1189313238,0.168344066,63.07219908,59.50097865,20.92213748,-5.593390903e-08,2.448427647e-05,0.3516267792,1.494264114e-05,-23.14001591,0.06966252383,-166.6409795,-166.6409795,1.149757536,-0.0677775522,-0.01609567159,43.65401196,43.63118978,-1.41139592,8.29148588e-07,-1.651695863e-06,0.0323483253,-5.772290428e-08,
144000,-22.71120208,0.07318800278,-9.857829932,-369.8578299,1.157934949,0.07210742586,-0.01253007933,57.76977479,57.75144757,-1.455054414,7.595885414e-07,-1.608188212e-06,0.02519511589,5.570366732e-07,-13.53380722,0.2105278905,-173.8353421,-1253.835342,1.533338387,-0.2093104904,-0.02260777049,32.69939627,32.6628592,-1.545362389,7.151996632e-07,-1.708000438e-06,0.04731252643,1.486432344e-05,-14.00482057,0.1994155274,11.88737589,-1068.112624,1.498174856,0.1951389407,0.04107732195,74.19232487,73.92226301,6.324563272,-1.74753989e-07,6.990177137e-06,0.08555694881,1.48326132e-05,-21.91087848,0.08025203904,-175.5641778,-175.5641778,1.174508762,-0.08001165139,-0.006206884188,42.59185964,42.58853561,-0.5321112202,2.07708956e-06,-5.881120206e-07,0.01249423613,7.2970556e-07,
152000,-24.08611268,0.06247328836,-22.42412157,-382.4241216,1.133272551,0.0577494032,-0.02383103416,56.12517531,56.06103586,-2.682454304,3.903410368e-07,-2.808722777e-06,0.04784881803,-1.358480102e-07,-13.87511843,0.2024156458,143.475563,-1296.524437,1.507571757,-0.1626618389,0.1204708257,36.18657663,35.09591138,8.817331374,-1.187515757e-07,9.232380744e-06,0.2512352872,1.470392449e-05,-14.35527741,0.1915297004,-30.60750237,-1110.607502,1.473807635,0.1648448949,-0.09751813568,69.50993661,68.12763593,-13.79335019,7.59113616e-08,-1.444263069e-05,0.2024633616,1.467130218e-05,-23.37831739,0.06777727911,172.0509991,-187.9490009,1.145410056,-0.06712604484,0.009373028764,43.71016252,43.70241333,0.8230287506,-1.272218004e-06,8.61770355e-07,0.01883256983,1.044450435e-07,
160000,-27.00881075,0.04462307172,-15.81956152,-375.8195615,1.093414589,0.04293297187,-0.01216463957,54.485195,54.46901253,-1.327835822,7.491275488e-07,-1.320822717e-06,0.02437782071,-1.281042675e-06,-13.76818897,0.2049229275,101.4786078,-1338.521392,1.515479403,-0.04078008306,0.200824279,46.22817015,42.63288451,17.8740279,-5.565160801e-08,1.777962434e-05,0.4192544818,1.461035327e-05,-14.5177457,0.1879804631,-72.96643007,-1152.96643,1.462994927,0.05506548529,-0.1797343785,55.63425385,52.13237242,-19.42642395,5.120440062e-08,-1.932382124e-05,0.3726364838,1.458375141e-05,-26.31118827,0.04835491081,179.1469161,-180.8530839,1.101623833,-0.04834955111,0.0007199356014,45.38803378,45.38798651,0.06550602074,-1.518514456e-05,6.516004376e-08,0.001443245796,-9.591897102e-07,
168000,-26.28432263,0.04850470508,2.365072571,-357.6349274,1.101954692,0.0484633874,0.002001623393,55.09314957,55.09270603,0.2210698107,-4.285301773e-06,2.094306735e-07,0.004012687462,-8.403583088e-07,-14.48536477,0.1886825606,59.88086359,-1380.119136,1.465126352,0.09468084553,0.1632073717,60.15681423,56.98144469,19.28619351,-4.912067542e-08,1.827079185e-05,0.3384644531,1.457738603e-05,-14.97634168,0.1783129628,-114.0802007,-1194.080201,1.434016736,-0.07275436255,-0.1627953176,43.38232147,41.11955331,-13.82780358,6.851058058e-08,-1.30997815e-05,0.3362829231,1.454370227e-05,-25.1255826,0.05542693582,-165.5005351,-165.5005351,1.117358705,-0.05366158673,-0.01387729526,44.90806602,44.89067263,-1.249761686,7.580251997e-07,-1.183962798e-06,0.0278401194,-4.501275053e-07,
176000,-24.51102044,0.05949068614,-3.805412482,-363.8054125,1.126507383,0.05935952127,-0.00394828726,56.31043798,56.30866993,-0.4462248613,2.026533095e-06,-4.035164341e-07,0.007924620877,4.570015308e-07,-14.75057014,0.1830085977,17.57292056,-1422.427079,1.448006178,0.1744682213,0.05525383773,71.053743,70.59380611,8.071488907,-1.120350235e-07,7.29896226e-06,0.1143370694,1.454103053e-05,-15.22521446,0.1732763444,-156.3822953,-1236.382295,1.419188064,-0.1587625403,-0.06942007866,36.35715675,35.99033329,-5.151578079,1.75536396e-07,-4.658517704e-06,0.1431378264,1.44846872e-05,-23.60189656,0.06605492015,-172.9760788,-172.9760788,1.141453543,-0.06555919015,-0.008077441604,43.8478163,43.84204547,-0.711366998,1.271199608e-06,-6.43281671e-07,0.01622567995,7.684399904e-07,
184000,-25.35141953,0.05400438485,-16.33003644,-376.3300364,1.114174704,0.0518257413,-0.0151844039,55.46451326,55.43880482,-1.688534976,5.12262126e-07,-1.460536348e-06,0.0304576367,1.135324575e-07,-15.02811733,0.1772532201,-24.48595213,-1464.485952,1.430881589,0.1613115828,-0.07346616419,69.10756066,68.3258601,-10.36493039,8.345184038e-08,-8.965379929e-06,0.1516984986,1.436896523e-05,-15.47509015,0.1683625491,161.6711176,-1278.328882,1.404894101,-0.1598210246,0.05294514167,36.25428986,36.04090148,3.927716106,-2.20222769e-07,3.397366486e-06,0.108979408,1.428455444e-05,-24.59279647,0.05893322074,174.5943327,-185.4056673,1.125247691,-0.05867112415,0.005551909398,44.45820248,44.45544287,0.495345579,-1.746200135e-06,4.284603122e-07,0.01114251815,2.733335862e-07,
