Frequency,S11_Magnitude,S11_Magnitude (linear),S11_Phase,S11_Unwrapped Phase,S11_VSWR,S11_Real,S11_Imaginary,S11_Impedance (absolute),S11_Resistance,S11_Reactance,S11_Capacitance,S11_Inductance,S11_Quality Factor,S11_Group delay,S12_Magnitude,S12_Magnitude (linear),S12_Phase,S12_Unwrapped Phase,S12_VSWR,S12_Real,S12_Imaginary,S12_Impedance (absolute),S12_Resistance,S12_Reactance,S12_Capacitance,S12_Inductance,S12_Quality Factor,S12_Group delay,S21_Magnitude,S21_Magnitude (linear),S21_Phase,S21_Unwrapped Phase,S21_VSWR,S21_Real,S21_Imaginary,S21_Impedance (absolute),S21_Resistance,S21_Reactance,S21_Capacitance,S21_Inductance,S21_Quality Factor,S21_Group delay,S22_Magnitude,S22_Magnitude (linear),S22_Phase,S22_Unwrapped Phase,S22_VSWR,S22_Real,S22_Imaginary,S22_Impedance (absolute),S22_Resistance,S22_Reactance,S22_Capacitance,S22_Inductance,S22_Quality Factor,S22_Group delay,
0,-13.28640721,0.2166105671,-133.6611717,-133.6611717,1.553008652,-0.14954627,-0.1567037041,37.26886555,35.40382189,-11.64206747,inf,-inf,0.3288364603,1.173589287e-05,-13.51792266,0.2109132514,-132.6718853,-132.6718853,1.534575576,-0.1429567845,-0.1550733936,37.75524451,35.91089369,-11.65616584,inf,-inf,0.3245857912,8.116016084e-07,-15.75739412,0.1629784916,-171.6755067,-171.6755067,1.389424859,-0.1612613482,-0.02359589558,36.12009194,36.07772077,-1.749029979,inf,-inf,0.04847950318,-2.552658045e-05,-15.87340296,0.1608162208,-171.0736722,-171.0736722,1.383268182,-0.1588685227,-0.0249529434,36.29861796,36.25107692,-1.857172059,inf,-inf,0.0512308107,-5.58925712e-06,
8000,-30.61889537,0.02944796114,-149.3949933,-149.3949933,1.06068291,-0.02534578778,-0.01499244667,47.52861625,47.50722725,-1.425735514,1.395375768e-05,-2.836410683e-05,0.03001091828,1.173589287e-05,-33.00170834,0.02238280869,-100.7595726,-100.7595726,1.045790538,-0.00417860569,-0.02198930148,49.58407852,49.5361493,-2.179622612,9.127436915e-06,-4.336221409e-05,0.04400064685,8.116016084e-07,-39.81569307,0.01021445846,146.4307973,-213.5692027,1.020639741,-0.008510876531,0.005648021088,49.15612142,49.15298489,0.5552921269,-3.582685027e-05,1.104718586e-05,0.01129722087,-2.552658045e-05,-24.05214478,0.06271808091,-9.566228852,-9.566228852,1.133829704,0.06184593346,-0.01042296447,56.59153408,56.57914484,-1.184102569,1.68012201e-05,-2.355697212e-05,0.02092825143,-5.58925712e-06,
16000,-7.604428352,0.4166569039,178.832312,-181.167688,2.428514049,-0.4165703789,0.008490879774,20.59484409,20.5904972,0.4231172936,-2.35092824e-05,4.208825549e-06,0.02054915379,1.173589287e-05,-36.15378911,0.01557078631,115.1321276,115.1321276,1.031634141,-0.006613024099,0.01409671233,49.34317174,49.32356324,1.390937396,-7.151424621e-06,1.383591014e-05,0.0282002618,8.116016084e-07,-28.8735444,0.03600168104,-63.75538435,-63.75538435,1.074692415,0.01592010194,-0.0322904226,51.61605248,51.50847301,-3.330777814,2.986444759e-06,-3.313185959e-05,0.06466465843,-2.552658045e-05,-10.19785719,0.3091057903,-8.453508825,-8.453508825,1.894799192,0.3057475024,-0.04544066894,93.89582824,93.42537164,-9.387571313,1.059612078e-06,-9.337989863e-05,0.1004820334,-5.58925712e-06,
24000,-6.702887794,0.4622273193,126.214634,-233.785366,2.719043514,-0.273089334,0.3729293638,30.79299602,22.34149522,21.19118201,-3.129346895e-07,0.0001405283903,0.9485122547,1.349562354e-05,-23.74860185,0.06494861699,-88.67060915,-88.67060915,1.138919889,0.001506818676,-0.06493113542,50.15027474,49.72917584,-6.485300794,1.022536375e-06,-4.300698662e-05,0.1304123924,1.682986499e-05,-23.4268855,0.0673993526,111.4958356,111.4958356,1.144540652,-0.02469738749,0.06271133695,47.59900764,47.22563609,5.950195345,-1.114493824e-06,3.945845839e-05,0.1259950281,9.065278685e-06,-6.147812695,0.4927304085,-47.08963569,-47.08963569,2.942676702,0.3354771584,-0.3608854828,91.46988457,66.21007554,-63.1107414,1.050765023e-07,-0.0004185161023,0.9531893883,9.013959378e-06,
32000,-6.010559901,0.5005782837,99.53715732,-260.4628427,3.004631627,-0.0829394115,0.4936594698,43.75452951,26.45407338,34.85169801,-1.427073071e-07,0.0001733381254,1.317441647,1.070951238e-05,-20.40250845,0.09547168273,-150.4034301,-150.4034301,1.211097167,-0.08301496708,-0.04715249139,42.3506397,42.16013115,-4.012483597,1.239529546e-06,-1.99564562e-05,0.09517246478,3.393656116e-05,-20.59309106,0.09339969267,33.37473259,33.37473259,1.206043814,0.07799720014,0.05138034022,58.43524071,58.12376373,6.025400105,-8.254376282e-07,2.996788159e-05,0.1036650024,9.556594605e-06,-5.685230316,0.5196829687,-71.82666627,-71.82666627,3.163916476,0.1620853524,-0.4937597863,64.91192132,38.58388078,-52.20001603,9.527951042e-08,-0.0002596215807,1.352896987,8.910234786e-06,
40000,-6.77826881,0.4582332083,55.91560506,-304.0843949,2.69162531,0.2568000502,0.3795146999,78.66165126,56.72370548,54.4984093,-7.300898555e-08,0.0002168422808,0.9607695555,7.569042334e-06,-12.75718874,0.2302186818,149.6581505,-210.3418495,1.598140476,-0.1986848941,0.1162968372,33.61709856,32.64681006,8.018423072,-4.962164682e-07,3.190429169e-05,0.2456112269,2.558722811e-05,-12.78343248,0.2295241439,-32.67427424,-32.67427424,1.595798407,0.1932026975,-0.1239114617,73.48292305,71.09056576,-18.5976192,2.139453193e-07,-7.399757562e-05,0.2616046025,2.671095617e-05,-6.760532812,0.4591698455,-107.6806652,-107.6806652,2.698018654,-0.1394551909,-0.4374805101,39.54618034,26.48647317,-29.3660879,1.354921224e-07,-0.0001168439512,1.108720203,7.079471941e-06,
48000,-12.0504661,0.2497334375,59.76484821,-300.2351518,1.665719226,0.1257532967,0.2157612064,63.64638925,57.81719305,26.60892807,-1.246096037e-07,8.822796735e-05,0.4602251799,7.404897515e-06,-11.22295622,0.2746959073,47.2812671,-312.7187329,1.757464104,0.18635368,0.2018171138,71.77587279,65.78025792,28.71817511,-1.154574749e-07,9.522165677e-05,0.4365774172,2.59053549e-05,-11.24241887,0.2740810798,-129.2852917,-129.2852917,1.75512863,-0.1735432614,-0.2121395172,35.77374526,32.515646,-14.91621986,2.222900984e-07,-4.945812756e-05,0.4587397667,2.565893808e-05,-11.56918671,0.2639615467,-106.465375,-106.465375,1.717249338,-0.07481616768,-0.2531367994,43.43276069,38.14968311,-20.76069315,1.597118149e-07,-6.883681118e-05,0.5441904481,7.278991105e-06,
56000,-9.664643426,0.3286758757,37.10657897,-322.893421,1.979186845,0.2621238294,0.1982900132,83.60688901,76.39623704,33.96655497,-8.367208738e-08,9.653473434e-05,0.4446103144,5.134291853e-06,-11.07957003,0.2792682083,-15.96904261,-375.9690426,1.774957374,0.2684913835,-0.07683169357,86.38749381,85.21217129,-14.2015827,2.00122241e-07,-4.03616444e-05,0.1666614344,2.475234869e-05,-11.18806508,0.2758015775,168.188079,-191.811921,1.761674063,-0.2699614294,0.05645650321,28.79992379,28.58723911,3.493618479,-8.134982604e-07,9.929047325e-06,0.1222090201,2.428838949e-05,-9.522687949,0.3340916355,-131.7146773,-131.7146773,2.003416246,-0.2223117895,-0.2493886308,32.73350064,28.54258734,-16.02506699,1.773504321e-07,-4.55440826e-05,0.5614440906,5.005954091e-06,
64000,-12.64260341,0.2332758762,2.311146145,-357.6888539,1.608500161,0.2330861224,0.009407123102,80.38902958,80.37312168,1.599183482,-1.555041066e-06,3.976843063e-06,0.01989699352,4.312333579e-06,-10.09646086,0.3127353374,-80.62694416,-440.6269442,1.910087058,0.05093270081,-0.3085599638,54.87626388,45.29381438,-30.98184495,8.026623301e-08,-7.704552766e-05,0.6840193385,2.095163926e-05,-10.26680739,0.3066617648,103.4548476,-256.5451524,1.88459499,-0.07135375495,0.2982449994,43.85263784,36.62661543,24.11524181,-1.031213373e-07,5.996968653e-05,0.6584075958,2.094266027e-05,-13.05929805,0.2223489574,-164.6271321,-164.6271321,1.571847642,-0.2143935449,-0.05894460745,32.39840521,32.15208113,-3.987522985,6.236443013e-07,-9.916156152e-06,0.1240206806,4.016999111e-06,
72000,-16.86966087,0.14338937,10.7086534,-349.2913466,1.334783074,0.1408922074,0.02664389831,66.38601472,66.28797907,3.60649166,-6.129184618e-07,7.972096874e-06,0.05440642045,3.233744873e-06,-10.55118297,0.2967842513,-142.821565,-502.821565,1.844077374,-0.2364650546,-0.1793465075,31.38757857,29.20924669,-11.48912515,1.923980539e-07,-2.53965425e-05,0.3933386326,2.015319964e-05,-10.79059929,0.288715457,41.2028474,-318.7971526,1.811814231,0.217224363,0.190184624,76.46919453,70.62969956,29.30841607,-7.542152109e-08,6.478582349e-05,0.4149588098,2.015980619e-05,-16.68401518,0.1464870526,-150.6855255,-150.6855255,1.343256779,-0.1277287429,-0.07172046304,38.72607745,38.31659982,-5.61669415,3.935562916e-07,-1.241561997e-05,0.1465864449,2.909171165e-06,
80000,-15.94134981,0.1595631162,10.86620745,-349.1337926,1.379714692,0.1567021605,0.03008024182,68.56164923,68.43138182,4.224420409,-4.709372164e-07,8.404217373e-06,0.06173220965,1.731401438e-06,-11.83375425,0.2560426347,169.0039229,-550.9960771,1.688326097,-0.2513417548,0.04883802913,29.95499651,29.79267748,3.114190901,-6.388294269e-07,6.195485946e-06,0.1045287354,1.912707961e-05,-11.71608288,0.2595349536,-7.366983819,-367.3669838,1.70100528,0.2573925484,-0.03327864457,84.6053823,84.39076008,-6.022485134,3.303348609e-07,-1.198135348e-05,0.07136427173,1.910214365e-05,-15.89662396,0.1603868662,-154.8247381,-154.8247381,1.382049446,-0.1451518466,-0.06822674174,37.37707329,37.01578993,-5.184293982,3.837430508e-07,-1.031382517e-05,0.1400562839,1.386714079e-06,
88000,-17.37048746,0.1353554125,-13.73687786,-373.7368779,1.313089134,0.1314837713,-0.03214195984,65.1205942,64.98141954,-4.255220625,4.250258819e-07,-7.695902232e-06,0.0654836514,2.000931009e-06,-11.3318984,0.271272069,109.0094491,-610.9905509,1.744508499,-0.08835984589,0.2564782117,42.34731979,37.04732339,20.51319875,-8.816659559e-08,3.709973841e-05,0.5537025857,1.832559366e-05,-11.69788508,0.260079275,-66.70221438,-426.7022144,1.70299227,0.1028639556,-0.2388728446,60.7736568,54.08657409,-27.71425382,6.525807661e-08,-5.012341465e-05,0.5124054219,1.826254626e-05,-17.50712731,0.1332427644,-178.5079391,-178.5079391,1.307451173,-0.1331975874,-0.003469432746,38.24599094,38.24503666,-0.2701737308,6.694133044e-06,-4.886305085e-07,0.007064282175,1.883582283e-06,
96000,-20.40652548,0.09542753942,-10.39826893,-370.3982689,1.210989265,0.09386032572,-0.01722366206,60.35484234,60.31840509,-2.096902919,7.906250572e-07,-3.476379842e-06,0.03476389862,1.968963171e-06,-11.8831525,0.254590606,58.02760244,-661.9723976,1.683089342,0.134808438,0.2159700482,64.77096728,58.8018241,27.15922835,-6.104238195e-08,4.502630669e-05,0.4618773102,1.798290146e-05,-12.27727273,0.2432967813,-117.6634901,-477.6634901,1.64304413,-0.1129572852,-0.2154854415,40.2620017,36.60419022,-16.76788716,9.887137092e-08,-2.779887631e-05,0.4580865484,1.787724071e-05,-20.30031606,0.09660157269,-170.6846081,-170.6846081,1.21386261,-0.09532761701,-0.0156367926,41.29884563,41.27828282,-1.303080061,1.272265642e-06,-2.160329509e-06,0.03156817512,1.758974506e-06,
104000,-19.87776954,0.1014171783,-7.472514939,-367.4725149,1.225726947,0.1005558789,-0.01318936249,61.17759663,61.15587868,-1.629979164,9.388684376e-07,-2.49441578e-06,0.0266528615,8.625282022e-07,-12.34134293,0.2415087408,8.77804647,-711.2219535,1.636813511,0.2386799313,0.03685596645,81.29160122,81.04368763,6.343904428,-2.412293578e-07,9.708305272e-06,0.07827758847,1.70496484e-05,-12.77479272,0.2297525626,-166.6295656,-526.6295656,1.596568197,-0.2235251962,-0.05312933904,31.77530033,31.57723113,-3.542341739,4.320125228e-07,-5.420973056e-06,0.1121802518,1.690842634e-05,-19.25834013,0.1089138207,-169.8791754,-169.8791754,1.244451823,-0.1072190537,-0.01913883107,40.31960457,40.28938741,-1.560696889,9.805465764e-07,-2.388390621e-06,0.03873717099,8.161620215e-07,
112000,-20.65345256,0.09275287331,-20.61904367,-380.6190437,1.204471021,0.08681135991,-0.03266317955,59.49522199,59.36647934,-3.911849967,3.632619578e-07,-5.558841597e-06,0.06589324498,2.712057429e-07,-12.79850155,0.2291262897,-39.83415682,-759.8341568,1.594458694,0.1759464871,-0.1467708768,70.79087199,67.62012475,-20.94913567,6.783221512e-08,-2.976927228e-05,0.3098062263,1.666845109e-05,-13.26375438,0.2171762256,145.1644256,-574.8355744,1.554853423,-0.1782570949,0.1240561206,35.07239457,33.94059504,8.837922241,-1.607873705e-07,1.255891974e-05,0.2603938508,1.654020014e-05,-20.21196223,0.0975892294,175.5316472,-184.4683528,1.216285604,-0.09729260873,0.007603024513,41.13386586,41.12901926,0.6314233431,-2.25051274e-06,8.972691628e-07,0.01535225868,4.238105449e-07,
120000,-23.70070877,0.06530772591,-21.0468966,-381.0468966,1.139741662,0.06095083786,-0.02345409194,56.48688305,56.42430741,-2.658098842,4.989623303e-07,-3.525413083e-06,0.04710910889,-1.415489365e-08,-13.31647984,0.2158619063,-87.57460818,-807.5746082,1.550571151,0.009134937352,-0.2156685316,50.88057631,46.35704947,-20.97276829,6.323872814e-08,-2.781599787e-05,0.4524181011,1.636182e-05,-13.91823176,0.2014134238,98.40248845,-621.5975115,1.504424767,-0.02943173681,0.1992514496,47.24722472,43.63315076,18.12314537,-7.318217479e-08,2.403656809e-05,0.4153526632,1.627421578e-05,-23.3064223,0.06834061539,176.6312002,-183.3687998,1.146707298,-0.06822252109,0.004015884368,43.61355102,43.61213112,0.3519262013,-3.768662826e-06,4.667566212e-07,0.008069456648,8.328313552e-08,
128000,-23.77781564,0.06473053823,-7.516440796,-367.5164408,1.138421152,0.06417433245,-0.008467445594,56.85698181,56.84876182,-0.9667784384,1.286125076e-06,-1.20209037e-06,0.01700614767,-2.259354398e-09,-13.76615529,0.2049709129,-133.8217659,-853.8217659,1.51563123,-0.1419254083,-0.147885948,37.80955913,36.12689549,-11.15393133,1.114762102e-07,-1.386877582e-05,0.3087431448,1.609391731e-05,-14.24192783,0.1940455147,51.64160094,-668.3583991,1.48152971,0.1204204934,0.1521596745,63.33464559,60.38723833,19.09604092,-6.511286806e-08,2.374397895e-05,0.316226432,1.605043956e-05,-22.890381,0.07169369273,-170.0426677,-170.0426677,1.154461285,-0.07061375589,-0.01239689703,43.40531823,43.39184497,-1.081406883,1.149796633e-06,-1.344619148e-06,0.02492189222,1.259711794e-07,
136000,-22.75857311,0.07278993718,-13.81998591,-373.8199859,1.157008514,0.07068274243,-0.017387492,57.60339265,57.56822297,-2.012597529,5.814659502e-07,-2.355256215e-06,0.03496021633,1.49151434e-07,-14.1783097,0.1954719814,-179.8383569,-899.8383569,1.485929581,-0.1954712035,-0.0005514655251,33.64902883,33.64900671,-0.03858691307,3.032781949e-05,-4.51566026e-08,0.001146747463,1.585809403e-05,-14.65303984,0.1850751065,5.783139486,-714.2168605,1.454213899,0.184133149,0.01864882064,72.55906595,72.50501392,2.800179992,-4.1792204e-07,3.276930053e-06,0.0386205014,1.585239981e-05,-21.92395463,0.08013131473,-178.2912951,-178.2912951,1.174223378,-0.08009568365,-0.002389364068,42.58442944,42.58393691,-0.204812162,5.713805876e-06,-2.396828528e-07,0.004809610779,3.705635055e-07,
144000,-24.31265132,0.06086497306,-24.19996431,-384.1999643,1.129619216,0.05551618184,-0.02494991983,55.87405542,55.80410569,-2.794970019,3.954398984e-07,-3.089120099e-06,0.05008538322,-1.903977176e-07,-14.6036744,0.1861299584,134.5453084,-945.4546916,1.45739479,-0.1305651532,0.1326540696,38.63130386,37.25013548,10.23743347,-1.079609126e-07,1.131484821e-05,0.2748294292,1.568457058e-05,-15.0976174,0.1758405891,-39.65222963,-759.6522296,1.426714994,0.1353852719,-0.1122084708,65.42961955,63.74274101,-14.76137131,7.487398274e-08,-1.631489729e-05,0.2315772913,1.565654777e-05,-23.57625647,0.06625019739,171.1789098,-188.8210902,1.14190139,-0.06546659016,0.01015944032,43.856192,43.84706169,0.8948507925,-1.235113909e-06,9.890272706e-07,0.02040845516,8.546880436e-08,
152000,-26.68694464,0.04630765273,-14.85291549,-374.8529155,1.09711235,0.04476037789,-0.01187043693,54.68508236,54.66961157,-1.300693558,8.050105174e-07,-1.361919797e-06,0.02379189317,-7.82597073e-07,-15.01859361,0.1774476775,89.88530068,-990.1146993,1.431456268,0.0003552288489,0.1774473219,50.03445036,46.97971116,17.21490526,-6.082356995e-08,1.802524517e-05,0.3664327607,1.557904087e-05,-15.51752674,0.1675419875,-84.22515352,-804.2251535,1.402523575,0.01685799488,-0.1666917082,51.66756332,48.87240168,-16.76381382,6.246024953e-08,-1.755291996e-05,0.3430118685,1.555567197e-05,-25.75924111,0.0515273662,-179.3157031,-179.3157031,1.108653354,-0.05152369129,-0.0006153887843,45.10009398,45.10005964,-0.05565591206,1.881331121e-05,-5.827574682e-08,0.001234054068,-5.020449828e-07,
160000,-25.27099162,0.05450676648,-4.258248873,-364.2582489,1.115298057,0.05435630084,-0.004047239887,55.74797427,55.74613714,-0.4525805909,2.197881249e-06,-4.501902387e-07,0.008118600034,-3.509419262e-07,-15.50718481,0.1677415916,45.458589,-1034.541411,1.403099782,0.1176580769,0.1195567585,63.11927782,61.29142965,15.07991656,-6.596312324e-08,1.500027038e-05,0.2460362997,1.5510268e-05,-15.72447368,0.1635973693,-128.8085405,-848.8085405,1.391192862,-0.1025297387,-0.1274823592,40.8369796,39.50386724,-10.34907609,9.611663745e-08,-1.029441635e-05,0.2619762776,1.548212344e-05,-24.21696593,0.0615391798,-170.7612145,-170.7612145,1.131149172,-0.06074088185,-0.009880077022,44.27425934,44.26555233,-0.8780192537,1.132911824e-06,-8.733819023e-07,0.01983527162,-2.938944868e-08,
168000,-24.5611164,0.05914856052,-12.52144578,-372.5214458,1.125734113,0.0577417076,-0.01282370519,56.1269398,56.10835932,-1.444086329,6.560209268e-07,-1.368056413e-06,0.02573745421,1.690627354e-07,-15.74297271,0.1632493138,0.3668142401,-1079.633186,1.390198219,0.1632459683,0.001045133943,69.50940697,69.50924669,0.1492710706,-6.346513412e-06,1.414120759e-07,0.002147499473,1.544597449e-05,-16.2119777,0.1546682297,-173.6403814,-893.6403814,1.365934974,-0.1537164377,-0.01713236914,36.67988166,36.65730172,-1.286836898,7.361856452e-07,-1.219086031e-06,0.03510451772,1.540095209e-05,-23.74326732,0.06498851809,179.9082148,-180.0917852,1.139011166,-0.0649884347,0.0001041085206,43.89773335,43.89773239,0.009179023628,-0.0001032082376,8.695755852e-09,0.0002091001773,4.721781411e-07,
176000,-26.13801819,0.04932863414,-20.31213543,-380.3121354,1.103776417,0.04626115431,-0.01712366047,54.84901142,54.81671723,-1.881904974,4.805181249e-07,-1.701786813e-06,0.03433085871,-3.287414556e-07,-16.1075788,0.1565384611,-44.04330757,-1124.043308,1.371181029,0.1125221204,-0.1088258343,62.50981096,61.00965968,-13.61241684,6.64312194e-08,-1.230956493e-05,0.2231190423,1.535515428e-05,-16.55670584,0.1486499296,142.1128067,-937.8871933,1.349209884,-0.1173177011,0.09128723123,39.57885895,38.90658628,7.263857085,-1.244916356e-07,6.568629324e-06,0.1866999338,1.528940146e-05,-25.43092281,0.05351232977,171.9901589,-188.0098411,1.113075598,-0.0529902715,0.007456578536,44.96790548,44.96287708,0.6724640959,-1.344740121e-06,6.08102187e-07,0.01495598457,-1.554138958e-07,
184000,-27.81705462,0.04065811773,-9.260475599,-369.2604756,1.08476252,0.04012821889,-0.006542827057,54.18039443,54.17574088,-0.7100988585,1.218101545e-06,-6.142159968e-07,0.0131073216,-7.543502617e-07,-16.45907135,0.1503302683,-87.78578363,-1167.785784,1.353855769,0.005808122284,-0.1502180259,50.57123936,48.33913447,-14.85861127,5.821355043e-08,-1.285229039e-05,0.3073826505,1.521762687e-05,-16.90003191,0.142888871,98.5404627,-981.4595373,1.333419707,-0.02122011537,0.1413044095,47.9619478,46.08250905,13.29476574,-6.50611326e-08,1.149960698e-05,0.2884991728,1.531287887e-05,-27.12081115,0.04405137233,-177.490755,-177.490755,1.092162635,-0.04400913457,-0.001928595004,45.78461758,45.78427567,-0.1769420107,4.888451947e-06,-1.530499763e-07,0.003864689528,-4.849330093e-07,
