Frequency,S11_Magnitude,S11_Magnitude (linear),S11_Phase,S11_Unwrapped Phase,S11_VSWR,S11_Real,S11_Imaginary,S11_Impedance (absolute),S11_Resistance,S11_Reactance,S11_Capacitance,S11_Inductance,S11_Quality Factor,S11_Group delay,S12_Magnitude,S12_Magnitude (linear),S12_Phase,S12_Unwrapped Phase,S12_VSWR,S12_Real,S12_Imaginary,S12_Impedance (absolute),S12_Resistance,S12_Reactance,S12_Capacitance,S12_Inductance,S12_Quality Factor,S12_Group delay,S21_Magnitude,S21_Magnitude (linear),S21_Phase,S21_Unwrapped Phase,S21_VSWR,S21_Real,S21_Imaginary,S21_Impedance (absolute),S21_Resistance,S21_Reactance,S21_Capacitance,S21_Inductance,S21_Quality Factor,S21_Group delay,S22_Magnitude,S22_Magnitude (linear),S22_Phase,S22_Unwrapped Phase,S22_VSWR,S22_Real,S22_Imaginary,S22_Impedance (absolute),S22_Resistance,S22_Reactance,S22_Capacitance,S22_Inductance,S22_Quality Factor,S22_Group delay,
0,-13.32721318,0.2155953259,-135.4755342,-135.4755342,1.549704338,-0.1537089224,-0.1511784102,36.94177147,35.21379815,-11.16614969,inf,-inf,0.3170958624,-2.547605427e-05,-13.4936232,0.211504124,-134.75094,-134.75094,1.536474902,-0.1489044819,-0.1502046928,37.29446793,35.57673889,-11.18807349,inf,-inf,0.3144772072,-6.723801801e-07,-16.28981979,0.1532883009,-161.4619765,-161.4619765,1.36207909,-0.1453346112,-0.04873555144,37.33755327,37.15292841,-3.708476094,inf,-inf,0.09981652195,-1.767832649e-05,-16.43552713,0.1507383106,-160.9188674,-160.9188674,1.35498672,-0.1424562374,-0.04927736529,37.55769728,37.36816182,-3.76843566,inf,-inf,0.1008461609,-4.750297668e-06,
8000,-27.71961984,0.04111677165,-147.9661156,-147.9661156,1.085759706,-0.03485610818,-0.02180918691,46.63334108,46.58889291,-2.035573064,9.773349943e-06,-4.049643939e-05,0.04369223943,-2.547605427e-05,-36.99297428,0.0141368056,-132.6672344,-132.6672344,1.028679041,-0.009581068524,-0.01039482556,49.05108729,49.04048631,-1.019738395,1.95092859e-05,-2.028705078e-05,0.02079380674,-6.723801801e-07,-51.00388865,0.00281712143,-24.9464299,-24.9464299,1.00565016,0.002554291123,-0.001188179284,50.25608286,50.25594096,-0.1194270837,0.0001665817106,-2.375926338e-06,0.002376377427,-1.767832649e-05,-26.44984224,0.04758914346,-9.578612128,-9.578612128,1.099934063,0.04692566615,-0.007918865539,54.92328566,54.91636736,-0.8717248764,2.282184256e-05,-1.734241539e-05,0.01587368062,-4.750297668e-06,
16000,11.38169891,3.707532317,25.10384841,25.10384841,nan,3.357319943,1.572958575,81.73352729,-79.35218722,19.58570567,-5.078797829e-07,0.000194822617,-0.2468199851,-2.547605427e-05,-19.77778288,0.1025913763,89.1240535,89.1240535,1.228639158,0.001568371307,0.1025793873,50.15544525,49.11090692,10.18270637,-9.768703509e-07,0.0001012892533,0.207341037,-6.723801801e-07,-13.96981144,0.2002209086,20.985013,20.985013,1.50069053,0.1869410834,0.07170386026,72.84266745,72.04312436,10.76301232,-9.242007394e-07,0.0001070616633,0.1493968011,-1.767832649e-05,7.125689375,2.271352131,117.0161292,117.0161292,nan,-1.03174196,2.023499205,35.28774313,-25.29053299,24.60922097,-4.0420556e-07,0.0002447924477,-0.9730605908,-4.750297668e-06,
24000,-7.808969979,0.4069597905,125.1075331,125.1075331,2.372452606,-0.2340477907,0.3329232686,32.67087917,25.53644107,20.37833465,-3.254169722e-07,0.0001351380288,0.7980099732,-1.590753489e-05,-20.42547208,0.09521960953,-80.12277175,-80.12277175,1.210481152,0.01633373975,-0.0938082245,51.64576897,50.74426167,-9.607567829,6.902325417e-07,-6.371216296e-05,0.1893330893,1.528950344e-05,-23.45268509,0.06719945414,101.4178844,101.4178844,1.144081078,-0.01330302666,0.06586953862,48.69276042,48.27190222,6.388143219,-1.038088179e-06,4.236269044e-05,0.1323366788,1.049065233e-06,-6.163960748,0.4918152178,-47.13141576,-47.13141576,2.93557633,0.3345912899,-0.3604592587,91.33647758,66.18808129,-62.94036885,1.053609326e-07,-0.0004173862843,0.9509320654,1.477801816e-05,
32000,-6.350346073,0.4813740742,94.84282299,94.84282299,2.856344044,-0.04063885129,0.479655588,46.80265227,29.256655,36.5313071,-1.361460174e-07,0.0001816918157,1.248649482,4.262278746e-07,-20.45971887,0.09484491611,-151.3408968,-151.3408968,1.209566113,-0.08322534363,-0.04548736406,42.33164421,42.15439225,-3.869795343,1.285233851e-06,-1.924678305e-05,0.09180052508,3.334418791e-05,-21.07481643,0.08836070624,29.92376769,29.92376769,1.193850149,0.07658133072,0.04407850034,58.27572545,58.04705113,5.157521868,-9.643375441e-07,2.565140936e-05,0.08885071279,1.550265694e-05,-5.59112314,0.5253440804,-73.7381792,-73.7381792,3.213578547,0.1471105676,-0.504326168,63.23313317,36.87305006,-51.36932265,9.68202755e-08,-0.0002554900507,1.393140046,1.840779741e-05,
40000,-8.100395715,0.3935321464,46.23289949,46.23289949,2.297784026,0.2722174493,0.284192207,83.42312764,69.22405342,46.55586595,-8.54644951e-08,0.0001852399049,0.6725388597,7.535926823e-06,-14.35109311,0.1916219893,127.3963912,-232.6036088,1.474090059,-0.1163769782,0.1522346404,39.79026754,37.94019472,11.99195628,-3.317952037e-07,4.771447799e-05,0.3160752434,2.631625631e-05,-14.23812651,0.194130456,-44.5223466,-44.5223466,1.481791271,0.138410555,-0.1361218285,65.72001075,63.23807136,-17.89039249,2.224028109e-07,-7.118360996e-05,0.2829054097,2.596230424e-05,-8.082713399,0.3943340962,-127.0049195,-127.0049195,2.302150554,-0.2373432225,-0.3149088347,32.31211213,25.90197412,-19.31735818,2.059740023e-07,-7.686132603e-05,0.7457871006,7.169491711e-06,
48000,-11.883343,0.2545850224,58.40348381,58.40348381,1.683069243,0.1333857788,0.2168450314,64.58647745,58.5925612,27.17213353,-1.220267807e-07,9.009540347e-05,0.4637471546,6.987296915e-06,-11.49868253,0.2661128668,45.20816616,-314.7918338,1.725214695,0.1874853151,0.1888526264,72.07185933,66.76654794,27.14002549,-1.221711447e-07,8.998894192e-05,0.4064913692,2.524517521e-05,-11.45462636,0.2674660611,-129.2831314,-129.2831314,1.730248926,-0.1693469435,-0.2070258596,36.04379859,32.9187651,-14.6802698,2.258628776e-07,-4.867578135e-05,0.4459544506,2.517216522e-05,-11.43689649,0.2680125776,-108.1194017,-108.1194017,1.732287385,-0.08335145011,-0.2547219612,42.7435966,37.47049038,-20.56641439,1.61220518e-07,-6.819263567e-05,0.5488696354,6.578657545e-06,
56000,-9.635441497,0.3297827424,34.80985642,34.80985642,1.984106985,0.2707684566,0.1882580677,85.28544865,78.56244008,33.18961827,-8.563076961e-08,9.43266394e-05,0.4224616526,4.687487349e-06,-11.16633386,0.2764924692,-17.35139405,-377.351394,1.76431124,0.2639103121,-0.08245867267,85.50072349,84.16931156,-15.02999366,1.890920661e-07,-4.271603189e-05,0.1785685707,2.331327742e-05,-11.28000215,0.2728977108,167.164153,-192.835847,1.75064462,-0.2660781476,0.06062656115,29.04950237,28.80336957,3.773524812,-7.531559211e-07,1.072455583e-05,0.1310098391,2.364228853e-05,-9.51523096,0.3343785822,-133.1814852,-133.1814852,2.004711006,-0.2288191118,-0.2438254505,32.28064642,28.29629853,-15.53575305,1.829362597e-07,-4.415342666e-05,0.5490383498,3.596942999e-06,
64000,-12.59740412,0.2344929521,-0.0627310528,-0.0627310528,1.612647402,0.2344928115,-0.0002567377029,80.63234333,80.63233142,-0.0438117959,5.676087764e-05,-1.089509982e-07,0.0005433527113,4.476826756e-06,-10.20774417,0.3087541414,-82.49752719,-442.4975272,1.893326557,0.04031371378,-0.3061109674,53.82653817,44.57816948,-30.16758223,8.243272421e-08,-7.502062238e-05,0.6767344326,2.103112355e-05,-10.33257695,0.3043484908,101.6013387,-258.3986613,1.875002747,-0.06120472773,0.2981308188,44.67967004,37.33926017,24.53675947,-1.013498131e-07,6.101791495e-05,0.6571303062,2.111354688e-05,-13.22562007,0.2181318068,-165.382565,-165.382565,1.557975906,-0.2110714084,-0.0550485757,32.61703134,32.40126443,-3.745503536,6.639417003e-07,-9.314303158e-06,0.1155974497,3.937896513e-06,
72000,-16.7818709,0.1448459828,7.966189104,7.966189104,1.338759989,0.1434482225,0.02007401765,66.73913436,66.68308779,2.734567162,-8.083492523e-07,6.04472057e-06,0.04100840637,3.390863489e-06,-10.69786549,0.2918144043,-144.461957,-504.461957,1.824118441,-0.2374580669,-0.1696151911,31.2714397,29.32058527,-10.87226839,2.033140869e-07,-2.403298968e-05,0.3708066633,2.028156578e-05,-10.93352248,0.28400362,39.58646345,-320.4135365,1.793310212,0.218871314,0.1809790157,76.83980885,71.49789097,28.1497391,-7.852596121e-08,6.222458506e-05,0.3937142581,2.027639555e-05,-16.65757673,0.1469336149,-150.169317,-150.169317,1.344483425,-0.1274647919,-0.07309045097,38.74875255,38.32338016,-5.725762555,3.860595509e-07,-1.265671408e-05,0.1494065119,2.915719536e-06,
80000,-16.15377108,0.1557081863,7.35901218,7.35901218,1.368849215,0.1544256251,0.01994406203,68.25401152,68.19705283,2.787843889,-7.136112595e-07,5.546239193e-06,0.04087924291,1.933284424e-06,-12.04750225,0.2498186675,165.9152684,-554.0847316,1.666022085,-0.242308344,0.06079500839,30.55675327,30.30300073,3.92979861,-5.062439545e-07,7.818085926e-06,0.1296834807,1.923442031e-05,-12.05290399,0.2496633539,-9.529361701,-369.5293617,1.66547024,0.2462182223,-0.04133252084,82.58578075,82.26670185,-7.252651063,2.743047709e-07,-1.442869084e-05,0.08816022643,1.918490779e-05,-15.91299046,0.1600849398,-156.3311955,-156.3311955,1.381193164,-0.1466188034,-0.06426596641,37.25983654,36.93982946,-4.872824467,4.082717943e-07,-9.694176259e-06,0.1319124787,1.46049303e-06,
88000,-17.41709879,0.1346309966,-17.72944944,-17.72944944,1.311152805,0.1282367089,-0.04099819174,64.68125824,64.4568899,-5.382797791,3.359923536e-07,-9.735214501e-06,0.08351004524,2.236267297e-06,-11.47727034,0.2667696894,106.3876609,-613.6123391,1.727655924,-0.07526502756,0.2559321059,43.40426298,38.0141148,20.94891694,-8.633281159e-08,3.788776912e-05,0.5510825925,1.841943004e-05,-11.83419201,0.2560297307,-69.25059272,-429.2505927,1.688279468,0.09070656222,-0.2394233542,59.37955929,52.84518214,-27.07985943,6.678686437e-08,-4.897606234e-05,0.5124376212,1.836803795e-05,-17.59550915,0.1318938491,-179.6935312,-179.6935312,1.303865717,-0.1318919623,-0.0007054822119,38.3476597,38.34762017,-0.05506503851,3.284441358e-05,-9.958946671e-08,0.001435944089,1.988572189e-06,
96000,-20.44022454,0.09505802199,-15.05420748,-15.05420748,1.210086446,0.09179568063,-0.02468968532,60.10054509,60.02606916,-2.991076971,5.54269919e-07,-4.958798804e-06,0.04982963258,2.176836676e-06,-12.02558847,0.2504497349,55.10201143,-664.8979886,1.668266683,0.1432865712,0.2054118502,65.92507107,60.37960465,26.46541779,-6.264265328e-08,4.387606315e-05,0.4383171759,1.800055175e-05,-12.4601995,0.2382264752,-120.2428054,-480.2428054,1.625452231,-0.1199864571,-0.2058035559,39.68243986,36.37040681,-15.87102838,1.044585109e-07,-2.631200645e-05,0.4363720335,1.796490462e-05,-20.38318766,0.09568428524,-171.6515575,-171.6515575,1.211616991,-0.09467035572,-0.01389266682,41.35324022,41.33699058,-1.15917488,1.430210418e-06,-1.921754293e-06,0.02804207235,1.71498657e-06,
104000,-20.00095136,0.09998904762,-13.02945014,-13.02945014,1.22219518,0.09741476067,-0.02254271604,60.78672863,60.72379192,-2.765406403,5.533855674e-07,-4.232000949e-06,0.04554073973,1.058416041e-06,-12.51071769,0.2368449426,5.70487902,-714.295121,1.620699399,0.2356718754,0.02354344915,80.81020466,80.70984235,4.026229609,-3.800915844e-07,6.16148408e-06,0.04988523695,1.709749596e-05,-12.94248118,0.2253595367,-169.5565612,-529.5565612,1.581842926,-0.2216263045,-0.04084974865,31.8841149,31.76666548,-2.734181248,5.597053936e-07,-4.18421597e-06,0.08607076651,1.699901321e-05,-19.40324706,0.1071118812,-171.1445755,-171.1445755,1.23992229,-0.1058351,-0.01648898692,40.43177498,40.40929472,-1.348083162,1.135194055e-06,-2.063020182e-06,0.03336071988,7.562980215e-07,
112000,-20.83554618,0.09082861483,-26.3374356,-26.3374356,1.199805265,0.08140030921,-0.04029673601,58.84560665,58.65226087,-4.766310633,2.981396697e-07,-6.773052656e-06,0.08126388586,4.715133105e-07,-12.98465937,0.2242678562,-42.95128579,-762.9512858,1.578209522,0.1641491094,-0.152810802,69.09081077,65.76916575,-21.16499397,6.71404055e-08,-3.00760126e-05,0.321807244,1.671205584e-05,-13.41595154,0.213403935,141.9289959,-578.0710041,1.542601074,-0.1680016476,0.1315928792,35.83235668,34.54317746,9.525055179,-1.491882463e-07,1.35353537e-05,0.2757434573,1.662250541e-05,-20.40076539,0.09549084368,174.69852,-185.30148,1.211144007,-0.09508236363,0.00882300137,41.31795502,41.31140481,0.7356895486,-1.931556973e-06,1.045434181e-06,0.01780838855,4.345389416e-07,
120000,-23.92065827,0.06367472622,-27.32902637,-27.32902637,1.136009842,0.05656765663,-0.02923304606,55.99049839,55.89427059,-3.281223197,4.042063318e-07,-4.351857427e-06,0.05870410621,1.579011202e-07,-13.50727122,0.2111720515,-90.78963235,-810.7896323,1.535407124,-0.002910214435,-0.2111519974,49.7221741,45.47760722,-20.10178696,6.59787707e-08,-2.6660823e-05,0.4420150528,1.642284221e-05,-14.09739806,0.1973013682,94.87771635,-625.1222836,1.491595128,-0.01677641993,0.1965868298,48.41047082,44.80603694,18.33010471,-7.235589831e-08,2.431105643e-05,0.4090989956,1.633157278e-05,-23.47753222,0.06700749596,176.2407385,-183.7592615,1.143639945,-0.06686331849,0.004393308016,43.73283323,43.73112987,0.3859817064,-3.436150393e-06,5.119241377e-07,0.008826245915,1.261043889e-07,
128000,-24.04729733,0.0627530926,-14.69421104,-14.69421104,1.133909415,0.06070065146,-0.0159179629,56.46058374,56.431767,-1.803660272,6.893748297e-07,-2.242667562e-06,0.03196178975,1.467987786e-07,-13.95244177,0.2006217025,-137.304337,-857.304337,1.501944331,-0.1474501154,-0.1360423867,37.35810836,35.94170831,-10.18930145,1.220297583e-07,-1.266935697e-05,0.2834951906,1.616792693e-05,-14.41925104,0.1901242211,48.17597795,-671.824022,1.469514526,0.1267833792,0.1416799006,64.18775812,61.58170491,18.10419601,-6.868010004e-08,2.251072098e-05,0.2939865993,1.609691067e-05,-23.02680035,0.07057647812,-171.6015753,-171.6015753,1.151871513,-0.0698196406,-0.01030810605,43.47435119,43.46502255,-0.900569898,1.380679052e-06,-1.119766804e-06,0.02071941633,1.263527058e-07,
136000,-23.17607821,0.0693738967,-21.12483855,-21.12483855,1.149090803,0.06471178931,-0.02500243723,56.91427351,56.84256267,-2.856151116,4.09732149e-07,-3.342430649e-06,0.05024669863,2.32383374e-07,-14.3638004,0.191341855,176.3924768,-903.6075232,1.473232988,-0.1909627063,0.01203952896,33.96771057,33.95710561,0.8487285109,-1.378835422e-06,9.932304253e-07,0.02499413586,1.593324895e-05,-14.84320057,0.1810672773,2.145299801,-717.8547002,1.442203058,0.1809403691,0.006778035677,72.08995172,72.08287222,1.010283052,-1.158345607e-06,1.182290747e-06,0.01401557708,1.589866672e-05,-22.21778294,0.0774659503,-179.8104311,-179.8104311,1.167941661,-0.0774655263,-0.0002563035377,42.81039442,42.81038873,-0.02207739402,5.300702309e-05,-2.583622345e-08,0.0005157017881,2.958170815e-07,
144000,-24.80039795,0.05754135736,-31.55343192,-31.55343192,1.122109034,0.0490340133,-0.03011101702,55.15130888,55.05090969,-3.326291134,3.322747817e-07,-3.676358862e-06,0.06042209206,-2.47060237e-07,-14.80303035,0.1819066108,130.6395118,-949.3604882,1.444708668,-0.1184753508,0.1380348011,39.58728495,38.06610183,10.86853353,-1.016919769e-07,1.201236691e-05,0.2855173764,1.56794497e-05,-15.28790272,0.1720302673,-43.50030946,-763.5003095,1.415547237,0.1247857074,-0.1184184957,64.02944317,62.20365229,-15.1814108,7.280236831e-08,-1.677914286e-05,0.2440597977,1.562172939e-05,-23.92837047,0.06361821454,170.9046258,-189.0953742,1.135880931,-0.06281831554,0.01005666219,44.09002331,44.08103521,0.8902191241,-1.24154001e-06,9.83908153e-07,0.02019505939,2.289154521e-08,
152000,-27.22606309,0.04352079754,-22.24573652,-22.24573652,1.091002078,0.04028148701,-0.01647609244,54.19603012,54.16651818,-1.788292254,5.855150307e-07,-1.872470736e-06,0.03301471673,-7.625784398e-07,-15.2094133,0.1735918514,85.79965843,-994.2003416,1.420111664,0.01271458633,0.1731255907,51.24988243,48.26620299,17.23148565,-6.076504458e-08,1.804260604e-05,0.3570093479,1.560363775e-05,-15.70623687,0.1639412176,-88.22494077,-808.2249408,1.392176294,0.005078189451,-0.1638625486,50.49699761,47.85599516,-16.11677681,6.496782865e-08,-1.687542563e-05,0.3367765471,1.556957424e-05,-25.86385878,0.05091046467,-179.272128,-179.272128,1.107282744,-0.05090635662,-0.0006467370435,45.15595886,45.15592088,-0.05855979323,1.78803909e-05,-6.131631947e-08,0.001296835323,-4.588131462e-07,
160000,-26.11428405,0.04946360867,-10.57609465,-10.57609465,1.10407515,0.04862332153,-0.009078611441,55.11039429,55.10126742,-1.002939835,9.918026582e-07,-9.976427022e-07,0.01820175618,-2.762431315e-07,-16.06704586,0.1572706592,42.20799652,-1037.792003,1.373241209,0.1164920821,0.1056581992,63.01844371,61.58926856,13.34489587,-7.453923987e-08,1.327441339e-05,0.2166756674,1.556667779e-05,-16.26172503,0.153784919,-131.591805,-851.591805,1.363465323,-0.1020853894,-0.1150146712,40.84806329,39.75948174,-9.367384211,1.061895586e-07,-9.317909382e-06,0.2356012655,1.553615247e-05,-24.63608295,0.05864025533,-172.2003651,-172.2003651,1.124586282,-0.05809775704,-0.007958025657,44.50955568,44.5038802,-0.7107701517,1.399493763e-06,-7.070161441e-07,0.01597097036,-5.178434889e-09,
168000,-25.25510554,0.05460654798,-20.63237766,-20.63237766,1.115521316,0.05110411467,-0.01924173969,55.38353375,55.34232321,-2.136134842,4.434883197e-07,-2.023669162e-06,0.03859857552,2.460319259e-07,-15.93821038,0.1596207991,-4.08414918,-1084.084149,1.379878034,0.159215446,-0.01136843284,68.93354712,68.91479277,-1.607873063,5.891950514e-07,-1.523219915e-06,0.02333131971,1.55409896e-05,-16.40801595,0.1512165072,-178.0108214,-898.0108214,1.356313497,-0.1511253843,-0.005248837165,36.87183126,36.86970358,-0.3961036173,2.391674326e-06,-3.752490992e-07,0.01074333609,1.550157466e-05,-24.1582003,0.06195694355,178.3489737,-181.6510263,1.132098294,-0.06193122226,0.001785094634,44.16807469,44.16779103,0.1582950147,-5.984716913e-06,1.49960917e-07,0.003583946831,3.618512333e-07,
176000,-26.93804547,0.04498810773,-28.38221026,-28.38221026,1.094214759,0.03958036653,-0.0213851449,54.1191889,54.06955623,-2.317260562,3.902407284e-07,-2.095474277e-06,0.04285702941,-2.286475876e-07,-16.30597423,0.1530034729,-48.57874451,-1128.578745,1.36128477,0.1012255821,-0.1147320541,61.09841605,59.47861331,-13.97537128,6.470593384e-08,-1.26377808e-05,0.2349646453,1.549570649e-05,-16.75863567,0.1452339726,137.6720354,-942.3279646,1.339821584,-0.1073718428,0.09779669809,40.38788069,39.60503756,7.91340042,-1.142731824e-07,7.156004508e-06,0.1998079261,1.544672917e-05,-25.91710202,0.05059934548,172.1686444,-187.8313556,1.106592186,-0.05012742667,0.006894552801,45.22675527,45.2224341,0.6251775575,-1.446452193e-06,5.653414693e-07,0.01382450038,-2.363757957e-07,
184000,-28.64465477,0.0369630042,-16.88553845,-16.88553845,1.076763415,0.03536941551,-0.01073629944,53.6661894,53.65378782,-1.153662472,7.497622034e-07,-9.978863317e-07,0.02150197625,-9.85059718e-07,-16.66327796,0.1468372025,-92.59722128,-1172.597221,1.344218484,-0.006653860312,-0.1466863667,49.3528454,47.2735653,-14.17439145,6.102360866e-08,-1.226045905e-05,0.2998375806,1.544247339e-05,-17.10753062,0.1395158241,93.92046387,-986.0795361,1.324272841,-0.009538923063,0.1391893463,49.07291377,47.20727963,13.4023735,-6.453875627e-08,1.159268474e-05,0.2839048046,1.523087417e-05,-27.31723044,0.0430663909,-176.6672905,-176.6672905,1.090009151,-0.04299355665,-0.00250361979,45.87789421,45.87731695,-0.2301455714,3.758371327e-06,-1.990695941e-07,0.005016543834,-9.734906511e-07,
