Frequency,S11_Magnitude,S11_Magnitude (linear),S11_Phase,S11_Unwrapped Phase,S11_VSWR,S11_Real,S11_Imaginary,S11_Impedance (absolute),S11_Resistance,S11_Reactance,S11_Capacitance,S11_Inductance,S11_Quality Factor,S11_Group delay,S12_Magnitude,S12_Magnitude (linear),S12_Phase,S12_Unwrapped Phase,S12_VSWR,S12_Real,S12_Imaginary,S12_Impedance (absolute),S12_Resistance,S12_Reactance,S12_Capacitance,S12_Inductance,S12_Quality Factor,S12_Group delay,S21_Magnitude,S21_Magnitude (linear),S21_Phase,S21_Unwrapped Phase,S21_VSWR,S21_Real,S21_Imaginary,S21_Impedance (absolute),S21_Resistance,S21_Reactance,S21_Capacitance,S21_Inductance,S21_Quality Factor,S21_Group delay,S22_Magnitude,S22_Magnitude (linear),S22_Phase,S22_Unwrapped Phase,S22_VSWR,S22_Real,S22_Imaginary,S22_Impedance (absolute),S22_Resistance,S22_Reactance,S22_Capacitance,S22_Inductance,S22_Quality Factor,S22_Group delay,
0,-13.07235735,0.2220149053,-134.5333938,-134.5333938,1.570743339,-0.1557045701,-0.1582615083,36.81986187,34.93457598,-11.63089119,inf,-inf,0.3329335153,-2.04934559e-05,-13.31692445,0.2158508572,-133.4235289,-133.4235289,1.550535212,-0.1483728198,-0.1567708484,37.35626988,35.4865623,-11.67025261,inf,-inf,0.328863994,-1.227233002e-05,-16.03263155,0.1578950164,-95.8432743,-95.8432743,1.375000788,-0.01607492544,-0.1570746096,48.45545327,46.12084847,-14.85928288,inf,-inf,0.3221814727,3.252649229e-06,-16.1337793,0.156066983,-95.08537313,-95.08537313,1.369856327,-0.01383378013,-0.1554526607,48.6672708,46.36979133,-14.77652527,inf,-inf,0.3186670642,3.05257819e-05,
8000,-14.84430736,0.1810442066,-7.235662323,-7.235662323,1.44213426,0.1796024609,-0.0228026493,71.87779786,71.79803169,-3.385331707,5.876637685e-06,-6.73490344e-05,0.04715075926,-2.04934559e-05,-16.25271271,0.1539445664,79.12592761,79.12592761,1.3639113,0.02904180648,0.1511803658,52.92220317,50.55331319,15.65637612,-1.270687913e-06,0.0003114737062,0.3097002971,-1.227233002e-05,-22.0455422,0.07901742813,-66.00815113,-66.00815113,1.171593753,0.03212901366,-0.07219058408,53.30175888,52.74794607,-7.663660078,2.595935582e-06,-0.000152463673,0.1452883126,3.252649229e-06,-12.63613147,0.2334497572,153.6894717,-206.3105283,1.609091862,-0.2092655295,0.1034733168,32.85350962,32.09375601,7.024522751,-2.832130892e-06,0.0001397484398,0.2188750593,3.05257819e-05,
16000,3.965385658,1.578589766,-107.9911944,-107.9911944,nan,-0.4875803239,-1.501403036,37.5301171,-16.69924051,-33.61019274,2.95957361e-07,-0.0003343267695,-2.012677925,-2.04934559e-05,-15.81467736,0.1619071888,-33.23464109,-33.23464109,1.386370547,0.1354245323,-0.08873631621,65.51973734,64.45799222,-11.7474772,8.467506493e-07,-0.0001168543165,0.1822501259,-1.227233002e-05,-14.09537736,0.1973472741,-179.2467311,-179.2467311,1.491737629,-0.1973302192,-0.002594454472,33.51924459,33.51875604,-0.1809739758,5.496472021e-05,-1.800181426e-06,0.005399185327,3.252649229e-06,-0.5233982261,0.9415211682,35.9849617,-324.0150383,33.20040959,0.7618518523,0.5532123149,153.3024199,15.64924314,152.5015841,-6.522675816e-08,0.001516961308,9.744981445,3.05257819e-05,
24000,-7.306560169,0.4311932876,120.0640059,120.0640059,2.516132908,-0.2160136665,0.3731832621,34.13058644,25.15744742,23.06512021,-2.875101409e-07,0.000152955329,0.9168307036,-1.151342414e-05,-21.70880193,0.08214098449,102.8280249,102.8280249,1.178983881,-0.01823738842,0.08009081718,48.22014187,47.60506089,7.677255988,-8.63779451e-07,5.091138499e-05,0.1612697441,4.558418351e-06,-22.75729415,0.07280065597,-63.96964807,-63.96964807,1.15703345,0.03194836501,-0.06541588096,53.28573563,52.8307137,-6.948763355,9.543361349e-07,-4.608041818e-05,0.1315288564,8.199583556e-06,-6.811347201,0.4564914419,-51.20293994,-411.2029399,2.679794863,0.2860210223,-0.355775788,83.63471838,62.20044221,-55.90949032,1.186105601e-07,-0.0003707613229,0.8988600134,2.179262916e-05,
32000,-6.345512521,0.4816420253,96.92253703,96.92253703,2.858337476,-0.05805102541,0.4781308597,45.49044202,28.4857107,35.46751473,-1.402295032e-07,0.0001764009465,1.245098467,-8.688855294e-06,-20.74426947,0.09178813091,31.4469747,31.4469747,1.202129336,0.07830659808,0.04788671707,58.47473405,58.20386989,5.62174807,-8.84705595e-07,2.796028107e-05,0.09658718709,1.029195219e-05,-20.59554572,0.09337330134,-143.7006747,-143.7006747,1.205979598,-0.07525283533,-0.05527733874,43.02132644,42.75624115,-4.768476766,1.043014828e-06,-2.371645776e-05,0.1115270341,1.297074076e-05,-5.611214074,0.5241303353,-72.2104266,-432.2104266,3.202831465,0.1601333655,-0.499069047,64.63561449,37.99520794,-52.28887869,9.511758708e-08,-0.0002600635472,1.376196671,1.253162757e-05,
40000,-6.097935937,0.4955679406,56.10077963,56.10077963,2.964855054,0.276394998,0.4113312398,80.55773757,54.44681315,59.37249885,-6.701543062e-08,0.0002362356669,1.090467842,7.172926431e-06,-13.20787109,0.2185779989,-18.85610453,-18.85610453,1.559436511,0.2068476261,-0.07064277164,75.9089166,75.08689932,-11.14096806,3.571389448e-07,-4.432850344e-05,0.1483743258,2.5306289e-05,-13.22871197,0.2180541727,158.1448175,-201.8551825,1.557721942,-0.2023821234,0.08117326126,33.26383969,32.79090387,5.5892445,-7.118803941e-07,2.223889726e-05,0.1704510654,2.596205192e-05,-5.948851453,0.5041472788,-106.026694,-466.026694,3.033455731,-0.1391875904,-0.4845526735,39.8971771,24.33331877,-31.61762702,1.258435231e-07,-0.0001258025407,1.299355313,6.970937012e-06,
48000,-13.20597839,0.2186256334,49.10993499,49.10993499,1.55959254,0.1431144691,0.1652737618,66.17558047,62.51592409,21.70176688,-1.527860842e-07,7.195715567e-05,0.3471398238,7.01355114e-06,-10.38952041,0.3023597514,-120.5966879,-120.5966879,1.866807074,-0.1538985913,-0.260262642,37.41804984,32.46735641,-18.60057047,1.78259478e-07,-6.167443196e-05,0.5729006771,2.512236535e-05,-10.49648497,0.2986590996,62.91736922,-297.0826308,1.851680258,0.135972027,0.2659113868,64.52727069,55.72341216,32.53720947,-1.019057269e-07,0.0001078845359,0.5839055472,2.493504321e-05,-13.00301356,0.223794455,-117.0585982,-477.0585982,1.576637094,-0.1018044384,-0.1992983051,41.08483256,37.88472006,-15.89690071,2.085770077e-07,-5.270979848e-05,0.4196124633,7.348136075e-06,
56000,-10.04374035,0.3146393111,40.68016629,40.68016629,1.918171457,0.2386098753,0.2050932068,79.60867039,72.45366459,32.98494943,-8.616210134e-08,9.374495981e-05,0.4552557778,5.474587005e-06,-10.67208237,0.2926819106,174.4392945,-185.5607055,1.827582144,-0.2913045759,0.028360974,27.45640686,27.40372613,1.70002113,-1.671774842e-06,4.831549396e-06,0.06203613048,2.451350233e-05,-10.76958596,0.2894147771,-1.13221769,-361.1322177,1.814581468,0.2893582716,-0.005718731943,90.7158386,90.70877146,-1.132322679,2.509931672e-06,-3.218120564e-06,0.01248305606,2.401905122e-05,-9.919957407,0.3191553505,-129.1603471,-489.1603471,1.937527675,-0.2015443164,-0.2474672227,34.07036133,29.83954935,-16.44356456,1.728367681e-07,-4.673347467e-05,0.5510661158,5.864734577e-06,
64000,-11.60174478,0.262973969,3.63770728,3.63770728,1.713608361,0.2624441261,0.01668499446,85.56853036,85.51359861,3.065589635,-8.111966315e-07,7.623495999e-06,0.0358491478,4.433901815e-06,-9.606586791,0.3308801092,113.0372141,-246.9627859,1.989000966,-0.1294829564,0.3044927104,39.41822832,32.53754034,22.25095937,-1.117612928e-07,5.533359644e-05,0.6838549914,2.121611165e-05,-9.781340844,0.3242895528,-63.12677943,-423.1267794,1.959847681,0.1465846643,-0.2892691657,65.61434552,55.10113752,-35.62452782,6.980572482e-08,-8.859093277e-05,0.6465298072,2.089377016e-05,-11.93439267,0.2530931356,-166.4567595,-526.4567595,1.677710027,-0.2460554925,-0.05926913121,30.31231307,30.07208713,-3.808661064,6.529318161e-07,-9.471363046e-06,0.1266510385,4.345731602e-06,
72000,-16.89187524,0.1430231167,0.002840624237,0.002840624237,1.333785239,0.1430231166,7.090835226e-06,66.68926191,66.6892619,0.0009655153421,-0.002289435729,2.134257491e-09,1.447782318e-05,3.77756493e-06,-9.823680541,0.3227126376,51.33251084,-308.6674892,1.952956324,0.2016307665,0.2519692054,73.32676927,63.90923609,35.95030783,-6.148724321e-08,7.946762773e-05,0.5625213197,2.0013183e-05,-10.04108784,0.3147354109,-124.7074457,-484.7074457,1.918580694,-0.1792060495,-0.2587345564,35.64310614,30.90771425,-17.7523017,1.245182376e-07,-3.924120232e-05,0.5743647544,1.986014111e-05,-17.82756435,0.1284167819,-165.7797913,-525.7797913,1.294674746,-0.1244819334,-0.03154549289,38.93978312,38.85990947,-2.492818746,8.867412942e-07,-5.510339245e-06,0.06414885623,3.493688397e-06,
80000,-16.43018924,0.1508309748,5.600411694,5.600411694,1.355243704,0.1501110131,0.0147196025,67.65782061,67.62714217,2.037236396,-9.765370346e-07,4.052953033e-06,0.03012453773,2.080343984e-06,-10.36410066,0.3032459204,-4.55530392,-364.5553039,1.870453232,0.3022880083,-0.02408419098,93.2860119,93.15503838,-4.941542248,4.025943094e-07,-9.830885942e-06,0.05304643028,1.884883118e-05,-11.07171635,0.2795208335,-176.1653071,-536.1653071,1.775930371,-0.27889503,-0.0186938119,28.19895967,28.17579714,-1.142708051,1.740984311e-06,-2.273345435e-06,0.04055636989,1.877018038e-05,-16.52847123,0.1491339217,-161.3274112,-521.3274112,1.350546168,-0.1412840424,-0.04774668558,37.64578584,37.46751689,-3.659285394,5.436681139e-07,-7.279916984e-06,0.09766554334,1.77634252e-06,
88000,-16.73593117,0.1456141038,-14.69812091,-14.69812091,1.340862611,0.1408490387,-0.03694611636,66.36745011,66.17913448,-4.996057754,3.620011993e-07,-9.03576463e-06,0.07549294491,1.534501687e-06,-10.5049599,0.2983678365,-54.9542816,-414.9542816,1.850496463,0.1713317285,-0.2442719892,69.25001418,61.02797211,-32.72844458,5.526015434e-08,-5.919197426e-05,0.5362859595,1.771170876e-05,-10.84599153,0.2868801,129.4010141,-590.5989859,1.804577463,-0.1820954767,0.2216786618,35.22957237,31.72158403,15.32526919,-1.180128634e-07,2.771695847e-05,0.4831180301,1.777695948e-05,-17.3726155,0.1353222546,177.9658658,-542.0341342,1.313000434,-0.1352369824,0.00480324741,38.08758127,38.08575778,0.3726954763,-4.852698822e-06,6.740491742e-07,0.009785691505,1.258177878e-06,
96000,-20.2066524,0.09764890553,-18.96876533,-18.96876533,1.216432176,0.09234617135,-0.03174103636,60.16278445,60.03959129,-3.848130816,4.308231892e-07,-6.37967751e-06,0.06409322137,1.829919052e-06,-10.92519714,0.2842759652,-105.2425587,-465.2425587,1.794373114,-0.07473783128,-0.2742755566,43.50307846,37.35657065,-22.29359695,7.43650293e-08,-3.695975161e-05,0.5967784667,1.706350606e-05,-11.31552084,0.2717840449,79.52839316,-640.4716068,1.74643804,0.04939627374,0.2672575073,54.83238085,47.49041685,27.40894557,-6.048623746e-08,4.544030389e-05,0.5771468729,1.727256482e-05,-21.32028219,0.08589856139,176.0910796,-543.9089204,1.187940983,-0.08569873363,0.005855758121,42.10683366,42.10390319,0.496765965,-3.337313961e-06,8.235704051e-07,0.01179857275,1.529867621e-06,
104000,-20.19764661,0.09775020332,-9.809395152,-9.809395152,1.21668102,0.0963210929,-0.01665380775,60.65547315,60.6212044,-2.038627058,7.506699106e-07,-3.119784359e-06,0.0336289435,1.578834918e-06,-11.30410101,0.2721416097,-153.3724679,-513.3724679,1.747787244,-0.2432779913,-0.1219707944,30.67804236,29.66579633,-7.815549321,1.95806581e-07,-1.196041642e-05,0.2634532117,1.665509591e-05,-11.72012419,0.259414227,31.45748767,-688.5425123,1.700564976,0.2212874989,0.1353794077,77.73147797,74.64969498,21.67038778,-7.061876357e-08,3.316297437e-05,0.2902943915,1.662896947e-05,-20.86418703,0.09052960985,-172.6067981,-532.6067981,1.199082039,-0.08977698624,-0.01164916316,41.76292777,41.75140973,-0.9807760263,1.560331768e-06,-1.500916852e-06,0.02349084816,1.313126197e-06,
112000,-19.87464938,0.1014536161,-23.19478554,-23.19478554,1.225817204,0.09325324083,-0.03995834449,60.26613969,60.07062136,-4.850571301,2.929605998e-07,-6.89278928e-06,0.080747813,8.035285528e-07,-11.61337581,0.2626220635,158.9393019,-561.0606981,1.712313321,-0.2450789765,0.09437501535,30.46477594,29.85737771,6.053062809,-2.347615286e-07,8.601561311e-06,0.2027325664,1.630109534e-05,-12.07588859,0.2490035682,-15.9184773,-735.9184773,1.663128499,0.239455006,-0.06829404832,81.28121893,80.43293276,-11.71238136,1.21326845e-07,-1.664360169e-05,0.1456167388,1.625924421e-05,-20.61141538,0.09320285829,171.928827,-548.071173,1.205564958,-0.09227963025,0.01308597091,41.55298345,41.53850922,1.096669969,-1.29576474e-06,1.558396844e-06,0.02640128377,3.519579148e-07,
120000,-22.69179306,0.07335172765,-35.32033361,-35.32033361,1.158316224,0.05985005585,-0.04240809785,56.35381369,56.15002682,-4.788194428,2.769919251e-07,-6.350540098e-06,0.08527501587,1.499978743e-07,-12.13413818,0.2473392794,113.121407,-606.878593,1.65723977,-0.09712537521,0.2274717139,41.54944213,37.39058224,18.11906458,-7.319865697e-08,2.403115576e-05,0.4845889925,1.604252689e-05,-12.4361498,0.2388869964,-62.33271101,-782.332711,1.627730693,0.1109239484,-0.2115723865,61.87149616,56.4482423,-25.33136352,5.23576708e-08,-3.359676434e-05,0.4487538051,1.596742046e-05,-24.07199476,0.0625749141,161.1379749,-558.8620251,1.133503818,-0.05921463114,0.0202298624,44.41173874,44.37514689,1.802463995,-7.358211849e-07,2.390592121e-06,0.04061877247,-1.435447285e-07,
128000,-25.09502742,0.05562225979,-17.78410726,-17.78410726,1.117796635,0.05296430283,-0.01698877305,55.59093191,55.5586714,-1.893605824,6.566297892e-07,-2.354505681e-06,0.03408299328,-7.449959276e-08,-12.38028145,0.2404284893,66.77473089,-653.2252691,1.633063473,0.0948123104,0.2209445276,59.93396114,54.26252611,25.44912491,-4.885818264e-08,3.164339083e-05,0.469000003,1.583834664e-05,-12.86664061,0.227335872,-107.7096241,-827.7096241,1.588446813,-0.0691539984,-0.2165625156,43.80489564,39.84565936,-18.19868984,6.832348942e-08,-2.262821442e-05,0.4567295443,1.574706488e-05,-26.0539274,0.04980851914,-175.8495009,-535.8495009,1.104838909,-0.04967789029,-0.003604968135,45.26737924,45.26619686,-0.3271780869,3.800370632e-06,-4.068125766e-07,0.007227867805,-1.83533397e-07,
136000,-22.84114242,0.07210126413,-14.67470368,-14.67470368,1.155407614,0.06974929881,-0.01826547577,57.49520215,57.45647533,-2.109908269,5.546482526e-07,-2.469134783e-06,0.03672185349,9.035011152e-07,-12.64518177,0.2332066399,21.69743045,-698.3025696,1.608264631,0.2166837519,0.08621768133,77.38973556,76.13425997,13.88328591,-8.42925041e-08,1.624701161e-05,0.1823526743,1.567415595e-05,-13.14315799,0.2202125675,-152.5777935,-872.5777935,1.56480153,-0.1954688131,-0.1014175428,33.79410147,33.05147284,-7.045667951,1.660959532e-07,-8.245241778e-06,0.2131725864,1.555563541e-05,-23.37215579,0.0678253761,-176.6505901,-536.6505901,1.145520752,-0.06770951708,-0.003962693574,43.65852644,43.65714267,-0.3475988099,3.366688554e-06,-4.067799177e-07,0.007962014658,8.465121146e-07,
144000,-22.90560854,0.07156811408,-32.44480637,-32.44480637,1.154169875,0.06039694988,-0.03839535647,56.41781573,56.25050309,-4.341754681,2.545612872e-07,-4.798692494e-06,0.07718605954,6.9469418e-07,-12.97341894,0.2245582696,-23.42090135,-743.4209013,1.579175097,0.2060568433,-0.08925801801,75.68453433,74.38153268,-13.98343066,7.903944939e-08,-1.545508411e-05,0.1879960006,1.537306447e-05,-13.45472636,0.2124533981,162.4463296,-917.5536704,1.539532258,-0.2025604746,0.06407574035,33.21564613,32.92048559,4.418232277,-2.501549468e-07,4.883218796e-06,0.1342092074,1.52771055e-05,-23.94974157,0.06346187823,163.4659904,-556.5340096,1.135524389,-0.06083779179,0.01806026244,44.26688765,44.23780499,1.604354128,-6.889019334e-07,1.773200624e-06,0.03626658529,2.610273404e-07,
152000,-26.40672375,0.04782597278,-41.00040012,-41.00040012,1.100456369,0.03609450072,-0.03137691332,53.74078417,53.63479605,-3.373504991,3.103810419e-07,-3.532302598e-06,0.06289769403,-6.221657284e-07,-13.31564607,0.2158826281,-67.48862249,-787.4886225,1.550638555,0.08265430919,-0.1994331324,58.63336549,54.09044995,-22.62951109,4.627019955e-08,-2.36947273e-05,0.4183642605,1.530042482e-05,-13.78579171,0.2045080532,118.5881622,-961.4118378,1.514167501,-0.0978592404,0.1795748114,41.3430177,38.71288559,14.5106031,-7.215909545e-08,1.519364612e-05,0.374826182,1.522381022e-05,-28.44573829,0.03781926511,159.2904548,-560.7095452,1.078611562,-0.03537557823,0.01337405242,46.58390046,46.56719719,1.24736838,-8.394248332e-07,1.306084497e-06,0.02678641737,-1.194965736e-06,
160000,-28.12345513,0.03924887774,-14.62485523,-14.62485523,1.081704568,0.03797720352,-0.009909915078,53.94723718,53.93661167,-1.070663813,9.290669793e-07,-1.065008989e-06,0.0198504092,-8.396128028e-07,-14.01346842,0.199217084,-110.004371,-830.004371,1.497555779,-0.0681505368,-0.1871976252,43.82331543,40.83001394,-15.9183208,6.248890237e-08,-1.58342465e-05,0.3898681206,1.527437945e-05,-14.35098552,0.1916243629,76.71707891,-1003.282921,1.474097323,0.04402754438,0.1864979136,54.44354978,50.77030874,19.65898936,-5.059865368e-08,1.955515833e-05,0.3872142961,1.521563532e-05,-28.34282836,0.03827001053,-167.578817,-527.578817,1.079585769,-0.03737421755,-0.008231741527,46.39746464,46.39115954,-0.7648803077,1.300488958e-06,-7.608405116e-07,0.01648763073,-1.027005826e-06,
168000,-25.05122689,0.05590345581,-14.62549276,-14.62549276,1.118427413,0.0540920117,-0.01411561693,55.71731999,55.69499056,-1.577267574,6.006278626e-07,-1.49422578e-06,0.0283197386,7.684914833e-07,-13.78285712,0.2045771595,-155.3369522,-875.3369522,1.514385932,-0.1859151168,-0.08536617311,34.42219245,33.88839051,-6.03856951,1.568833231e-07,-5.720643969e-06,0.1781899175,1.526540196e-05,-14.25467213,0.1937610118,31.06396471,-1048.936035,1.480654036,0.1659740902,0.09997965337,69.6581415,68.20176352,14.16954942,-6.685821997e-08,1.342353471e-05,0.207759282,1.523639258e-05,-25.23939364,0.05470541514,-173.9206798,-533.9206798,1.115742576,-0.05439776465,-0.005793586699,44.84103346,44.83800543,-0.5211052463,1.817964525e-06,-4.936694989e-07,0.01162195422,7.369214983e-07,
176000,-25.03862549,0.05598461882,-33.54183568,-33.54183568,1.118609548,0.04666220519,-0.03093406134,54.88969525,54.78428837,-3.400057798,2.659629639e-07,-3.074636394e-06,0.06206264423,8.893060304e-07,-14.02219609,0.1990170091,160.5521994,-919.4478006,1.496931923,-0.1876621365,0.06626230036,34.25933629,33.93775111,4.683072992,-1.930974492e-07,4.234853498e-06,0.1379900801,1.520350533e-05,-14.50222573,0.1883166473,-12.8967202,-1092.89672,1.464015054,0.1835661664,-0.0420312055,72.4336678,72.16013398,-6.288982014,1.437894793e-07,-5.687060083e-06,0.08715313661,1.520586459e-05,-25.97060941,0.05028859819,164.8604416,-555.1395584,1.105902905,-0.04854320879,0.01313392509,45.37117738,45.35545303,1.194410842,-7.571008378e-07,1.080093123e-06,0.02633444851,2.906445483e-07,
184000,-28.65311557,0.03692701661,-42.60818725,-42.60818725,1.076685811,0.02717829743,-0.02499889406,52.79196447,52.72592416,-2.639779199,3.2766851e-07,-2.283336458e-06,0.05006605842,-8.29237342e-07,-14.28218335,0.1931482744,117.4113041,-962.5886959,1.478770184,-0.08892062448,0.1714624695,42.05034896,39.61221746,14.11042436,-6.130024829e-08,1.220512927e-05,0.3562139478,1.501699239e-05,-14.76467952,0.1827115594,-56.00899133,-1136.008991,1.447116465,0.1021472355,-0.1514907793,61.09043949,58.29388859,-18.2719553,4.733880433e-08,-1.580473916e-05,0.3134454699,1.511132358e-05,-30.7375748,0.02904833605,162.4591559,-557.5408441,1.059834773,-0.02769765657,0.008754750001,47.30508392,47.29782188,0.8288606097,-1.04356813e-06,7.169416476e-07,0.0175242871,-1.701768551e-06,
192000,-30.57510639,0.02959679473,-13.43951482,-13.43951482,1.060998963,0.02878631073,-0.006878849638,52.96380781,52.95878738,-0.7292298546,1.136722516e-06,-6.044819584e-07,0.01376976118,-1.304480959e-06,-14.48025887,0.1887935081,74.69102411,-1005.308976,1.465463504,0.04984604611,0.1820943722,55.06878578,51.51750027,19.45554761,-4.26064592e-08,1.61273259e-05,0.377649294,1.500184194e-05,-14.9635866,0.1785750046,-98.71089312,-1178.710893,1.434793208,-0.02704496136,-0.1765151618,47.4443082,44.57319192,-16.25401311,5.099860505e-08,-1.347347152e-05,0.3646589444,1.504721586e-05,-30.3234959,0.0304666852,-159.9540164,-519.9540164,1.062848145,-0.02862094712,-0.0104431936,47.2178371,47.20752215,-0.9869106553,8.399260772e-07,-8.180818186e-07,0.02090579235,-1.493064114e-06,
