Frequency,S11_Magnitude,S11_Magnitude (linear),S11_Phase,S11_Unwrapped Phase,S11_VSWR,S11_Real,S11_Imaginary,S11_Impedance (absolute),S11_Resistance,S11_Reactance,S11_Capacitance,S11_Inductance,S11_Quality Factor,S11_Group delay,S12_Magnitude,S12_Magnitude (linear),S12_Phase,S12_Unwrapped Phase,S12_VSWR,S12_Real,S12_Imaginary,S12_Impedance (absolute),S12_Resistance,S12_Reactance,S12_Capacitance,S12_Inductance,S12_Quality Factor,S12_Group delay,S21_Magnitude,S21_Magnitude (linear),S21_Phase,S21_Unwrapped Phase,S21_VSWR,S21_Real,S21_Imaginary,S21_Impedance (absolute),S21_Resistance,S21_Reactance,S21_Capacitance,S21_Inductance,S21_Quality Factor,S21_Group delay,S22_Magnitude,S22_Magnitude (linear),S22_Phase,S22_Unwrapped Phase,S22_VSWR,S22_Real,S22_Imaginary,S22_Impedance (absolute),S22_Resistance,S22_Reactance,S22_Capacitance,S22_Inductance,S22_Quality Factor,S22_Group delay,
0,-13.07849279,0.2218581363,-134.4211706,-134.4211706,1.570225422,-0.1552845635,-0.1584542109,36.85139805,34.9605033,-11.65284289,inf,-inf,0.333314506,1.255434832e-05,-13.41151035,0.2135130787,-133.162729,-133.162729,1.54295392,-0.1460584824,-0.15573938,37.52520686,35.67349708,-11.64228311,inf,-inf,0.3263566532,1.513557428e-05,-15.97931838,0.1588671414,-96.36515683,-96.36515683,1.377745655,-0.01761273787,-0.1578878086,48.3106079,45.95917479,-14.88855559,inf,-inf,0.3239517607,4.541548459e-06,-16.13001868,0.156134568,-95.49601283,-95.49601283,1.370046128,-0.01495401985,-0.1554167964,48.56088701,46.26932146,-14.74142596,inf,-inf,0.3186004353,1.953292439e-06,
8000,-21.12440177,0.0878577165,-125.3460752,-125.3460752,1.192640377,-0.05082689665,-0.07166313505,45.18673631,44.72261475,-6.459788529,3.079724328e-06,-0.0001285134095,0.1444412087,1.255434832e-05,-29.37647793,0.03397630164,-174.2005087,-174.2005087,1.070342584,-0.03380239754,-0.003433219116,46.73032179,46.72921766,-0.3212341159,6.193105559e-05,-6.390749679e-06,0.006874373934,1.513557428e-05,-23.05526398,0.0703455778,-1.467424892,-1.467424892,1.151337048,0.0703225077,-0.001801451485,57.56415656,57.56377922,-0.2084281177,9.544953964e-05,-4.146545652e-06,0.003620820602,4.541548459e-06,-29.29385613,0.03430103255,53.41384045,53.41384045,1.071038768,0.02044447626,0.02754240775,52.08550193,52.0064734,2.868141535,-6.936327111e-06,5.705986285e-05,0.05514970248,1.953292439e-06,
16000,-1.483867926,0.8429592948,-149.911584,-149.911584,11.73555157,-0.7293728886,-0.4226056816,14.09432341,4.565948937,-13.33424399,7.459878455e-07,-0.0001326381777,2.920366428,1.255434832e-05,-24.44333383,0.0599560908,135.2209158,-224.7790842,1.127560192,-0.04255850696,0.04223157952,45.92486228,45.76074751,3.879041413,-2.564340744e-06,3.858553846e-05,0.08476787692,1.513557428e-05,-23.46031804,0.06714042689,-31.67334776,-31.67334776,1.14394541,0.05714022626,-0.0352538149,56.05230616,55.9122411,-3.960091042,2.511857389e-06,-3.939175403e-05,0.07082690595,4.541548459e-06,-5.656288453,0.5214174692,11.71337672,11.71337672,3.17900753,0.5105591796,0.1058560404,151.1973827,145.1846704,42.21445268,-2.356345591e-07,0.0004199149258,0.2907638428,1.953292439e-06,
24000,-7.634634809,0.415210435,123.3846316,-236.6153684,2.420033666,-0.2284723607,0.3466988401,33.1325385,25.39672647,21.2784255,-3.116516286e-07,0.0001411069417,0.8378412678,1.572593395e-05,-23.4344052,0.06734102774,137.4451446,-222.5548554,1.14440654,-0.04960543363,0.04554245241,45.28324071,45.09486211,4.126172649,-1.607168804e-06,2.736253221e-05,0.09149983958,1.785136458e-05,-20.66829084,0.09259455692,-46.84780625,-46.84780625,1.204086404,0.06332899472,-0.0675513908,56.72816228,56.20867038,-7.659619395,8.657683391e-07,-5.079442871e-05,0.1362711365,1.689254747e-05,-6.818086268,0.456137404,-49.77369845,-49.77369845,2.677399429,0.2945772937,-0.3482607491,85.20351767,63.97883659,-56.27031092,1.178499968e-07,-0.0003731540889,0.8795144445,1.439648761e-05,
32000,-6.310738337,0.4835741567,100.4308602,-259.5691398,2.872772879,-0.08755056091,0.4755826577,43.34292483,27.18899558,33.75452047,-1.473459526e-07,0.000167881212,1.241477287,1.369933942e-05,-20.64617622,0.09283060677,33.06217468,-326.9378253,1.204659918,0.07779938744,0.05064362612,58.41273666,58.1102398,5.936988644,-8.377297431e-07,2.952815906e-05,0.1021676845,2.265200951e-05,-20.11197835,0.09871907622,-139.073264,-139.073264,1.219063942,-0.07458698716,-0.06467022001,43.08606747,42.72318326,-5.580217082,8.912900518e-07,-2.775372288e-05,0.1306133265,2.282309857e-05,-5.967431774,0.5030699905,-72.0296545,-72.0296545,3.024711653,0.155209526,-0.4785283883,64.39336358,39.61769337,-50.76360552,9.797554607e-08,-0.0002524774609,1.281336726,1.14554952e-05,
40000,-7.169479158,0.4380523778,63.02925376,-296.9707462,2.559050561,0.198672311,0.3904090145,70.71388143,50.85362352,49.13615778,-8.097648976e-08,0.0001955065599,0.9662272692,7.419452773e-06,-14.70649676,0.183939568,-20.18078808,-380.1807881,1.450798889,0.1726472884,-0.06345611452,70.76328971,70.16058435,-9.216049811,4.317330808e-07,-3.666949708e-05,0.1313565144,2.695660798e-05,-14.46097329,0.1892131585,168.9798497,-191.0201503,1.466739589,-0.1857240711,0.03616889202,34.35453057,34.25825347,2.570182849,-1.548089693e-06,1.022643263e-05,0.075023756,2.650010905e-05,-7.014894134,0.4459182975,-112.0240656,-112.0240656,2.609575972,-0.1672175775,-0.4133780471,37.54212869,26.12561858,-26.9604058,1.475821101e-07,-0.0001072720463,1.031952821,6.909114173e-06,
48000,-13.78018673,0.2046400643,42.99561725,-317.0043827,1.514584794,0.1496749438,0.1395527395,67.19932325,64.51762574,18.79428141,-1.764221738e-07,6.231672476e-05,0.2913046039,6.932837258e-06,-10.056657,0.3141717638,-112.1550548,-472.1550548,1.916182062,-0.1184786894,-0.2909754239,40.16165541,33.7396958,-21.7851209,1.522014955e-07,-7.223353496e-05,0.6456821969,2.420856854e-05,-10.07635911,0.3134599389,71.76020487,-288.2397951,1.913158479,0.09811128449,0.2977101093,59.89713328,49.98383113,33.00429064,-1.004635433e-07,0.00010943325,0.6602993386,2.462598061e-05,-13.61934285,0.2084648595,-122.1205706,-122.1205706,1.526735577,-0.1108413252,-0.1765553688,40.29740841,37.80380886,-13.95539895,2.375946394e-07,-4.627230678e-05,0.3691532511,6.588979332e-06,
56000,-10.61077835,0.2947549332,45.2621331,-314.7378669,1.835893641,0.2074674801,0.2093745815,74.75001035,67.9459506,31.15945835,-9.120994733e-08,8.855681823e-05,0.4585918377,5.813103862e-06,-10.63945795,0.2937832983,-178.1213957,-538.1213957,1.83199193,-0.2936253978,-0.009630791359,27.30391184,27.29784678,-0.5754675474,4.938684324e-06,-1.635509013e-06,0.02108106005,2.350300719e-05,-10.7533917,0.289954875,6.133889056,-353.8661109,1.816722388,0.2882948595,0.03098231031,90.44813292,90.24185697,6.105079877,-4.655225833e-07,1.735095786e-05,0.06765241853,2.385517037e-05,-10.29115553,0.3058033393,-124.2194845,-124.2194845,1.881027976,-0.1719729754,-0.2528655336,36.10587663,31.53073086,-17.59111532,1.615618171e-07,-4.999487424e-05,0.5579038239,5.4160199e-06,
64000,-11.26605816,0.2733361619,9.481564044,-350.518436,1.752304292,0.269602023,0.04502673212,86.80152055,86.39332057,8.408218124,-2.957577871e-07,2.090952308e-05,0.09732486341,3.732677713e-06,-9.674571687,0.3283004029,123.4290915,-596.5709085,1.977521512,-0.180862188,0.2739890937,35.62626813,30.35779134,18.64498554,-1.333761284e-07,4.636627519e-05,0.614174639,2.013498752e-05,-9.863899431,0.3212218126,-52.26440437,-412.2644044,1.94647064,0.196593685,-0.2540361705,72.58746736,63.1564433,-35.77993972,6.950252027e-08,-8.897741048e-05,0.5665287317,1.999044654e-05,-11.35560193,0.2705327849,-160.8132474,-160.8132474,1.741727056,-0.2555053333,-0.08891013655,29.78529084,29.25176113,-5.612309814,4.43096705e-07,-1.395666952e-05,0.1918622879,3.702937172e-06,
72000,-16.60545725,0.1478179373,-3.922415256,-363.9224153,1.346916331,0.1474716876,-0.01011157462,67.29603677,67.28165848,-1.391041475,1.589086566e-06,-3.074876762e-06,0.02067489873,3.542435755e-06,-9.692134705,0.3276372445,63.5838353,-656.4161647,1.974584751,0.1457618346,0.2934274213,65.47278558,54.70882709,35.96706675,-6.145859311e-08,7.950467308e-05,0.6574271222,1.912592861e-05,-9.918184066,0.3192205171,-112.5222989,-472.5222989,1.937808865,-0.1222751743,-0.2948737361,39.89826224,33.3505466,-21.90005415,1.009351532e-07,-4.840974821e-05,0.6566625252,1.905814616e-05,-17.28830099,0.136642233,-170.6684137,-170.6684137,1.316536755,-0.1348339748,-0.02215624223,38.12384904,38.0850406,-1.71975244,1.285350885e-06,-3.801487523e-06,0.04515558898,3.266735615e-06,
80000,-17.38769468,0.1350875316,13.83733237,-346.1626676,1.312372723,0.1311671093,0.03230836775,65.07849948,64.93799625,4.274077433,-4.654657806e-07,8.503006883e-06,0.0658178213,2.092855658e-06,-11.18935183,0.2757607227,17.04850954,-702.9514905,1.761518276,0.2636429352,0.08084787516,85.46552579,84.18609348,14.73288036,-1.350337979e-07,2.931013418e-05,0.1750037298,1.839782118e-05,-11.24732745,0.2739262344,-156.7741313,-516.7741313,1.75454106,-0.2517265356,-0.1080246877,30.08768253,29.29905186,-6.843551738,2.907023816e-07,-1.361481359e-05,0.2335758772,1.83629486e-05,-17.53324511,0.1328427154,-152.2184013,-152.2184013,1.306386668,-0.1175300307,-0.06191832463,39.51951069,39.2091933,-4.942760945,4.024950449e-07,-9.833310461e-06,0.1260612762,1.890952275e-06,
88000,-16.6717088,0.1466947462,-7.926825931,-367.9268259,1.343827125,0.1452930783,-0.02023042135,66.99085817,66.93365839,-2.767752453,6.534467693e-07,-5.005698684e-06,0.04135068245,1.27785903e-06,-10.40622959,0.3017786563,-40.34447666,-760.3444767,1.864421172,0.2300054374,-0.1953659544,78.38845907,72.01616233,-30.95840563,5.841963958e-08,-5.599071916e-05,0.4298813576,1.759536125e-05,-10.73195651,0.2906713143,143.9514478,-576.0485522,1.819567346,-0.2350131692,0.1710515222,31.43550353,29.44678916,11.00352171,-1.643636416e-07,1.990073718e-05,0.3736747545,1.75842164e-05,-16.83070356,0.1440339337,-175.5579004,-175.5579004,1.336541224,-0.1436012719,-0.01115566125,37.44445977,37.43474465,-0.8529130013,2.120472892e-06,-1.542560457e-06,0.0227839941,1.111322161e-06,
96000,-19.85626167,0.1016686172,-18.6533521,-378.6533521,1.226349917,0.09632806574,-0.03251786377,60.64705294,60.51652461,-3.976842874,4.1687943e-07,-6.593064597e-06,0.06571499106,1.771153831e-06,-10.74350916,0.2902849645,-89.53537751,-809.5353775,1.81803245,0.002353950768,-0.2902754201,50.21757437,42.41250114,-26.8883715,6.165728522e-08,-4.457726287e-05,0.6339727857,1.721467326e-05,-11.14632066,0.2771302715,95.07226238,-624.9277376,1.766750247,-0.02450166656,0.2760450248,47.77408342,41.0017368,24.51980071,-6.761327347e-08,4.065049465e-05,0.5980185871,1.726939138e-05,-20.42345494,0.0952417251,174.4017832,-185.5982168,1.210535184,-0.09478746364,0.009291013734,41.34261893,41.33535194,0.7751258007,-2.13883216e-06,1.285053153e-06,0.01875212776,1.63146004e-06,
104000,-21.17137275,0.08738388771,-6.078243049,-366.078243,1.191501961,0.08689263508,-0.009252772568,59.51524761,59.50490223,-1.109643832,1.379123596e-06,-1.698127894e-06,0.01864793976,1.17519054e-06,-11.15486705,0.2768577261,-136.4974232,-856.4974232,1.765707486,-0.2008169279,-0.1905853142,33.78688879,31.23045924,-12.89233374,1.187012392e-07,-1.972960233e-05,0.4128128133,1.623702304e-05,-11.58805416,0.2633887929,48.34178804,-671.658212,1.715136534,0.1750707446,0.1967838678,70.24339089,64.69582329,27.36027069,-5.593277963e-08,4.187040697e-05,0.4229062913,1.62011441e-05,-21.45209498,0.08460484826,-169.9815451,-169.9815451,1.184848801,-0.08331477407,-0.01471831413,42.31082205,42.29223754,-1.253916384,1.220445008e-06,-1.918913373e-06,0.02964885418,1.068658235e-06,
112000,-20.14042409,0.09839630625,-12.59157424,-372.5915742,1.218269528,0.09602976005,-0.02145036755,60.61765615,60.56085745,-2.623505647,5.41651694e-07,-3.728070463e-06,0.04332015359,8.441211375e-07,-11.44985191,0.2676131221,177.2336879,-902.7663121,1.730797151,-0.2673012689,0.0129156781,28.91082499,28.89964044,0.804104267,-1.767216437e-06,1.142653293e-06,0.02782402323,1.587163731e-05,-11.90480312,0.2539567987,2.351462696,-717.6485373,1.6808099,0.2537429533,0.010419656,83.99679838,83.97596572,1.870646958,-7.596442885e-07,2.658238484e-06,0.0222759803,1.582323617e-05,-20.21339379,0.09757314663,-178.4996035,-178.4996035,1.216246106,-0.09753969307,-0.002554842163,41.11293122,41.11238416,-0.2120905167,6.70009343e-06,-3.013861975e-07,0.005158798768,7.644171169e-07,
120000,-21.85476776,0.08077214423,-27.88045863,-387.8804586,1.175739113,0.07139653143,-0.03777134606,57.67673732,57.51071646,-4.3730447,3.032878197e-07,-5.799930669e-06,0.0760387797,4.134055541e-08,-11.92836567,0.2532688139,132.4578589,-947.5421411,1.678339993,-0.1709685445,0.1868551548,35.83404217,33.27881259,13.28906356,-9.980320933e-08,1.762516796e-05,0.3993250518,1.560528633e-05,-12.16680386,0.2464108386,-42.98462735,-762.9846274,1.653965984,0.1802585613,-0.1680034299,71.23469963,67.07227345,-23.99359427,5.527688672e-08,-3.182249276e-05,0.3577274638,1.553926112e-05,-22.29368851,0.07679192852,165.5041144,-194.4958856,1.166358876,-0.07434730489,0.01922182461,43.08216229,43.04998369,1.664815892,-7.966593778e-07,2.208030654e-06,0.03867169622,3.218657993e-08,
128000,-25.53780119,0.05285790434,-19.90758869,-379.9075887,1.111615574,0.04969927647,-0.01799833241,55.22806071,55.1921139,-1.992298423,6.241022823e-07,-2.477219861e-06,0.03609751978,-6.668230784e-07,-12.19840351,0.245516014,87.43540418,-992.5645958,1.650818357,0.01098578494,0.2452701075,51.04708446,45.25262279,23.62212866,-5.263700028e-08,2.937170737e-05,0.5220057359,1.538959511e-05,-12.68231765,0.2322117106,-87.11913076,-807.1191308,1.604884742,0.01167083753,-0.2319182401,51.11991067,45.90022936,-22.50364885,5.525317256e-08,-2.798099181e-05,0.4902731241,1.53011799e-05,-26.1226757,0.04941584372,175.651347,-184.348653,1.103969424,-0.04927358072,0.003746979326,45.30409221,45.3028139,0.340328471,-3.653523283e-06,4.231637378e-07,0.007512303138,-6.805000397e-07,
136000,-24.09694026,0.06239545948,-3.015539825,-363.0155398,1.133095472,0.0623090607,-0.00328242569,56.64486979,56.64363965,-0.3733104457,3.134808972e-06,-4.368691378e-07,0.006590509509,3.489447708e-09,-12.46199561,0.2381772186,43.68559551,-1036.314404,1.625282479,0.1722356679,0.1645091552,70.12964605,66.21707784,23.09687982,-5.066731713e-08,2.702928378e-05,0.348805483,1.523781476e-05,-12.95958941,0.2249160922,-130.6882753,-850.6882753,1.58036579,-0.1466325281,-0.1705466219,37.53484059,35.32429673,-12.69087542,9.221246725e-08,-1.485158497e-05,0.3592676033,1.512414857e-05,-24.12665024,0.06218240112,-167.5205071,-167.5205071,1.132610864,-0.06071324313,-0.01343700553,44.27716468,44.26106034,-1.194089352,9.80041345e-07,-1.397391345e-06,0.02697832684,1.497654423e-07,
144000,-22.78901234,0.07253529525,-15.42178132,-375.4217813,1.156416292,0.06992361711,-0.01928877464,57.51503004,57.47182712,-2.22884904,4.958804478e-07,-2.463419043e-06,0.03878159356,7.127380845e-07,-12.72992937,0.2309423237,0.009649928136,-1079.99035,1.600585186,0.2309423205,3.889600309e-05,80.02925868,80.02925841,0.006576383764,-0.0001680623729,7.268499887e-09,8.217474327e-05,1.4915896e-05,-13.222154,0.2182188687,-174.1337039,-894.1337039,1.558260771,-0.2170760809,-0.02230358124,32.17177919,32.13654864,-1.505196934,7.34284422e-07,-1.663607863e-06,0.0468375416,1.494306025e-05,-22.86091548,0.07193731533,177.8119078,-182.1880922,1.155026846,-0.07188486388,0.002746576194,43.29364955,43.29298957,0.2390520781,-4.623438831e-06,2.642105548e-07,0.0055217272,8.237184034e-07,
152000,-24.88971405,0.05695269735,-30.17361036,-390.1736104,1.120784392,0.04923597102,-0.02862566842,55.17409878,55.0833114,-3.163855527,3.309481059e-07,-3.312784516e-06,0.05743764213,-3.612416153e-07,-13.057458,0.2223960657,-43.25379652,-1123.253797,1.572003448,0.1619767406,-0.1523927345,68.7939104,65.50871372,-21.00501215,4.984867358e-08,-2.199375995e-05,0.3206445518,1.48370777e-05,-13.54285831,0.2103086253,142.7349199,-937.2650801,1.532634981,-0.1673725764,0.1273426031,35.86437809,34.6551015,9.234584751,-1.133859315e-07,9.669275069e-06,0.26647115,1.482174859e-05,-25.26927191,0.05451755931,162.2672116,-197.7327884,1.115322204,-0.05192728492,0.01660485934,45.06490213,45.03992382,1.500222106,-6.979446508e-07,1.570840552e-06,0.03330871767,-3.833979779e-07,
160000,-28.7223553,0.03663382234,-16.59198183,-376.5919818,1.076053786,0.03510848322,-0.0104609438,53.63818071,53.62641361,-1.123473541,8.853954797e-07,-1.117539796e-06,0.02095000327,-1.491167589e-06,-13.47614763,0.2119300881,-83.88380222,-1163.883802,1.537845906,0.02258012747,-0.210723753,52.20973866,47.76602721,-21.07755812,4.719324643e-08,-2.096623477e-05,0.4412667192,1.482589978e-05,-13.40821598,0.2135940749,100.989204,-979.010796,1.543215833,-0.04071616304,0.2096774258,46.24649583,42.3394501,18.60401413,-5.346794448e-08,1.850575506e-05,0.4394014112,1.476860242e-05,-29.22763548,0.03456354077,178.8959426,-181.1040574,1.071601897,-0.03455712405,0.0006659787274,46.65971956,46.65967807,0.06222304008,-1.59863355e-05,6.189440252e-08,0.001333550565,-1.52579473e-06,
168000,-26.2118721,0.04891098341,2.771439693,-357.2285603,1.102852588,0.04885377534,0.002364938366,55.13627517,55.13565547,0.2614102215,-3.6240008e-06,2.47647196e-07,0.004741219075,-4.743718857e-07,-13.5708887,0.2096310285,-128.0215972,-1208.021597,1.53046371,-0.1291240068,-0.1651428441,38.83827084,36.70940861,-12.68190054,7.470101575e-08,-1.201420927e-05,0.3454673071,1.485799897e-05,-14.04553805,0.1984829003,58.31709108,-1021.682909,1.495268037,0.1042467591,0.1689025605,61.27496779,57.80492787,20.32761649,-4.660412854e-08,1.925738479e-05,0.3516588851,1.47585831e-05,-26.23099503,0.04880341903,-162.5415936,-162.5415936,1.102614791,-0.04655528931,-0.01464167839,45.55248208,45.53287041,-1.336538622,7.088091852e-07,-1.266171002e-06,0.02935326963,-3.913006287e-07,
176000,-24.47474569,0.0597396557,-10.42149306,-370.4214931,1.127070457,0.05875417148,-0.01080619248,56.24139371,56.22816908,-1.219577296,7.414777665e-07,-1.102850881e-06,0.02168979207,9.61765511e-07,-13.77123183,0.2048511509,-171.0994065,-1251.099406,1.515252336,-0.2023843872,-0.03169469713,33.18272895,33.11033063,-2.19077758,4.127709986e-07,-1.981097051e-06,0.06616598319,1.486637716e-05,-14.2521987,0.1938161957,15.4073356,-1064.592664,1.480823839,0.1868507124,0.05149299941,72.90127731,72.48746033,7.756566744,-1.165837257e-07,7.01418147e-06,0.1070056353,1.473726576e-05,-24.65505908,0.05851228337,-177.8122455,-177.8122455,1.124297497,-0.05846963365,-0.002233662001,44.47604775,44.4756009,-0.1993694983,4.535746226e-06,-1.802877338e-07,0.004482671268,8.89673898e-07,
184000,-26.22780661,0.04882133709,-26.4278996,-386.4278996,1.102654399,0.04371927027,-0.0217289752,54.56954246,54.51783966,-2.374894186,3.642151814e-07,-2.054218202e-06,0.0435617809,-3.050963278e-07,-14.01227876,0.1992443715,146.3988204,-1293.60118,1.497640889,-0.1659525991,0.110263568,35.91772971,35.00653315,8.039026337,-1.075966766e-07,6.953536844e-06,0.2296436012,1.465758938e-05,-14.49936859,0.1883786024,-26.99774251,-1106.997743,1.464203144,0.1678499333,-0.08551548254,69.98990862,68.91482768,-12.22022238,7.078206025e-08,-1.057015651e-05,0.1773235571,1.464646528e-05,-26.75151972,0.045964656,166.2560347,-193.7439653,1.096358392,-0.04464855455,0.01092044768,45.72646248,45.71551386,1.000581733,-8.644696259e-07,8.654757003e-07,0.02188713741,-9.205789433e-07,
