Frequency,S11_Magnitude,S11_Magnitude (linear),S11_Phase,S11_Unwrapped Phase,S11_VSWR,S11_Real,S11_Imaginary,S11_Impedance (absolute),S11_Resistance,S11_Reactance,S11_Capacitance,S11_Inductance,S11_Quality Factor,S11_Group delay,S12_Magnitude,S12_Magnitude (linear),S12_Phase,S12_Unwrapped Phase,S12_VSWR,S12_Real,S12_Imaginary,S12_Impedance (absolute),S12_Resistance,S12_Reactance,S12_Capacitance,S12_Inductance,S12_Quality Factor,S12_Group delay,S21_Magnitude,S21_Magnitude (linear),S21_Phase,S21_Unwrapped Phase,S21_VSWR,S21_Real,S21_Imaginary,S21_Impedance (absolute),S21_Resistance,S21_Reactance,S21_Capacitance,S21_Inductance,S21_Quality Factor,S21_Group delay,S22_Magnitude,S22_Magnitude (linear),S22_Phase,S22_Unwrapped Phase,S22_VSWR,S22_Real,S22_Imaginary,S22_Impedance (absolute),S22_Resistance,S22_Reactance,S22_Capacitance,S22_Inductance,S22_Quality Factor,S22_Group delay,
0,-12.91234274,0.226142851,-133.4586882,-133.4586882,1.584456321,-0.1555481497,-0.1641504255,36.85297411,34.82725431,-12.05006463,inf,-inf,0.3459952519,1.159305958e-05,-13.1675553,0.2195948926,-132.1875731,-132.1875731,1.562771541,-0.147471124,-0.1627088948,37.44411574,35.43044506,-12.11385019,inf,-inf,0.3419051093,1.88434897e-05,-15.72556362,0.1635768419,-91.08716756,-91.08716756,1.391134177,-0.003103627652,-0.1635473959,49.69863352,47.10919331,-15.83281652,inf,-inf,0.3360876169,7.901905955e-06,-16.03439049,0.1578630449,-89.4440492,-89.4440492,1.374910622,0.001531748239,-0.1578556134,50.14967443,47.71112914,-15.44791254,inf,-inf,0.323780066,1.216851448e-07,
8000,-30.86412947,0.02862816598,-156.4665854,-156.4665854,1.058943784,-0.02624708612,-0.01143076363,47.44274622,47.43033278,-1.085219261,1.833211831e-05,-2.158975122e-05,0.0228802793,1.159305958e-05,-24.8429424,0.05726020254,-88.66990318,-88.66990318,1.121476154,0.001329151526,-0.05724477401,50.13265676,49.80516296,-5.720927978,3.47747218e-06,-0.0001138142459,0.1148661632,1.88434897e-05,-34.88452196,0.01802079316,79.63217045,79.63217045,1.036703004,0.003243145573,0.01772656179,50.32526724,50.29364899,1.78364619,-1.115376357e-05,3.548451348e-05,0.03546464068,7.901905955e-06,-23.45511383,0.06718066653,-14.09339411,-14.09339411,1.144037895,0.06515853494,-0.01635870656,56.96800591,56.93726362,-1.87128554,1.063139081e-05,-3.722804295e-05,0.03286574417,1.216851448e-07,
16000,-13.79339867,0.2043290269,156.3763608,-203.6236392,1.513601812,-0.1872057384,0.08188017296,34.32312125,33.83263232,5.781837311,-1.720419204e-06,5.751299926e-05,0.170895284,1.159305958e-05,-36.15692248,0.01556517028,-143.1830893,-143.1830893,1.031622551,-0.01246076766,-0.009327582493,48.76936498,48.76087684,-0.9098626388,1.093262161e-05,-9.050571031e-06,0.01865968575,1.88434897e-05,-33.1253614,0.02206642254,-15.5738831,-15.5738831,1.045128673,0.02125625488,-0.005924409856,52.17171169,52.16804619,-0.6184309048,1.608455183e-05,-6.151645966e-06,0.01185459203,7.901905955e-06,-14.72905844,0.1834624032,-25.48889621,-25.48889621,1.449366701,0.1656057689,-0.07895050791,69.69616662,68.78395543,-11.23935577,8.850315045e-07,-0.0001117999392,0.1634008352,1.216851448e-07,
24000,-7.351469466,0.4289696106,120.1493801,-239.8506199,2.502440566,-0.2154526368,0.370938119,34.14472175,25.26394409,22.96943954,-2.887077829e-07,0.0001523208268,0.9091786878,1.232692469e-05,-20.54463774,0.09392216886,116.4574156,-243.5425844,1.207315896,-0.04184538257,0.08408530051,46.01065267,45.36236216,7.696509495,-8.616186294e-07,5.103906378e-05,0.1696672997,2.742777501e-05,-21.51677205,0.08397720145,-54.28423831,-54.28423831,1.183351772,0.04902291641,-0.06818301863,55.12986714,54.6172116,-7.500829842,8.840963069e-07,-4.974142278e-05,0.1373345439,2.370925962e-05,-6.801429116,0.4570129897,-52.45587716,-52.45587716,2.683329365,0.2784910114,-0.3623584265,82.29294227,60.68145388,-55.58677454,1.192991681e-07,-0.0003686212474,0.9160422334,9.039744087e-06,
32000,-6.397825797,0.4787499153,101.2932711,-258.7067289,2.836929832,-0.09375406421,0.4694801986,42.87454566,27.20382897,33.13877419,-1.500837642e-07,0.0001648187413,1.218165804,1.033634037e-05,-20.72919167,0.0919476039,33.90251583,-326.0974842,1.202516076,0.07631538892,0.05128667738,58.23846405,57.92932426,5.992669324,-8.299460062e-07,2.980509204e-05,0.1034479411,2.794290744e-05,-20.05060706,0.09941905867,-137.9164089,-137.9164089,1.220788725,-0.07378562545,-0.06663205463,43.15690709,42.77123121,-5.756770812,8.639551815e-07,-2.863182909e-05,0.134594461,2.396305697e-05,-6.176922254,0.4910818546,-72.01507376,-72.01507376,2.92990507,0.1516297597,-0.4670865058,64.16144553,40.45405162,-49.80121284,9.986889251e-08,-0.0002476909123,1.231056244,9.172209272e-06,
40000,-7.366513828,0.4282272586,53.56724383,-306.4327562,2.497893228,0.2543151546,0.3445321278,79.1772536,60.513042,51.06083857,-7.79241722e-08,0.0002031646214,0.8437989049,7.254279463e-06,-15.34478754,0.1709073039,-32.17266594,-392.1726659,1.412275502,0.144664024,-0.09100344323,66.74753166,65.60449277,-12.29973623,3.234925938e-07,-4.89390955e-05,0.1874831389,2.541046183e-05,-15.08649387,0.1760659225,159.3900948,-200.6099052,1.427378664,-0.1647974739,0.06197581521,35.8996243,35.60947201,4.555055224,-8.735072095e-07,1.812398887e-05,0.1279169549,2.590929307e-05,-7.223115852,0.4353556724,-121.0026202,-121.0026202,2.542052762,-0.2242418127,-0.3731623922,33.63060458,24.73920757,-22.78133388,1.746549872e-07,-9.064404742e-05,0.9208594825,6.678482006e-06,
48000,-13.89748906,0.2018949922,40.82412758,-319.1758724,1.505935911,0.1527779441,0.1319866951,67.66114039,65.23605655,17.95234928,-1.846960489e-07,5.952510684e-05,0.275190596,6.547871584e-06,-9.969755366,0.3173308037,-111.2459157,-471.2459157,1.929676644,-0.1149916708,-0.2957630042,40.44557098,33.79098233,-22.22641954,1.491795822e-07,-7.369676118e-05,0.6577618644,2.366767898e-05,-10.07670008,0.3134476339,72.52092991,-287.4790701,1.913106267,0.09414631343,0.2989747329,59.45270387,49.54908784,32.85592628,-1.009171969e-07,0.0001089413141,0.6630985091,2.417183025e-05,-13.66508104,0.2073700098,-123.2953382,-123.2953382,1.523245429,-0.1138367647,-0.1733306435,40.05152027,37.65703419,-13.64082298,2.430738955e-07,-4.522925845e-05,0.3622383779,6.114038754e-06,
56000,-10.67997547,0.2924160636,45.92232757,-314.0776724,1.826519791,0.2034142336,0.2100709495,74.1431702,67.37303404,30.95293156,-9.181852613e-08,8.796985823e-05,0.4594261191,5.06589461e-06,-10.61343366,0.2946648393,-176.879019,-536.879019,1.835531406,-0.2942277925,-0.01604286831,27.27109914,27.25428057,-0.9576214148,2.96782477e-06,-2.721610389e-06,0.03513655083,2.250714169e-05,-10.68713237,0.2921752213,7.403272041,-352.596728,1.825558048,0.2897395918,0.03764742841,90.70477346,90.39897461,7.441862568,-3.819007042e-07,2.115016453e-05,0.08232242236,2.298514226e-05,-10.35501362,0.3035633377,-122.9858858,-122.9858858,1.871761509,-0.1652697229,-0.2546303569,36.58318549,31.90607957,-17.89780844,1.587933274e-07,-5.08665122e-05,0.5609529179,4.701667154e-06,
64000,-11.24048251,0.2741421877,10.82637842,-349.1736216,1.755360576,0.2692626975,0.05149309491,86.70451995,86.17190337,9.595668266,-2.591581865e-07,2.386246933e-05,0.1113549532,3.626379981e-06,-9.699348413,0.3273652518,125.4411151,-594.5588849,1.973381922,-0.1898279641,0.2667083653,34.97521047,30.02480556,17.93812696,-1.386318645e-07,4.460846211e-05,0.5974435678,2.027355162e-05,-9.871719145,0.3209327539,-49.99735315,-409.9973532,1.945216415,0.2063029548,-0.2458392226,74.08239052,64.96325766,-35.60864698,6.983685697e-08,-8.855144036e-05,0.5481351807,2.003001355e-05,-11.31813396,0.2717022918,-159.065599,-159.065599,1.746129746,-0.2537672553,-0.09707891406,29.92082925,29.28428154,-6.138963928,4.050839873e-07,-1.526635085e-05,0.2096334144,3.626478028e-06,
72000,-16.52242203,0.1492378207,-4.382763975,-364.382764,1.350833228,0.1488014174,-0.01140461784,67.47866738,67.4603128,-1.573769043,1.404580508e-06,-3.478793367e-06,0.0233288133,3.5662211e-06,-9.637074095,0.3297207623,65.38097832,-654.6190217,1.983831048,0.1373559415,0.2997484386,64.39678592,53.43405594,35.94089179,-6.150335204e-08,7.944681373e-05,0.6726214427,1.916349787e-05,-9.865481691,0.3211633028,-110.3368122,-470.3368122,1.946216679,-0.1116165057,-0.3011438572,40.7245259,33.80836907,-22.70421085,9.736014767e-08,-5.01873248e-05,0.6715559334,1.905737059e-05,-17.17492272,0.138437537,-170.8214968,-170.8214968,1.321363901,-0.1366650079,-0.02208228404,37.98192179,37.94347649,-1.708500582,1.29381596e-06,-3.776615456e-06,0.04502751829,3.270099691e-06,
80000,-17.6397602,0.1312236127,13.75680163,-346.2431984,1.30208835,0.127459312,0.03120513248,64.59128332,64.46143633,4.093544672,-4.859936676e-07,8.143848367e-06,0.06350377692,2.120551297e-06,-11.14520992,0.2771657127,15.68494232,-704.3150577,1.766885903,0.2668448455,0.07493103959,86.09926332,84.98676449,13.79612287,-1.442026001e-07,2.744651438e-05,0.162332605,1.832508859e-05,-11.43832241,0.2679685829,-157.0412232,-517.0412232,1.732123176,-0.2467416495,-0.1045261682,30.39191677,29.64922045,-6.677749012,2.9792027e-07,-1.328495955e-05,0.2252251125,1.832412807e-05,-17.64033765,0.1312148891,-151.5988163,-151.5988163,1.302065234,-0.1154217006,-0.06241136238,39.68868411,39.37238849,-5.000667032,3.978342841e-07,-9.948510961e-06,0.1270094913,1.887854756e-06,
88000,-16.68256311,0.1465115439,-6.896467866,-366.8964679,1.34332402,0.1454514956,-0.01759246706,67.01456359,66.97128435,-2.408070995,7.510488281e-07,-4.355186388e-06,0.03595676891,1.223609909e-06,-10.35039959,0.3037246361,-37.95530194,-757.9553019,1.872426778,0.2394840839,-0.1868047861,80.03104564,74.00784511,-30.4599266,5.937568145e-08,-5.50891805e-05,0.4115769963,1.73751662e-05,-10.68777126,0.2921537312,146.4990705,-573.5009295,1.825472264,-0.2436202385,0.1612544017,30.83567061,29.08080645,10.25403715,-1.763772524e-07,1.854523522e-05,0.3526049791,1.742863062e-05,-16.73764035,0.1455854531,-173.8087127,-173.8087127,1.340784116,-0.1447363078,-0.01570112591,37.35914313,37.33993163,-1.197948606,1.509729959e-06,-2.16658457e-06,0.03208223886,1.03775242e-06,
96000,-19.77388627,0.1026374105,-18.45270831,-378.4527083,1.228753487,0.09736033207,-0.03248697855,60.773462,60.64285708,-3.982156173,4.163231975e-07,-6.601873323e-06,0.06566570845,1.702422775e-06,-10.72284388,0.2909764266,-86.77202039,-806.7720204,1.820780683,0.01638461289,-0.2905147592,51.53408935,43.50862304,-27.61814776,6.002806577e-08,-4.578713266e-05,0.6347741167,1.688919496e-05,-11.07702555,0.27935003,97.7172613,-622.2827387,1.775272439,-0.03751244317,0.2768198979,46.63336655,39.97894736,24.00738727,-6.905641051e-08,3.980098286e-05,0.6005007349,1.701110765e-05,-20.2389157,0.09728686635,175.2429005,-184.7570995,1.215543261,-0.09695173586,0.008068164405,41.16224305,41.1567823,0.6704651464,-2.472707194e-06,1.111540023e-06,0.0162905142,1.576530955e-06,
104000,-21.27869994,0.08631077235,-5.897991691,-365.8979917,1.188928073,0.08585387933,-0.00886909393,59.39088791,59.38140593,-1.061224176,1.442047803e-06,-1.624029551e-06,0.01787132115,1.104635005e-06,-11.09995437,0.2786135806,-133.5929336,-853.5929336,1.772439217,-0.1921124849,-0.2017878104,34.43583496,31.5481807,-13.80358736,1.108650927e-07,-2.112412654e-05,0.437539885,1.619107383e-05,-11.52817441,0.2652108453,51.31166464,-668.6883354,1.721869243,0.1657789919,0.2070123626,68.87640932,62.91891407,28.02088531,-5.461411995e-08,4.288136929e-05,0.4453491565,1.608495426e-05,-21.45913104,0.08453634137,-169.18599,-169.18599,1.184685303,-0.08303509455,-0.01586083499,42.33490416,42.31331291,-1.35191023,1.131980481e-06,-2.068876881e-06,0.03194999721,1.045290585e-06,
112000,-20.18418909,0.09790177037,-11.25732442,-371.2573244,1.217053459,0.09601817291,-0.01911196257,60.61736282,60.57226889,-2.337716313,6.078694278e-07,-3.32195631e-06,0.03859383768,8.63900782e-07,-11.39427195,0.2693310365,-179.7006492,-899.7006492,1.737217673,-0.2693273606,-0.001407155788,28.781919,28.78178649,-0.08733621467,1.627075644e-05,-1.24107056e-07,0.003034426467,1.582764517e-05,-11.85670213,0.2553670698,5.59252957,-714.4074704,1.685887125,0.2541515519,0.0248863222,84.04527428,83.92639215,4.468649568,-3.179990411e-07,6.350068462e-06,0.05324486677,1.572709322e-05,-20.13238714,0.09848739325,-176.6122234,-176.6122234,1.218493657,-0.09831528235,-0.005819955813,41.04881609,41.04598084,-0.4824512542,2.945429751e-06,-6.855759098e-07,0.01175392193,8.415705975e-07,
120000,-21.83892659,0.08091958938,-26.40090389,-386.4009039,1.17608816,0.07248006022,-0.03598083957,57.80344435,57.65239198,-4.176108005,3.175902517e-07,-5.538735265e-06,0.07243598853,4.999677624e-08,-11.86690443,0.2550672961,135.3575494,-944.6424506,1.684806278,-0.1814818155,0.1792307903,35.05908398,32.73549175,12.55097402,-1.056723717e-07,1.66462463e-05,0.3834056967,1.554469013e-05,-12.24513379,0.244198679,-39.06190499,-759.061905,1.646198074,0.1896118644,-0.1538841633,72.70992052,69.10304225,-22.61641206,5.864286471e-08,-2.999594811e-05,0.327285331,1.547143345e-05,-21.96480929,0.07975529676,167.0666648,-192.9333352,1.173334976,-0.07773199582,0.01785060746,42.78959139,42.76199854,1.536428379,-8.632300801e-07,2.037751426e-06,0.0359297608,9.633190214e-08,
128000,-25.49757121,0.05310329132,-20.64142347,-380.6414235,1.112162796,0.04969432118,-0.01871988224,55.22736615,55.18848093,-2.07208693,6.000703807e-07,-2.57642873e-06,0.03754564168,-7.112175249e-07,-12.11985267,0.2477464081,90.8346476,-989.1653524,1.6586779,-0.003608880675,0.2477201218,49.66112998,43.91845368,23.18183032,-5.363674808e-08,2.882424129e-05,0.5278380357,1.530782331e-05,-12.60406944,0.2343130775,-83.56609627,-803.5660963,1.612033641,0.02625641037,-0.2328373235,52.5541447,47.14220875,-23.2282216,5.352962504e-08,-2.888192412e-05,0.4927266291,1.525612336e-05,-25.83380464,0.05108692564,174.9979564,-185.0020436,1.107674616,-0.05089236563,0.004454334122,45.15731544,45.15551422,0.4033281312,-3.082844703e-06,5.014973888e-07,0.008931979586,-7.072881508e-07,
136000,-24.29575504,0.06098348625,-1.925895741,-361.9258957,1.129887995,0.06094903844,-0.002049465464,56.49046402,56.48998592,-0.2324128906,5.035249687e-06,-2.719827969e-07,0.004114231696,-1.008312439e-07,-12.39032128,0.2401507437,47.29588008,-1032.70412,1.632101017,0.1628732394,0.1764785755,68.74059582,64.37315711,24.11153577,-4.853514705e-08,2.821669194e-05,0.3745588512,1.514634332e-05,-12.8844248,0.2268708823,-126.8976642,-846.8976642,1.586890022,-0.1362104698,-0.1814307172,38.35538522,35.82354444,-13.70435112,8.539309337e-08,-1.603761193e-05,0.3825515127,1.509544446e-05,-24.13586468,0.06211646978,-166.3782594,-166.3782594,1.132460946,-0.06036923951,-0.01462910587,44.30792491,44.28882533,-1.300831028,8.996225559e-07,-1.522306532e-06,0.02937154054,2.013550384e-08,
144000,-22.77436986,0.07265767676,-13.25329613,-373.2532961,1.156700875,0.07072251738,-0.0166572365,57.60820128,57.57591986,-1.928291142,5.73172088e-07,-2.131229632e-06,0.03349127807,7.933580339e-07,-12.65651224,0.2329026273,3.89752976,-1076.10247,1.607230935,0.2323639726,0.01583092181,80.2596284,80.21469015,2.685411451,-4.115729305e-07,2.968031296e-06,0.03347780121,1.495566991e-05,-13.14352042,0.2202033791,-170.1777672,-890.1777672,1.564771309,-0.2169755889,-0.03756490399,32.19258371,32.09269916,-2.53399032,4.361668834e-07,-2.800674203e-06,0.07895846678,1.492286474e-05,-22.65382169,0.07367309508,-179.704812,-179.704812,1.159065001,-0.07367211732,-0.0003795623369,43.13830487,43.1382923,-0.03292605565,3.356741762e-05,-3.639128134e-08,0.0007632674797,9.227089038e-07,
152000,-24.62536412,0.05871266507,-28.64299765,-388.6429976,1.124749719,0.05152761424,-0.02814395158,55.42815007,55.33994526,-3.125744474,3.349832345e-07,-3.272879499e-06,0.0564826087,-2.304485882e-07,-12.97110124,0.2246181976,-39.28123545,-1119.281235,1.579374437,0.1738651773,-0.1422119363,70.52775213,67.56194776,-20.2372685,5.173978861e-08,-2.118987708e-05,0.2995364871,1.482488331e-05,-13.45225254,0.2125139154,146.8695302,-933.1304698,1.539727417,-0.1779651419,0.1161489238,35.06866933,34.07476206,8.289882942,-1.26307211e-07,8.680104262e-06,0.2432851307,1.477723498e-05,-24.71160111,0.05813262639,164.1280977,-195.8719023,1.123441215,-0.05591635157,0.01589854955,44.70574278,44.68300662,1.425607691,-7.344741477e-07,1.492713888e-06,0.03190491865,-1.657066069e-07,
160000,-28.55376254,0.03735182904,-18.70722821,-378.7072282,1.077602244,0.0353785253,-0.01197994492,53.66706078,53.65161988,-1.287282867,7.727271295e-07,-1.280483946e-06,0.0239933644,-1.51797649e-06,-13.41573274,0.2134093107,-81.23844129,-1161.238441,1.542618451,0.03250709791,-0.210918995,53.21208519,48.67046957,-21.51072761,4.624289854e-08,-2.139711643e-05,0.4419667161,1.475758997e-05,-13.54142908,0.2103432337,104.6610542,-975.3389458,1.532745979,-0.05323795728,0.2034944615,45.13702445,41.52858931,17.68409585,-5.624932157e-08,1.759069543e-05,0.4258294382,1.469706043e-05,-28.23129936,0.03876457546,176.4577697,-183.5422303,1.080655736,-0.03869051694,0.002395038526,46.27508846,46.27455598,0.2219922747,-4.480869415e-06,2.208197991e-07,0.004797285896,-1.469128965e-06,
168000,-26.45742871,0.04754759608,4.119529966,-355.88047,1.099842461,0.04742474993,0.003415697107,54.97852194,54.97723329,0.3764221588,-2.516724453e-06,3.566038527e-07,0.006846873446,-6.731906027e-07,-13.48441282,0.2117285186,-123.614454,-1203.614454,1.537196952,-0.1172132578,-0.1763236166,39.79621181,37.33308352,-13.78329968,6.873178949e-08,-1.305762069e-05,0.3691979975,1.473308192e-05,-13.96085325,0.200427513,62.89074134,-1017.109259,1.501336692,0.09133256373,0.178408382,59.70841864,55.96629903,20.80549517,-4.553368445e-08,1.971010357e-05,0.37175042,1.466641611e-05,-26.27559953,0.04855344208,-162.073375,-162.073375,1.102062363,-0.04619624406,-0.01494469044,45.58530598,45.56486101,-1.365123678,6.939670501e-07,-1.293251079e-06,0.0299600097,-5.278099221e-07,
176000,-24.43054388,0.06004444101,-7.775698483,-367.7756985,1.12776017,0.05949235123,-0.008123733241,56.325112,56.31762524,-0.9183296142,9.847111924e-07,-8.304357812e-07,0.016306256,9.277411848e-07,-13.68527214,0.20688852,-166.4451565,-1246.445156,1.521713593,-0.2011258515,-0.04848970568,33.28930985,33.11975773,-3.35556227,2.69489694e-07,-3.034399557e-06,0.1013160271,1.469597194e-05,-14.16086406,0.195864982,20.17395711,-1059.826043,1.487144516,0.183848641,0.06754826705,72.3967225,71.69270416,10.07182208,-8.978409687e-08,9.107842444e-06,0.1404860118,1.462813212e-05,-24.39573673,0.06028554112,-175.4486185,-175.4486185,1.128306084,-0.06009543504,-0.004783843137,44.33125254,44.3292088,-0.4256750131,2.124365823e-06,-3.849334232e-07,0.009602585397,1.006070151e-06,
184000,-25.8583348,0.05094285257,-24.41481783,-384.4148178,1.107354658,0.04638737933,-0.02105671547,54.86211843,54.81328011,-2.31438151,3.737380865e-07,-2.001876399e-06,0.042223007,-1.251374785e-07,-13.91588435,0.2014678643,151.1657425,-1288.834257,1.504595508,-0.1764895722,0.09716342533,35.12181845,34.42280511,6.972275075,-1.240588628e-07,6.030826319e-06,0.2025481379,1.461910164e-05,-14.39382171,0.1906816557,-22.08331321,-1102.083313,1.471215455,0.1766928992,-0.07168760853,71.32398852,70.54740999,-10.49639379,8.240663741e-08,-9.07909215e-06,0.148784963,1.459595163e-05,-26.04640955,0.04985164831,167.6817547,-192.3182453,1.104934452,-0.04870394808,0.01063542575,45.35629831,45.34598992,0.9669508711,-8.945361575e-07,8.363859286e-07,0.02132384523,-3.932983324e-07,
